Time Stamp,ID,Extended,Dir,Bus,LEN,D1,D2,D3,D4,D5,D6,D7,D8
-1762630376449461,0401E411,true,Rx,0,7,00,01,01,00,00,00,00,00,
-1762630376449333,0401E411,true,Rx,0,7,01,01,03,00,00,00,00,00,
-1762630376449162,0401E451,true,Rx,0,8,01,33,72,FE,FF,FF,00,00,
-1762630376449034,0401E451,true,Rx,0,8,00,33,4B,FF,FF,FF,00,00,
-1762630376445749,040A2011,true,Rx,0,8,E9,FF,F7,FF,D3,03,36,8E,
-1762630376445621,04056411,true,Rx,0,8,F8,FF,04,00,06,FD,36,8E,
-1762630376444170,040A2012,true,Rx,0,8,0E,00,FA,FF,EC,03,37,8E,
-1762630376444042,04056412,true,Rx,0,8,F9,FF,F8,FF,4A,04,37,8E,
-1762630376439904,0401E412,true,Rx,0,7,00,01,00,00,00,00,00,00,
-1762630376439776,0401E412,true,Rx,0,7,01,01,FF,FF,00,00,00,00,
-1762630376439605,0401E452,true,Rx,0,8,01,3C,C9,F5,FF,FF,00,00,
-1762630376439477,0401E452,true,Rx,0,8,00,3C,44,F5,FF,FF,00,00,
-1762630423129451,0401E411,true,Rx,0,7,00,01,FF,FF,00,00,00,00,
-1762630423129323,0401E411,true,Rx,0,7,01,01,02,00,00,00,00,00,
-1762630423129152,0401E451,true,Rx,0,8,01,47,72,FE,FF,FF,00,00,
-1762630423129024,0401E431,true,Rx,0,6,00,00,00,00,00,00,00,00,
-1762630423128939,0401E431,true,Rx,0,6,01,00,00,00,00,00,00,00,
-1762630423128768,0401E451,true,Rx,0,8,00,47,4B,FF,FF,FF,00,00,
-1762630423125739,040A2011,true,Rx,0,8,E9,FF,F6,FF,CF,03,4A,8E,
-1762630423125611,04056411,true,Rx,0,8,F8,FF,04,00,06,FD,4A,8E,
-1762630423124160,040A2012,true,Rx,0,8,0D,00,FA,FF,EB,03,4B,8E,
-1762630423124032,04056412,true,Rx,0,8,F9,FF,F8,FF,4A,04,4B,8E,
-1762630423123435,0405240A,true,Rx,0,3,FC,FF,00,00,00,00,00,00,
-1762630423121558,0405200C,true,Rx,0,2,00,00,00,00,00,00,00,00,
-1762630423119936,0401E412,true,Rx,0,7,00,01,03,00,00,00,00,00,
-1762630423119766,0401E412,true,Rx,0,7,01,01,FF,FF,00,00,00,00,
-1762630423119638,0401E452,true,Rx,0,8,01,50,C9,F5,FF,FF,00,00,
-1762630423119510,0401E452,true,Rx,0,8,00,50,44,F5,FF,FF,00,00,
-1762630423119424,0405200B,true,Rx,0,2,00,00,00,00,00,00,00,00,
-1762630423112342,0405C40F,true,Rx,0,8,00,01,3C,40,94,51,C3,2E,
-1762630423112171,0405C42F,true,Rx,0,8,00,64,ED,29,E6,FF,4F,00,
-1762630423112043,0405C40F,true,Rx,0,8,01,01,E6,3F,A5,51,3E,1D,
-1762630423111915,0405C42F,true,Rx,0,8,01,64,FA,29,77,00,6C,00,
-1762630423111787,0405C52F,true,Rx,0,5,00,F0,FF,1B,00,00,00,00,
-1762630423111617,0405C40F,true,Rx,0,8,02,01,30,41,DE,51,59,D5,
-1762630423111531,0405C42F,true,Rx,0,8,02,64,73,28,F2,FF,61,00,
-1762630423111403,0405C52F,true,Rx,0,5,02,09,00,21,00,00,00,00,
-1762630423111275,0405C52F,true,Rx,0,5,01,AD,FF,E0,FF,00,00,00,
-1762630423110465,0405C410,true,Rx,0,8,00,01,BB,45,DF,87,B5,71,
-1762630423110337,0405C430,true,Rx,0,8,00,64,AC,08,59,FF,0B,FE,
-1762630423110209,0405C410,true,Rx,0,8,01,01,66,4C,CC,87,8D,48,
-1762630423110081,0405C430,true,Rx,0,8,01,64,E7,2B,B3,FE,43,FF,
-1762630423109910,0405C530,true,Rx,0,5,00,99,FF,64,FE,00,00,00,
-1762630423109825,0405C410,true,Rx,0,8,02,01,31,45,C8,89,C1,8A,
-1762630423109654,0405C430,true,Rx,0,8,02,64,84,2D,87,FF,81,FF,
-1762630423109526,0405C530,true,Rx,0,5,02,7C,00,B7,FF,00,00,00,
-1762630423109441,0401E411,true,Rx,0,7,00,01,02,00,00,00,00,00,
-1762630423109270,0401E411,true,Rx,0,7,01,01,02,00,00,00,00,00,
-1762630423109142,0401E451,true,Rx,0,8,01,5B,72,FE,FF,FF,00,00,
-1762630423109014,0401E451,true,Rx,0,8,00,5B,4B,FF,FF,FF,00,00,
-1762630423108886,0405C530,true,Rx,0,5,01,E4,00,4A,00,00,00,00,
-1762630423105729,040A2011,true,Rx,0,8,E8,FF,F9,FF,D2,03,5E,8E,
-1762630423105601,04056411,true,Rx,0,8,F8,FF,04,00,06,FD,5E,8E,
-1762630423105473,04072001,true,Rx,0,4,00,00,00,01,00,00,00,00,
-1762630423104150,040A2012,true,Rx,0,8,10,00,F8,FF,EC,03,5F,8E,
-1762630423104022,04056412,true,Rx,0,8,F9,FF,F8,FF,4A,04,5F,8E,
-1762630423099926,0401E412,true,Rx,0,7,00,01,00,00,00,00,00,00,
-1762630423099799,0401E412,true,Rx,0,7,01,01,00,00,00,00,00,00,
-1762630423099628,0401E452,true,Rx,0,8,01,64,C9,F5,FF,FF,00,00,
-1762630423099500,0401E452,true,Rx,0,8,00,64,44,F5,FF,FF,00,00,
-1762630423097281,0405200E,true,Rx,0,2,00,00,00,00,00,00,00,00,
-1762630423095148,0405280C,true,Rx,0,2,00,00,00,00,00,00,00,00,
-1762630423095063,0405200D,true,Rx,0,2,00,00,00,00,00,00,00,00,
-1762630423089474,0401E411,true,Rx,0,7,00,01,03,00,00,00,00,00,
-1762630423089346,0401E411,true,Rx,0,7,01,01,00,00,00,00,00,00,
-1762630423089175,0401E451,true,Rx,0,8,01,6F,72,FE,FF,FF,00,00,
-1762630423089047,0401E451,true,Rx,0,8,00,6F,4B,FF,FF,FF,00,00,
-1762630423088962,0405280B,true,Rx,0,2,00,00,00,00,00,00,00,00,
-1762630423085719,040A2011,true,Rx,0,8,E8,FF,F7,FF,D1,03,72,8E,
-1762630423085591,04056411,true,Rx,0,8,F8,FF,04,00,06,FD,72,8E,
-1762630423084183,040A2012,true,Rx,0,8,0F,00,FA,FF,EB,03,73,8E,
-1762630423084055,04056412,true,Rx,0,8,F9,FF,F8,FF,4A,04,73,8E,
-1762630423079917,0401E412,true,Rx,0,7,00,01,04,00,00,00,00,00,
-1762630423079789,0401E412,true,Rx,0,7,01,01,FD,FF,00,00,00,00,
-1762630423079618,0401E452,true,Rx,0,8,01,78,C9,F5,FF,FF,00,00,
-1762630423079490,0401E432,true,Rx,0,6,00,00,00,00,00,00,00,00,
-1762630423079362,0401E432,true,Rx,0,6,01,00,00,00,00,00,00,00,
-1762630423079234,0401E452,true,Rx,0,8,00,78,44,F5,FF,FF,00,00,
-1762630423076162,04030C82,true,Rx,0,4,01,05,10,00,00,00,00,00,
-1762630423076034,04030CE2,true,Rx,0,8,8D,00,00,00,C2,64,1E,67,
-1762630423074583,0405240A,true,Rx,0,3,01,00,00,00,00,00,00,00,
-1762630423069464,0401E411,true,Rx,0,7,00,01,FE,FF,00,00,00,00,
-1762630423069336,0401E411,true,Rx,0,7,01,01,0A,00,00,00,00,00,
-1762630423069208,0401E451,true,Rx,0,8,01,83,72,FE,FF,FF,00,00,
-1762630423069037,0401E451,true,Rx,0,8,00,83,4B,FF,FF,FF,00,00,
-1762630423067202,04098C31,true,Rx,0,3,00,00,00,00,00,00,00,00,
-1762630423067117,04098C51,true,Rx,0,3,00,ED,FF,00,00,00,00,00,
-1762630423065325,040A2011,true,Rx,0,8,EC,FF,F5,FF,D0,03,87,8E,
-1762630423065197,04056411,true,Rx,0,8,F8,FF,05,00,06,FD,86,8E,
-1762630423064173,040A2012,true,Rx,0,8,11,00,F9,FF,E9,03,87,8E,
-1762630423064045,04056412,true,Rx,0,8,F9,FF,F8,FF,4A,04,87,8E,
-1762630423062339,0405C40F,true,Rx,0,8,00,01,32,40,7E,51,27,2E,
-1762630423062168,0405C42F,true,Rx,0,8,00,64,9F,29,D9,FF,31,00,
-1762630423062040,0405C40F,true,Rx,0,8,01,01,E4,3F,E2,51,BF,1D,
-1762630423061912,0405C42F,true,Rx,0,8,01,64,00,2A,56,00,30,00,
-1762630423061784,0405C52F,true,Rx,0,5,00,0C,00,46,00,00,00,00,
-1762630423061656,0405C40F,true,Rx,0,8,02,01,30,41,D8,51,76,D5,
-1762630423061528,0405C42F,true,Rx,0,8,02,64,7D,28,04,00,48,00,
-1762630423061400,0405C52F,true,Rx,0,5,02,0F,00,29,00,00,00,00,
-1762630423061315,0405C52F,true,Rx,0,5,01,09,00,80,FF,00,00,00,
-1762630423060461,0405C410,true,Rx,0,8,00,01,DF,45,C1,87,DF,71,
-1762630423060333,0405C430,true,Rx,0,8,00,64,73,08,42,00,E1,00,
-1762630423060205,0405C410,true,Rx,0,8,01,01,54,4C,CE,87,35,48,
-1762630423060035,0405C430,true,Rx,0,8,01,64,C3,2B,48,00,EC,FF,
-1762630423059907,0401E412,true,Rx,0,7,00,01,03,00,00,00,00,00,
-1762630423059779,0401E412,true,Rx,0,7,01,01,FF,FF,00,00,00,00,
-1762630423059608,0401E452,true,Rx,0,8,01,8C,C9,F5,FF,FF,00,00,
-1762630423059480,0401E452,true,Rx,0,8,00,8C,44,F5,FF,FF,00,00,
-1762630423059352,0405C410,true,Rx,0,8,02,01,2F,45,E8,88,C4,8A,
-1762630423059224,0405C530,true,Rx,0,5,00,75,FF,A1,FE,00,00,00,
-1762630423059096,0405C430,true,Rx,0,8,02,64,82,2D,31,FF,B6,00,
-1762630423059011,0405C530,true,Rx,0,5,02,24,00,30,00,00,00,00,
-1762630423058883,0405C530,true,Rx,0,5,01,65,FF,B5,FE,00,00,00,
-1762630423055555,04072001,true,Rx,0,4,00,00,00,01,00,00,00,00,
-1762630423049454,0401E411,true,Rx,0,7,00,01,02,00,00,00,00,00,
-1762630423049326,0401E411,true,Rx,0,7,01,01,05,00,00,00,00,00,
-1762630423049198,0401E451,true,Rx,0,8,01,97,72,FE,FF,FF,00,00,
-1762630423049027,0401E451,true,Rx,0,8,00,97,4B,FF,FF,FF,00,00,
-1762630423045742,040A2011,true,Rx,0,8,E9,FF,F7,FF,D1,03,9A,8E,
-1762630423045614,04056411,true,Rx,0,8,F8,FF,05,00,06,FD,9A,8E,
-1762630423044163,040A2012,true,Rx,0,8,0D,00,F7,FF,E8,03,9B,8E,
-1762630423044035,04056412,true,Rx,0,8,F9,FF,F8,FF,4A,04,9B,8E,
-1762630423042371,0405200C,true,Rx,0,2,00,00,00,00,00,00,00,00,
-1762630423041475,0405200B,true,Rx,0,2,00,00,00,00,00,00,00,00,
-1762630423039897,0401E412,true,Rx,0,7,00,01,FF,FF,00,00,00,00,
-1762630423039769,0401E412,true,Rx,0,7,01,01,FD,FF,00,00,00,00,
-1762630423039641,0401E452,true,Rx,0,8,01,A0,C9,F5,FF,FF,00,00,
-1762630423039470,0401E452,true,Rx,0,8,00,A0,44,F5,FF,FF,00,00,
-1762630423029444,0401E411,true,Rx,0,7,00,01,FE,FF,00,00,00,00,
-1762630423029316,0401E411,true,Rx,0,7,01,01,02,00,00,00,00,00,
-1762630423029145,0401E451,true,Rx,0,8,01,AB,72,FE,FF,FF,00,00,
-1762630423029017,0401E431,true,Rx,0,6,00,00,00,00,00,00,00,00,
-1762630423028932,0401E431,true,Rx,0,6,01,00,00,00,00,00,00,00,
-1762630423028761,0401E451,true,Rx,0,8,00,AB,4B,FF,FF,FF,00,00,
-1762630423025732,040A2011,true,Rx,0,8,EA,FF,FA,FF,D0,03,AE,8E,
-1762630423025604,04056411,true,Rx,0,8,F8,FF,05,00,06,FD,AE,8E,
-1762630423025476,040D6863,true,Rx,0,6,00,00,00,00,00,01,00,00,
-1762630423025348,040D6843,true,Rx,0,3,00,00,00,00,00,00,00,00,
-1762630423024580,0405240A,true,Rx,0,3,05,00,00,00,00,00,00,00,
-1762630423024196,040A2012,true,Rx,0,8,0C,00,FE,FF,EC,03,AF,8E,
-1762630423024068,04056412,true,Rx,0,8,F9,FF,F8,FF,4A,04,AF,8E,
-1762630423023385,040D6863,true,Rx,0,6,01,00,00,00,00,01,00,00,
-1762630423021423,040D6843,true,Rx,0,3,01,00,00,00,00,00,00,00,
-1762630423019930,0401E412,true,Rx,0,7,00,01,02,00,00,00,00,00,
-1762630423019802,0401E412,true,Rx,0,7,01,01,FE,FF,00,00,00,00,
-1762630423019631,0401E452,true,Rx,0,8,01,B4,C9,F5,FF,FF,00,00,
-1762630423019503,0401E452,true,Rx,0,8,00,B4,44,F5,FF,FF,00,00,
-1762630423018948,0405200E,true,Rx,0,2,00,00,00,00,00,00,00,00,
-1762630423016986,0405200D,true,Rx,0,2,00,00,00,00,00,00,00,00,
-1762630423012604,04048421,true,Rx,0,0,00,00,00,00,00,00,00,00,
-1762630423012263,0405C40F,true,Rx,0,8,00,01,41,40,81,51,5C,2E,
-1762630423012135,0405C42F,true,Rx,0,8,00,64,A3,29,E0,FF,30,00,
-1762630423012007,0405C52F,true,Rx,0,5,00,02,00,1C,00,00,00,00,
-1762630423011879,0405C40F,true,Rx,0,8,01,01,DF,3F,E2,51,B7,1D,
-1762630423011751,0405C42F,true,Rx,0,8,01,64,A4,29,00,00,61,00,
-1762630423011623,0405C40F,true,Rx,0,8,02,01,3B,41,B1,51,55,D5,
-1762630423011452,0405C42F,true,Rx,0,8,02,64,82,28,F4,FF,35,00,
-1762630423011367,0405C52F,true,Rx,0,5,01,07,00,9E,FF,00,00,00,
-1762630423011239,0405C52F,true,Rx,0,5,02,0D,00,0D,00,00,00,00,
-1762630423010428,0405C410,true,Rx,0,8,00,01,CC,45,4D,87,4F,72,
-1762630423010300,0405C430,true,Rx,0,8,00,64,69,08,DA,00,A4,00,
-1762630423010172,0405C410,true,Rx,0,8,01,01,7E,4C,CE,87,ED,47,
-1762630423010001,0405C430,true,Rx,0,8,01,64,CB,2B,26,02,D2,FF,
-1762630423009873,0405C530,true,Rx,0,5,00,EB,FE,EC,FE,00,00,00,
-1762630423009788,0405C410,true,Rx,0,8,02,01,42,45,68,89,CC,8A,
-1762630423009617,0405C430,true,Rx,0,8,02,64,8B,2D,28,00,81,00,
-1762630423009489,0405C530,true,Rx,0,5,02,DA,FF,94,00,00,00,00,
-1762630423009361,0401E411,true,Rx,0,7,00,01,FE,FF,00,00,00,00,
-1762630423009233,0401E411,true,Rx,0,7,01,01,02,00,00,00,00,00,
-1762630423009105,0401E451,true,Rx,0,8,01,BF,72,FE,FF,FF,00,00,
-1762630423008977,0401E451,true,Rx,0,8,00,BF,4B,FF,FF,FF,00,00,
-1762630423008849,0405C530,true,Rx,0,5,01,AB,FE,D6,00,00,00,00,
-1762630423005692,040A2011,true,Rx,0,8,E8,FF,FB,FF,CE,03,C2,8E,
-1762630423005564,04056411,true,Rx,0,8,F8,FF,05,00,06,FD,C2,8E,
-1762630423005436,04072001,true,Rx,0,4,00,00,00,01,00,00,00,00,
-1762630423004156,040A2012,true,Rx,0,8,11,00,F8,FF,EC,03,C3,8E,
-1762630423003986,04056412,true,Rx,0,8,F9,FF,F8,FF,4A,04,C3,8E,
-1762630422999890,0401E412,true,Rx,0,7,00,01,04,00,00,00,00,00,
-1762630422999762,0401E412,true,Rx,0,7,01,01,00,00,00,00,00,00,
-1762630422999634,0401E452,true,Rx,0,8,01,C8,C9,F5,FF,FF,00,00,
-1762630422999463,0401E452,true,Rx,0,8,00,C8,44,F5,FF,FF,00,00,
-1762630422996093,0405280C,true,Rx,0,2,00,00,00,00,00,00,00,00,
-1762630422992125,0405280B,true,Rx,0,2,00,00,00,00,00,00,00,00,
-1762630422989394,0401E411,true,Rx,0,7,00,01,FF,FF,00,00,00,00,
-1762630422989266,0401E411,true,Rx,0,7,01,01,06,00,00,00,00,00,
-1762630422989138,0401E451,true,Rx,0,8,01,D3,72,FE,FF,FF,00,00,
-1762630422988967,0401E451,true,Rx,0,8,00,D3,4B,FF,FF,FF,00,00,
-1762630422987176,04030C82,true,Rx,0,4,01,05,10,00,00,00,00,00,
-1762630422987005,04030CE2,true,Rx,0,8,8D,00,00,00,C2,64,1E,67,
-1762630422985682,040A2011,true,Rx,0,8,E9,FF,F6,FF,D0,03,D6,8E,
-1762630422985554,04056411,true,Rx,0,8,F8,FF,05,00,06,FD,D6,8E,
-1762630422984146,040A2012,true,Rx,0,8,0C,00,F7,FF,EA,03,D7,8E,
-1762630422984018,04056412,true,Rx,0,8,F9,FF,F8,FF,4A,04,D7,8E,
-1762630422979880,0401E412,true,Rx,0,7,00,01,FF,FF,00,00,00,00,
-1762630422979752,0401E412,true,Rx,0,7,01,01,FE,FF,00,00,00,00,
-1762630422979581,0401E452,true,Rx,0,8,01,DC,C9,F5,FF,FF,00,00,
-1762630422979453,0401E432,true,Rx,0,6,00,00,00,00,00,00,00,00,
-1762630422979325,0401E432,true,Rx,0,6,01,00,00,00,00,00,00,00,
-1762630422979197,0401E452,true,Rx,0,8,00,DC,44,F5,FF,FF,00,00,
-1762630422973309,0405240A,true,Rx,0,3,07,00,00,00,00,00,00,00,
-1762630422969427,0401E411,true,Rx,0,7,00,01,02,00,00,00,00,00,
-1762630422969299,0401E411,true,Rx,0,7,01,01,04,00,00,00,00,00,
-1762630422969128,0401E451,true,Rx,0,8,01,E7,72,FE,FF,FF,00,00,
-1762630422969000,0401E451,true,Rx,0,8,00,E7,4B,FF,FF,FF,00,00,
-1762630422967166,04098C31,true,Rx,0,3,00,00,00,00,00,00,00,00,
-1762630422967080,04098C51,true,Rx,0,3,00,ED,FF,00,00,00,00,00,
-1762630422965416,0405200C,true,Rx,0,2,00,00,00,00,00,00,00,00,
-1762630422965288,040A2011,true,Rx,0,8,EB,FF,F5,FF,D0,03,EB,8E,
-1762630422965118,04056411,true,Rx,0,8,F8,FF,05,00,06,FD,EA,8E,
-1762630422964179,040A2012,true,Rx,0,8,0C,00,FD,FF,EB,03,EB,8E,
-1762630422964051,04056412,true,Rx,0,8,F9,FF,F8,FF,4A,04,EB,8E,
-1762630422962345,0405200B,true,Rx,0,2,00,00,00,00,00,00,00,00,
-1762630422962217,0405C40F,true,Rx,0,8,00,01,46,40,6C,51,76,2E,
-1762630422962089,0405C42F,true,Rx,0,8,00,64,AC,29,E3,FF,46,00,
-1762630422961961,0405C40F,true,Rx,0,8,01,01,E7,3F,1B,52,6C,1D,
-1762630422961833,0405C42F,true,Rx,0,8,01,64,BC,29,44,00,DC,FF,
-1762630422961705,0405C52F,true,Rx,0,5,01,D5,FF,D4,FF,00,00,00,
-1762630422961534,0405C40F,true,Rx,0,8,02,01,3B,41,B9,51,54,D5,
-1762630422961406,0405C42F,true,Rx,0,8,02,64,95,28,0D,00,4B,00,
-1762630422961321,0405C52F,true,Rx,0,5,02,07,00,EE,FF,00,00,00,
-1762630422961193,0405C52F,true,Rx,0,5,00,F6,FF,07,00,00,00,00,
-1762630422960467,0405C410,true,Rx,0,8,00,01,BD,45,30,87,78,72,
-1762630422960339,0405C430,true,Rx,0,8,00,64,81,08,BF,FF,79,FE,
-1762630422960169,0405C410,true,Rx,0,8,01,01,7A,4C,D0,87,53,48,
-1762630422960041,0405C430,true,Rx,0,8,01,64,97,2C,FC,01,7B,FF,
-1762630422959913,0405C530,true,Rx,0,5,00,E5,FF,B8,00,00,00,00,
-1762630422959785,0401E412,true,Rx,0,7,00,01,00,00,00,00,00,00,
-1762630422959657,0401E412,true,Rx,0,7,01,01,02,00,00,00,00,00,
-1762630422959529,0401E452,true,Rx,0,8,01,F0,C9,F5,FF,FF,00,00,
-1762630422959358,0401E452,true,Rx,0,8,00,F0,44,F5,FF,FF,00,00,
-1762630422959230,0405C410,true,Rx,0,8,02,01,51,45,6A,89,2A,8B,
-1762630422959102,0405C430,true,Rx,0,8,02,64,C5,2D,2F,00,84,FF,
-1762630422958974,0405C530,true,Rx,0,5,02,66,00,A4,00,00,00,00,
-1762630422958889,0405C530,true,Rx,0,5,01,9F,00,63,01,00,00,00,
-1762630422955518,04072001,true,Rx,0,4,00,00,00,01,00,00,00,00,
-1762630422951337,1C0000D5,true,Rx,0,8,02,FD,09,00,00,0F,2B,80,
-1762630422951209,1C0000D5,true,Rx,0,5,00,77,16,40,03,00,00,00,
-1762630422949417,0401E411,true,Rx,0,7,00,01,01,00,00,00,00,00,
-1762630422949289,0401E411,true,Rx,0,7,01,01,04,00,00,00,00,00,
-1762630422949161,0401E451,true,Rx,0,8,01,FB,72,FE,FF,FF,00,00,
-1762630422948990,0401E451,true,Rx,0,8,00,FB,4B,FF,FF,FF,00,00,
-1762630422948862,1C0002A6,true,Rx,0,8,02,FD,09,00,00,0F,2B,80,
-1762630422948734,1C0002A6,true,Rx,0,5,00,77,17,1E,03,00,00,00,
-1762630422945705,040A2011,true,Rx,0,8,E8,FF,F8,FF,CE,03,FE,8E,
-1762630422945577,04056411,true,Rx,0,8,F8,FF,05,00,06,FD,FE,8E,
-1762630422944127,040A2012,true,Rx,0,8,0C,00,FC,FF,EA,03,FF,8E,
-1762630422943999,04056412,true,Rx,0,8,F9,FF,F8,FF,4A,04,FF,8E,
-1762630422942463,1C0000CA,true,Rx,0,8,02,FD,09,00,00,10,2B,80,
-1762630422942377,1C0000CA,true,Rx,0,5,00,D5,16,40,03,00,00,00,
-1762630422940841,1C000146,true,Rx,0,8,02,FD,09,00,00,10,2B,80,
-1762630422940713,1C000146,true,Rx,0,5,00,D5,17,1E,03,00,00,00,
-1762630422939945,0405200E,true,Rx,0,2,00,00,00,00,00,00,00,00,
-1762630422939775,0401E412,true,Rx,0,7,00,01,04,00,00,00,00,00,
-1762630422939647,0401E412,true,Rx,0,7,01,01,00,00,00,00,00,00,
-1762630422939519,0401E452,true,Rx,0,8,01,04,C9,F5,FF,FF,00,00,
-1762630422939391,0401E452,true,Rx,0,8,00,04,44,F5,FF,FF,00,00,
-1762630422937897,0405200D,true,Rx,0,2,00,00,00,00,00,00,00,00,
-1762630422930900,1C0000C1,true,Rx,0,8,02,FD,09,00,00,12,27,80,
-1762630422930815,1C0000C1,true,Rx,0,5,00,69,16,40,03,00,00,00,
-1762630422929407,0401E411,true,Rx,0,7,00,01,00,00,00,00,00,00,
-1762630422929279,0401E411,true,Rx,0,7,01,01,02,00,00,00,00,00,
-1762630422929151,0401E451,true,Rx,0,8,01,0F,72,FE,FF,FF,00,00,
-1762630422929023,0401E431,true,Rx,0,6,00,00,00,00,00,00,00,00,
-1762630422928895,0401E431,true,Rx,0,6,01,00,00,00,00,00,00,00,
-1762630422928767,0401E451,true,Rx,0,8,00,0F,4B,FF,FF,FF,00,00,
-1762630422928597,1C000026,true,Rx,0,8,02,FD,09,00,00,12,27,80,
-1762630422928469,1C000026,true,Rx,0,5,00,69,17,1E,03,00,00,00,
-1762630422925738,040A2011,true,Rx,0,8,E6,FF,F8,FF,D0,03,12,8F,
-1762630422925567,04056411,true,Rx,0,8,F8,FF,05,00,06,FD,12,8F,
-1762630422924543,0405240A,true,Rx,0,3,0D,00,00,00,00,00,00,00,
-1762630422924159,040A2012,true,Rx,0,8,0E,00,FC,FF,E5,03,13,8F,
-1762630422924031,04056412,true,Rx,0,8,F9,FF,F8,FF,4A,04,13,8F,
-1762630422919893,0401E412,true,Rx,0,7,00,01,01,00,00,00,00,00,
-1762630422919765,0401E412,true,Rx,0,7,01,01,03,00,00,00,00,00,
-1762630422919594,0401E452,true,Rx,0,8,01,18,C9,F5,FF,FF,00,00,
-1762630422919466,0401E452,true,Rx,0,8,00,18,44,F5,FF,FF,00,00,
-1762630422916437,1C0000C2,true,Rx,0,8,02,FD,09,00,00,11,27,80,
-1762630422916352,1C0000C2,true,Rx,0,5,00,E1,16,40,03,00,00,00,
-1762630422914773,1C000046,true,Rx,0,8,02,FD,09,00,00,11,27,80,
-1762630422914645,1C000046,true,Rx,0,5,00,E1,17,1E,03,00,00,00,
-1762630422912256,0405C40F,true,Rx,0,8,00,01,40,40,7E,51,7A,2E,
-1762630422912128,0405C42F,true,Rx,0,8,00,64,B2,29,D9,FF,57,00,
-1762630422912000,0405C40F,true,Rx,0,8,01,01,E3,3F,EE,51,34,1D,
-1762630422911872,0405C42F,true,Rx,0,8,01,64,A8,29,16,00,4B,00,
-1762630422911744,0405C52F,true,Rx,0,5,00,D7,FF,22,00,00,00,00,
-1762630422911616,0405C40F,true,Rx,0,8,02,01,38,41,D6,51,5F,D5,
-1762630422911488,0405C42F,true,Rx,0,8,02,64,65,28,15,00,5B,00,
-1762630422911360,0405C52F,true,Rx,0,5,02,12,00,E9,FF,00,00,00,
-1762630422911232,0405C52F,true,Rx,0,5,01,DF,FF,32,00,00,00,00,
-1762630422910464,0405C410,true,Rx,0,8,00,01,C8,45,1A,87,F9,71,
-1762630422910293,0405C430,true,Rx,0,8,00,64,6E,08,C9,00,67,00,
-1762630422910165,0405C410,true,Rx,0,8,01,01,78,4C,F9,87,2A,48,
-1762630422910037,0405C430,true,Rx,0,8,01,64,FD,2B,2D,02,DE,FF,
-1762630422909909,0405C530,true,Rx,0,5,00,9B,00,2C,01,00,00,00,
-1762630422909781,0405C410,true,Rx,0,8,02,01,46,45,6E,89,6E,8B,
-1762630422909653,0405C430,true,Rx,0,8,02,64,A9,2D,31,00,80,FF,
-1762630422909525,0405C530,true,Rx,0,5,02,BA,FF,11,FF,00,00,00,
-1762630422909397,0401E411,true,Rx,0,7,00,01,01,00,00,00,00,00,
-1762630422909269,0401E411,true,Rx,0,7,01,01,04,00,00,00,00,00,
-1762630422909099,0401E451,true,Rx,0,8,01,23,72,FE,FF,FF,00,00,
-1762630422908971,0401E451,true,Rx,0,8,00,23,4B,FF,FF,FF,00,00,
-1762630422908885,0405C530,true,Rx,0,5,01,5C,FF,FB,01,00,00,00,
-1762630422905728,040A2011,true,Rx,0,8,E9,FF,F7,FF,D2,03,26,8F,
-1762630422905600,04056411,true,Rx,0,8,F8,FF,05,00,06,FD,26,8F,
-1762630422905472,04072001,true,Rx,0,4,00,00,00,01,00,00,00,00,
-1762630422904149,040A2012,true,Rx,0,8,0E,00,F6,FF,E8,03,27,8F,
-1762630422904021,04056412,true,Rx,0,8,F9,FF,F8,FF,4A,04,27,8F,
-1762630422899883,0401E412,true,Rx,0,7,00,01,03,00,00,00,00,00,
-1762630422899755,0401E412,true,Rx,0,7,01,01,00,00,00,00,00,00,
-1762630422899584,0401E452,true,Rx,0,8,01,2C,C9,F5,FF,FF,00,00,
-1762630422899456,0401E452,true,Rx,0,8,00,2C,44,F5,FF,FF,00,00,
-1762630422898944,0405280C,true,Rx,0,2,00,00,00,00,00,00,00,00,
-1762630422898134,04030C82,true,Rx,0,4,01,05,10,00,00,00,00,00,
-1762630422897963,04030CE2,true,Rx,0,8,8D,00,00,00,C2,64,1E,67,
-1762630422897451,1C0003FA,true,Rx,0,8,02,FD,1F,00,00,00,00,00,
-1762630422897323,1C0003FA,true,Rx,0,8,00,E2,14,02,01,28,80,33,
-1762630422897152,1C0003FA,true,Rx,0,8,00,00,00,57,69,66,69,42,
-1762630422897024,1C0003FA,true,Rx,0,8,6C,65,44,6F,6E,67,6C,65,
-1762630422896896,1C0003FA,true,Rx,0,3,00,3C,03,00,00,00,00,00,
-1762630422893910,0405280B,true,Rx,0,2,00,00,00,00,00,00,00,00,
-1762630422889387,0401E411,true,Rx,0,7,00,01,05,00,00,00,00,00,
-1762630422889259,0401E411,true,Rx,0,7,01,01,03,00,00,00,00,00,
-1762630422889131,0401E451,true,Rx,0,8,01,37,72,FE,FF,FF,00,00,
-1762630422889003,0401E451,true,Rx,0,8,00,37,4B,FF,FF,FF,00,00,
-1762630422886316,0405200C,true,Rx,0,2,00,00,00,00,00,00,00,00,
-1762630422885718,040A2011,true,Rx,0,8,ED,FF,F7,FF,CF,03,3A,8F,
-1762630422885548,04056411,true,Rx,0,8,F8,FF,05,00,06,FD,3A,8F,
-1762630422884524,1C00005A,true,Rx,0,8,02,FD,09,00,04,01,28,80,
-1762630422884396,1C00005A,true,Rx,0,5,00,99,16,40,03,00,00,00,
-1762630422884140,040A2012,true,Rx,0,8,0B,00,FA,FF,E9,03,3B,8F,
-1762630422884012,04056412,true,Rx,0,8,F9,FF,F8,FF,4A,04,3B,8F,
-1762630422883542,1C000342,true,Rx,0,8,02,FD,09,00,04,01,28,80,
-1762630422883457,0405200B,true,Rx,0,2,00,00,00,00,00,00,00,00,
-1762630422883329,1C000342,true,Rx,0,5,00,99,17,1E,03,00,00,00,
-1762630422879873,0401E412,true,Rx,0,7,00,01,03,00,00,00,00,00,
-1762630422879745,0401E412,true,Rx,0,7,01,01,05,00,00,00,00,00,
-1762630422879574,0401E452,true,Rx,0,8,01,40,C9,F5,FF,FF,00,00,
-1762630422879446,0401E432,true,Rx,0,6,00,00,00,00,00,00,00,00,
-1762630422879318,0401E432,true,Rx,0,6,01,00,00,00,00,00,00,00,
-1762630422879190,0401E452,true,Rx,0,8,00,40,44,F5,FF,FF,00,00,
-1762630422879020,1C0002BA,true,Rx,0,8,02,FD,09,00,06,01,28,80,
-1762630422878934,1C0002BA,true,Rx,0,5,00,1A,16,40,03,00,00,00,
-1762630422878806,1C00015A,true,Rx,0,8,02,FD,09,00,07,01,28,80,
-1762630422878678,1C00015A,true,Rx,0,5,00,D7,16,40,03,00,00,00,
-1762630422877527,1C000355,true,Rx,0,8,02,FD,09,00,06,01,28,80,
-1762630422877399,1C000355,true,Rx,0,5,00,1A,17,1E,03,00,00,00,
-1762630422877271,1C00034A,true,Rx,0,8,02,FD,09,00,07,01,28,80,
-1762630422877143,1C00034A,true,Rx,0,5,00,D7,17,1E,03,00,00,00,
-1762630422874540,0405240A,true,Rx,0,3,03,00,00,00,00,00,00,00,
-1762630422872535,1C00003A,true,Rx,0,8,02,FD,09,00,0C,01,28,80,
-1762630422872407,1C00003A,true,Rx,0,5,00,A7,16,40,03,00,00,00,
-1762630422871511,1C000341,true,Rx,0,8,02,FD,09,00,0C,01,28,80,
-1762630422871425,1C000341,true,Rx,0,5,00,A7,17,1E,03,00,00,00,
-1762630422869420,0401E411,true,Rx,0,7,00,01,07,00,00,00,00,00,
-1762630422869292,0401E411,true,Rx,0,7,01,01,00,00,00,00,00,00,
-1762630422869164,0401E451,true,Rx,0,8,01,4B,72,FE,FF,FF,00,00,
-1762630422868994,0401E451,true,Rx,0,8,00,4B,4B,FF,FF,FF,00,00,
-1762630422868482,1C00017A,true,Rx,0,8,02,FD,09,00,09,01,28,80,
-1762630422868396,1C00017A,true,Rx,0,5,00,75,16,40,03,00,00,00,
-1762630422867159,04098C31,true,Rx,0,3,00,00,00,00,00,00,00,00,
-1762630422867074,04098C51,true,Rx,0,3,00,E8,FF,00,00,00,00,00,
-1762630422866903,1C00034B,true,Rx,0,8,02,FD,09,00,09,01,28,80,
-1762630422866775,1C00034B,true,Rx,0,5,00,75,17,1E,03,00,00,00,
-1762630422865282,040A2011,true,Rx,0,8,E8,FF,FA,FF,D0,03,4F,8F,
-1762630422865154,04056411,true,Rx,0,8,F8,FF,05,00,06,FD,4E,8F,
-1762630422864130,040A2012,true,Rx,0,8,0F,00,F3,FF,EB,03,4F,8F,
-1762630422864002,04056412,true,Rx,0,8,F9,FF,F8,FF,4A,04,4F,8F,
-1762630422862295,0405C40F,true,Rx,0,8,00,01,2E,40,81,51,94,2E,
-1762630422862167,0405C42F,true,Rx,0,8,00,64,B7,29,FF,FF,5D,00,
-1762630422861996,0405C40F,true,Rx,0,8,01,01,D0,3F,DB,51,A5,1D,
-1762630422861868,0405C42F,true,Rx,0,8,01,64,25,2A,80,FF,6C,00,
-1762630422861783,0405C52F,true,Rx,0,5,00,CC,FF,17,00,00,00,00,
-1762630422861612,0405C40F,true,Rx,0,8,02,01,4E,41,EC,51,5C,D5,
-1762630422861484,0405C42F,true,Rx,0,8,02,64,5F,28,05,00,44,00,
-1762630422861356,0405C52F,true,Rx,0,5,02,15,00,EF,FF,00,00,00,
-1762630422861271,0405C52F,true,Rx,0,5,01,59,00,CD,FF,00,00,00,
-1762630422860418,0405C410,true,Rx,0,8,00,01,D2,45,32,87,DA,71,
-1762630422860290,0405C430,true,Rx,0,8,00,64,48,08,51,00,D2,00,
-1762630422860162,0405C410,true,Rx,0,8,01,01,82,4C,0E,88,21,48,
-1762630422859991,0405C430,true,Rx,0,8,01,64,F1,2B,57,02,C5,01,
-1762630422859863,0401E412,true,Rx,0,7,00,01,00,00,00,00,00,00,
-1762630422859735,0401E412,true,Rx,0,7,01,01,FF,FF,00,00,00,00,
-1762630422859607,0401E452,true,Rx,0,8,01,54,C9,F5,FF,FF,00,00,
-1762630422859437,0401E452,true,Rx,0,8,00,54,44,F5,FF,FF,00,00,
-1762630422859351,0405200D,true,Rx,0,2,00,00,00,00,00,00,00,00,
-1762630422859223,0405C410,true,Rx,0,8,02,01,32,45,6F,89,16,8B,
-1762630422859095,0405C530,true,Rx,0,5,00,51,FF,DD,FD,00,00,00,
-1762630422858967,0405C430,true,Rx,0,8,02,64,6A,2D,54,00,3A,00,
-1762630422858839,0405200E,true,Rx,0,2,00,00,00,00,00,00,00,00,
-1762630422858754,0405C530,true,Rx,0,5,02,25,FF,1D,00,00,00,00,
-1762630422858669,0405C530,true,Rx,0,5,01,CD,FD,B4,02,00,00,00,
-1762630422858370,1C00029A,true,Rx,0,8,02,FD,09,00,08,01,28,80,
-1762630422858285,1C00029A,true,Rx,0,5,00,B8,16,40,03,00,00,00,
-1762630422858114,1C00023A,true,Rx,0,8,02,FD,09,00,0A,01,28,80,
-1762630422858029,1C00023A,true,Rx,0,5,00,3B,16,40,03,00,00,00,
-1762630422855511,04072001,true,Rx,0,4,00,00,00,01,00,00,00,00,
-1762630422854530,1C000351,true,Rx,0,8,02,FD,09,00,0A,01,28,80,
-1762630422854402,1C000351,true,Rx,0,5,00,3B,17,1E,03,00,00,00,
-1762630422854018,1C000354,true,Rx,0,8,02,FD,09,00,08,01,28,80,
-1762630422853847,1C000354,true,Rx,0,5,00,B8,17,1E,03,00,00,00,
-1762630422849410,0401E411,true,Rx,0,7,00,01,FD,FF,00,00,00,00,
-1762630422849282,0401E411,true,Rx,0,7,01,01,01,00,00,00,00,00,
-1762630422849154,0401E451,true,Rx,0,8,01,5F,72,FE,FF,FF,00,00,
-1762630422849026,0401E451,true,Rx,0,8,00,5F,4B,FF,FF,FF,00,00,
-1762630422847490,1C00037A,true,Rx,0,8,02,FD,09,00,0B,01,28,80,
-1762630422847405,1C00037A,true,Rx,0,5,00,F6,16,40,03,00,00,00,
-1762630422845698,040A2011,true,Rx,0,8,EA,FF,F5,FF,CF,03,62,8F,
-1762630422845570,04056411,true,Rx,0,8,F8,FF,05,00,06,FD,62,8F,
-1762630422845101,1C00035B,true,Rx,0,8,02,FD,09,00,0B,01,28,80,
-1762630422845016,1C00035B,true,Rx,0,5,00,F6,17,1E,03,00,00,00,
-1762630422844162,040A2012,true,Rx,0,8,0D,00,FA,FF,EA,03,63,8F,
-1762630422843992,04056412,true,Rx,0,8,F9,FF,F8,FF,4A,04,63,8F,
-1762630422839896,0401E412,true,Rx,0,7,00,01,02,00,00,00,00,00,
-1762630422839725,0401E412,true,Rx,0,7,01,01,FD,FF,00,00,00,00,
-1762630422839597,0401E452,true,Rx,0,8,01,68,C9,F5,FF,FF,00,00,
-1762630422839469,0401E452,true,Rx,0,8,00,68,44,F5,FF,FF,00,00,
-1762630422836525,1C0000BA,true,Rx,0,8,02,FD,09,00,0D,01,28,80,
-1762630422836440,1C0000BA,true,Rx,0,5,00,6A,16,40,03,00,00,00,
-1762630422834136,1C000345,true,Rx,0,8,02,FD,09,00,0D,01,28,80,
-1762630422834008,1C000345,true,Rx,0,5,00,6A,17,1E,03,00,00,00,
-1762630422829400,0401E411,true,Rx,0,7,00,01,FF,FF,00,00,00,00,
-1762630422829272,0401E411,true,Rx,0,7,01,01,06,00,00,00,00,00,
-1762630422829144,0401E451,true,Rx,0,8,01,73,72,FE,FF,FF,00,00,
-1762630422828974,0401E431,true,Rx,0,6,00,00,00,00,00,00,00,00,
-1762630422828888,0401E431,true,Rx,0,6,01,00,00,00,00,00,00,00,
-1762630422828760,0401E451,true,Rx,0,8,00,73,4B,FF,FF,FF,00,00,
-1762630422825731,040A2011,true,Rx,0,8,EC,FF,F6,FF,D2,03,76,8F,
-1762630422825561,04056411,true,Rx,0,8,F8,FF,05,00,06,FD,76,8F,
-1762630422824153,040A2012,true,Rx,0,8,10,00,F7,FF,E7,03,77,8F,
-1762630422824025,04056412,true,Rx,0,8,F9,FF,F8,FF,4A,04,77,8F,
-1762630422823427,0405240A,true,Rx,0,3,02,00,00,00,00,00,00,00,
-1762630422819886,0401E412,true,Rx,0,7,00,01,01,00,00,00,00,00,
-1762630422819758,0401E412,true,Rx,0,7,01,01,FF,FF,00,00,00,00,
-1762630422819587,0401E452,true,Rx,0,8,01,7C,C9,F5,FF,FF,00,00,
-1762630422819459,0401E452,true,Rx,0,8,00,7C,44,F5,FF,FF,00,00,
-1762630422812164,0405C40F,true,Rx,0,8,00,01,DD,3F,97,51,0C,2F,
-1762630422812036,0405C42F,true,Rx,0,8,00,64,B2,29,02,00,9A,00,
-1762630422811908,0405C40F,true,Rx,0,8,01,01,BE,3F,DD,51,61,1D,
-1762630422811737,0405C42F,true,Rx,0,8,01,64,36,2A,78,FF,54,00,
-1762630422811652,0405C52F,true,Rx,0,5,00,CC,FF,14,00,00,00,00,
-1762630422811481,0405C40F,true,Rx,0,8,02,01,4C,41,F0,51,52,D5,
-1762630422811353,0405C42F,true,Rx,0,8,02,64,68,28,FB,FF,46,00,
-1762630422811268,0405C52F,true,Rx,0,5,02,14,00,F2,FF,00,00,00,
-1762630422811140,0405C52F,true,Rx,0,5,01,B8,00,CB,FF,00,00,00,
-1762630422810414,0405C410,true,Rx,0,8,00,01,C8,45,57,87,0D,73,
-1762630422810286,0405C430,true,Rx,0,8,00,64,AB,08,E5,FF,DE,00,
-1762630422810158,0405C410,true,Rx,0,8,01,01,97,4C,5A,88,9B,48,
-1762630422810030,0405C430,true,Rx,0,8,01,64,E7,2B,80,FF,27,03,
-1762630422809902,0405C530,true,Rx,0,5,00,B8,FF,63,FD,00,00,00,
-1762630422809774,0405C410,true,Rx,0,8,02,01,40,45,DF,88,22,8B,
-1762630422809647,0405C430,true,Rx,0,8,02,64,38,2D,18,01,0A,01,
-1762630422809519,0405C530,true,Rx,0,5,02,B6,FF,15,01,00,00,00,
-1762630422809391,0401E411,true,Rx,0,7,00,01,03,00,00,00,00,00,
-1762630422809263,0401E411,true,Rx,0,7,01,01,03,00,00,00,00,00,
-1762630422809092,0401E451,true,Rx,0,8,01,87,72,FE,FF,FF,00,00,
-1762630422808964,0401E451,true,Rx,0,8,00,87,4B,FF,FF,FF,00,00,
-1762630422808836,04030C82,true,Rx,0,4,01,05,10,00,00,00,00,00,
-1762630422808708,04030CE2,true,Rx,0,8,8D,00,00,00,C2,64,1E,67,
-1762630422808623,0405C530,true,Rx,0,5,01,BA,FE,81,FF,00,00,00,
-1762630422807556,0405200C,true,Rx,0,2,00,00,00,00,00,00,00,00,
-1762630422805721,040A2011,true,Rx,0,8,E6,FF,FA,FF,D2,03,8A,8F,
-1762630422805593,04056411,true,Rx,0,8,F8,FF,05,00,06,FD,8A,8F,
-1762630422805465,04072001,true,Rx,0,4,00,00,00,01,00,00,00,00,
-1762630422804569,0405200B,true,Rx,0,2,00,00,00,00,00,00,00,00,
-1762630422804143,040A2012,true,Rx,0,8,08,00,FB,FF,E8,03,8B,8F,
-1762630422804015,04056412,true,Rx,0,8,F9,FF,F8,FF,4A,04,8B,8F,
-1762630422803929,0405280C,true,Rx,0,2,00,00,00,00,00,00,00,00,
-1762630422799876,0401E412,true,Rx,0,7,00,01,00,00,00,00,00,00,
-1762630422799748,0401E412,true,Rx,0,7,01,01,01,00,00,00,00,00,
-1762630422799620,0401E452,true,Rx,0,8,01,90,C9,F5,FF,FF,00,00,
-1762630422799492,0401E452,true,Rx,0,8,00,90,44,F5,FF,FF,00,00,
-1762630422795012,0405280B,true,Rx,0,2,00,00,00,00,00,00,00,00,
-1762630422789423,0401E411,true,Rx,0,7,00,01,FE,FF,00,00,00,00,
-1762630422789295,0401E411,true,Rx,0,7,01,01,09,00,00,00,00,00,
-1762630422789125,0401E451,true,Rx,0,8,01,9B,72,FE,FF,FF,00,00,
-1762630422788997,0401E451,true,Rx,0,8,00,9B,4B,FF,FF,FF,00,00,
-1762630422785711,040A2011,true,Rx,0,8,EB,FF,F8,FF,CD,03,9E,8F,
-1762630422785583,04056411,true,Rx,0,8,F8,FF,05,00,06,FD,9E,8F,
-1762630422784133,040A2012,true,Rx,0,8,0D,00,FA,FF,EE,03,9F,8F,
-1762630422784005,04056412,true,Rx,0,8,F9,FF,F8,FF,4A,04,9F,8F,
-1762630422781104,0405200D,true,Rx,0,2,00,00,00,00,00,00,00,00,
-1762630422780805,0405200E,true,Rx,0,2,00,00,00,00,00,00,00,00,
-1762630422779866,0401E412,true,Rx,0,7,00,01,02,00,00,00,00,00,
-1762630422779738,0401E412,true,Rx,0,7,01,01,04,00,00,00,00,00,
-1762630422779610,0401E452,true,Rx,0,8,01,A4,C9,F5,FF,FF,00,00,
-1762630422779440,0401E432,true,Rx,0,6,00,00,00,00,00,00,00,00,
-1762630422779354,0401E432,true,Rx,0,6,01,00,00,00,00,00,00,00,
-1762630422779184,0401E452,true,Rx,0,8,00,A4,44,F5,FF,FF,00,00,
-1762630422774576,0405240A,true,Rx,0,3,03,00,00,00,00,00,00,00,
-1762630422769413,0401E411,true,Rx,0,7,00,01,FD,FF,00,00,00,00,
-1762630422769285,0401E411,true,Rx,0,7,01,01,04,00,00,00,00,00,
-1762630422769157,0401E451,true,Rx,0,8,01,AF,72,FE,FF,FF,00,00,
-1762630422768987,0401E451,true,Rx,0,8,00,AF,4B,FF,FF,FF,00,00,
-1762630422767195,04098C31,true,Rx,0,3,00,00,00,00,00,00,00,00,
-1762630422767109,04098C51,true,Rx,0,3,00,EB,FF,00,00,00,00,00,
-1762630422765275,040A2011,true,Rx,0,8,E8,FF,F6,FF,D0,03,B3,8F,
-1762630422765147,04056411,true,Rx,0,8,F8,FF,05,00,06,FD,B2,8F,
-1762630422764123,040A2012,true,Rx,0,8,0E,00,F7,FF,E9,03,B3,8F,
-1762630422763995,04056412,true,Rx,0,8,F9,FF,F8,FF,4A,04,B3,8F,
-1762630422762288,0405C40F,true,Rx,0,8,00,01,FE,3F,68,51,D2,2E,
-1762630422762160,0405C42F,true,Rx,0,8,00,64,9C,29,FA,FF,68,00,
-1762630422761990,0405C40F,true,Rx,0,8,01,01,C3,3F,BC,51,6F,1D,
-1762630422761862,0405C42F,true,Rx,0,8,01,64,32,2A,A2,FF,71,FF,
-1762630422761734,0405C52F,true,Rx,0,5,00,DD,FF,14,00,00,00,00,
-1762630422761606,0405C40F,true,Rx,0,8,02,01,33,41,F2,51,68,D5,
-1762630422761478,0405C42F,true,Rx,0,8,02,64,77,28,16,00,46,00,
-1762630422761350,0405C52F,true,Rx,0,5,02,14,00,F3,FF,00,00,00,
-1762630422761264,0405C52F,true,Rx,0,5,01,83,00,27,00,00,00,00,
-1762630422760454,0405C410,true,Rx,0,8,00,01,B8,45,5B,87,07,73,
-1762630422760326,0405C430,true,Rx,0,8,00,64,05,09,29,00,B1,01,
-1762630422760198,0405C410,true,Rx,0,8,01,01,98,4C,B6,88,EA,48,
-1762630422760027,0405C430,true,Rx,0,8,01,64,DF,2B,C4,FE,CD,03,
-1762630422759942,0405C530,true,Rx,0,5,00,39,01,AB,FF,00,00,00,
-1762630422759814,0401E412,true,Rx,0,7,00,01,FF,FF,00,00,00,00,
-1762630422759643,0401E412,true,Rx,0,7,01,01,01,00,00,00,00,00,
-1762630422759515,0401E452,true,Rx,0,8,01,B8,C9,F5,FF,FF,00,00,
-1762630422759387,0401E452,true,Rx,0,8,00,B8,44,F5,FF,FF,00,00,
-1762630422759259,0405C410,true,Rx,0,8,02,01,43,45,C3,88,8F,8B,
-1762630422759088,0405C430,true,Rx,0,8,02,64,30,2D,39,01,51,01,
-1762630422759003,0405C530,true,Rx,0,5,02,84,00,9B,00,00,00,00,
-1762630422758875,0405C530,true,Rx,0,5,01,22,00,6F,FF,00,00,00,
-1762630422755547,04072001,true,Rx,0,4,00,00,00,01,00,00,00,00,
-1762630422749404,0401E411,true,Rx,0,7,00,01,05,00,00,00,00,00,
-1762630422749276,0401E411,true,Rx,0,7,01,01,01,00,00,00,00,00,
-1762630422749148,0401E451,true,Rx,0,8,01,C3,72,FE,FF,FF,00,00,
-1762630422748977,0401E451,true,Rx,0,8,00,C3,4B,FF,FF,FF,00,00,
-1762630422745692,040A2011,true,Rx,0,8,E7,FF,F9,FF,CF,03,C6,8F,
-1762630422745564,04056411,true,Rx,0,8,F8,FF,05,00,06,FD,C6,8F,
-1762630422744156,040A2012,true,Rx,0,8,0F,00,FB,FF,EE,03,C7,8F,
-1762630422744028,04056412,true,Rx,0,8,F9,FF,F8,FF,4A,04,C7,8F,
-1762630422739889,0401E412,true,Rx,0,7,00,01,02,00,00,00,00,00,
-1762630422739761,0401E412,true,Rx,0,7,01,01,05,00,00,00,00,00,
-1762630422739633,0401E452,true,Rx,0,8,01,CC,C9,F5,FF,FF,00,00,
-1762630422739463,0401E452,true,Rx,0,8,00,CC,44,F5,FF,FF,00,00,
-1762630422729394,0401E411,true,Rx,0,7,00,01,00,00,00,00,00,00,
-1762630422729266,0401E411,true,Rx,0,7,01,01,00,00,00,00,00,00,
-1762630422729138,0401E451,true,Rx,0,8,01,D7,72,FE,FF,FF,00,00,
-1762630422729010,0401E431,true,Rx,0,6,00,00,00,00,00,00,00,00,
-1762630422728882,0401E431,true,Rx,0,6,01,00,00,00,00,00,00,00,
-1762630422728754,0401E451,true,Rx,0,8,00,D7,4B,FF,FF,FF,00,00,
-1762630422728540,0405200C,true,Rx,0,2,00,00,00,00,00,00,00,00,
-1762630422725724,040A2011,true,Rx,0,8,EB,FF,F6,FF,D0,03,DA,8F,
-1762630422725554,04056411,true,Rx,0,8,F8,FF,05,00,06,FD,DA,8F,
-1762630422724572,0405240A,true,Rx,0,3,03,00,00,00,00,00,00,00,
-1762630422724146,040A2012,true,Rx,0,8,0F,00,FA,FF,E5,03,DB,8F,
-1762630422724018,04056412,true,Rx,0,8,F9,FF,F8,FF,4A,04,DB,8F,
-1762630422723506,0405200B,true,Rx,0,2,00,00,00,00,00,00,00,00,
-1762630422720135,04030C82,true,Rx,0,4,01,05,10,00,00,00,00,00,
-1762630422720007,04030CE2,true,Rx,0,8,8D,00,00,00,C2,64,1E,67,
-1762630422719837,0401E412,true,Rx,0,7,00,01,02,00,00,00,00,00,
-1762630422719709,0401E412,true,Rx,0,7,01,01,FE,FF,00,00,00,00,
-1762630422719581,0401E452,true,Rx,0,8,01,E0,C9,F5,FF,FF,00,00,
-1762630422719410,0401E452,true,Rx,0,8,00,E0,44,F5,FF,FF,00,00,
-1762630422712285,0405C40F,true,Rx,0,8,00,01,16,40,71,51,B5,2E,
-1762630422712157,0405C42F,true,Rx,0,8,00,64,79,29,F6,FF,4B,00,
-1762630422712029,0405C40F,true,Rx,0,8,01,01,F2,3F,FF,51,60,1C,
-1762630422711901,0405C42F,true,Rx,0,8,01,64,E6,29,5D,00,FD,FF,
-1762630422711773,0405C52F,true,Rx,0,5,00,D6,FF,18,00,00,00,00,
-1762630422711645,0405C40F,true,Rx,0,8,02,01,4B,41,03,52,85,D5,
-1762630422711474,0405C42F,true,Rx,0,8,02,64,83,28,00,00,2F,00,
-1762630422711389,0405C52F,true,Rx,0,5,02,20,00,F3,FF,00,00,00,
-1762630422711261,0405C52F,true,Rx,0,5,01,6B,00,9E,FF,00,00,00,
-1762630422710450,0405C410,true,Rx,0,8,00,01,BC,45,51,87,DF,72,
-1762630422710322,0405C430,true,Rx,0,8,00,64,D7,08,D5,FF,DD,00,
-1762630422710194,0405C410,true,Rx,0,8,01,01,73,4C,A8,88,40,48,
-1762630422710024,0405C430,true,Rx,0,8,01,64,A0,2B,72,02,33,00,
-1762630422709896,0405C530,true,Rx,0,5,00,00,02,0B,02,00,00,00,
-1762630422709768,0405C410,true,Rx,0,8,02,01,35,45,B9,88,05,8C,
-1762630422709640,0405C430,true,Rx,0,8,02,64,C3,2C,57,01,7F,00,
-1762630422709512,0405C530,true,Rx,0,5,02,DC,00,29,00,00,00,00,
-1762630422709384,0401E411,true,Rx,0,7,00,01,01,00,00,00,00,00,
-1762630422709256,0401E411,true,Rx,0,7,01,01,01,00,00,00,00,00,
-1762630422709128,0401E451,true,Rx,0,8,01,EB,72,FE,FF,FF,00,00,
-1762630422708957,0401E451,true,Rx,0,8,00,EB,4B,FF,FF,FF,00,00,
-1762630422708872,0405C530,true,Rx,0,5,01,17,02,3F,FF,00,00,00,
-1762630422706952,0405280C,true,Rx,0,2,00,00,00,00,00,00,00,00,
-1762630422705715,040A2011,true,Rx,0,8,EA,FF,F7,FF,CD,03,EE,8F,
-1762630422705587,04056411,true,Rx,0,8,F8,FF,05,00,06,FD,EE,8F,
-1762630422705459,04072001,true,Rx,0,4,00,00,00,01,00,00,00,00,
-1762630422704136,040A2012,true,Rx,0,8,0E,00,FA,FF,EB,03,EF,8F,
-1762630422704008,04056412,true,Rx,0,8,F9,FF,F8,FF,4A,04,EF,8F,
-1762630422702813,0405200E,true,Rx,0,2,00,00,00,00,00,00,00,00,
-1762630422702088,0405200D,true,Rx,0,2,00,00,00,00,00,00,00,00,
-1762630422699997,0405280B,true,Rx,0,2,00,00,00,00,00,00,00,00,
-1762630422699869,0401E412,true,Rx,0,7,00,01,04,00,00,00,00,00,
-1762630422699741,0401E412,true,Rx,0,7,01,01,02,00,00,00,00,00,
-1762630422699571,0401E452,true,Rx,0,8,01,F4,C9,F5,FF,FF,00,00,
-1762630422699443,0401E452,true,Rx,0,8,00,F4,44,F5,FF,FF,00,00,
-1762630422689417,0401E411,true,Rx,0,7,00,01,02,00,00,00,00,00,
-1762630422689289,0401E411,true,Rx,0,7,01,01,00,00,00,00,00,00,
-1762630422689161,0401E451,true,Rx,0,8,01,FF,72,FE,FF,FF,00,00,
-1762630422688990,0401E451,true,Rx,0,8,00,FF,4B,FF,FF,FF,00,00,
-1762630422685705,040A2011,true,Rx,0,8,EE,FF,F7,FF,D1,03,02,90,
-1762630422685577,04056411,true,Rx,0,8,F8,FF,05,00,06,FD,02,90,
-1762630422684126,040A2012,true,Rx,0,8,0E,00,FB,FF,E9,03,03,90,
-1762630422683998,04056412,true,Rx,0,8,F9,FF,F8,FF,4A,04,03,90,
-1762630422679860,0401E412,true,Rx,0,7,00,01,01,00,00,00,00,00,
-1762630422679732,0401E412,true,Rx,0,7,01,01,03,00,00,00,00,00,
-1762630422679561,0401E452,true,Rx,0,8,01,08,C9,F5,FF,FF,00,00,
-1762630422679433,0401E432,true,Rx,0,6,00,00,00,00,00,00,00,00,
-1762630422679348,0401E432,true,Rx,0,6,01,00,00,00,00,00,00,00,
-1762630422679177,0401E452,true,Rx,0,8,00,08,44,F5,FF,FF,00,00,
-1762630422673289,0405240A,true,Rx,0,3,04,00,00,00,00,00,00,00,
-1762630422669407,0401E411,true,Rx,0,7,00,01,00,00,00,00,00,00,
-1762630422669279,0401E411,true,Rx,0,7,01,01,FF,FF,00,00,00,00,
-1762630422669151,0401E451,true,Rx,0,8,01,13,72,FE,FF,FF,00,00,
-1762630422668980,0401E451,true,Rx,0,8,00,13,4B,FF,FF,FF,00,00,
-1762630422667188,04098C31,true,Rx,0,3,00,00,00,00,00,00,00,00,
-1762630422667103,04098C51,true,Rx,0,3,00,EC,FF,00,00,00,00,00,
-1762630422665311,040A2011,true,Rx,0,8,EA,FF,FA,FF,CD,03,17,90,
-1762630422665140,04056411,true,Rx,0,8,F8,FF,05,00,06,FD,16,90,
-1762630422664159,040A2012,true,Rx,0,8,0E,00,F7,FF,EB,03,17,90,
-1762630422664031,04056412,true,Rx,0,8,F9,FF,F8,FF,4A,04,17,90,
-1762630422662282,0405C40F,true,Rx,0,8,00,01,28,40,6C,51,F3,2E,
-1762630422662154,0405C42F,true,Rx,0,8,00,64,64,29,D8,FF,42,00,
-1762630422662026,0405C40F,true,Rx,0,8,01,01,E6,3F,F4,51,12,1D,
-1762630422661898,0405C42F,true,Rx,0,8,01,64,C3,29,34,00,0A,00,
-1762630422661770,0405C52F,true,Rx,0,5,00,E8,FF,40,00,00,00,00,
-1762630422661642,0405C40F,true,Rx,0,8,02,01,50,41,0B,52,38,D5,
-1762630422661514,0405C42F,true,Rx,0,8,02,64,88,28,EE,FF,30,00,
-1762630422661386,0405C52F,true,Rx,0,5,02,22,00,1D,00,00,00,00,
-1762630422661258,0405C52F,true,Rx,0,5,01,43,00,25,00,00,00,00,
-1762630422660447,0405C410,true,Rx,0,8,00,01,C9,45,7F,87,F4,72,
-1762630422660319,0405C430,true,Rx,0,8,00,64,6E,08,3E,FD,AE,00,
-1762630422660191,0405C410,true,Rx,0,8,01,01,64,4C,4F,88,D5,47,
-1762630422660020,0405C430,true,Rx,0,8,01,64,D6,2B,35,01,42,FE,
-1762630422659935,0405C530,true,Rx,0,5,00,A6,01,7A,01,00,00,00,
-1762630422659807,0401E412,true,Rx,0,7,00,01,FE,FF,00,00,00,00,
-1762630422659636,0401E412,true,Rx,0,7,01,01,FD,FF,00,00,00,00,
-1762630422659508,0401E452,true,Rx,0,8,01,1C,C9,F5,FF,FF,00,00,
-1762630422659380,0401E452,true,Rx,0,8,00,1C,44,F5,FF,FF,00,00,
-1762630422659252,0405C410,true,Rx,0,8,02,01,2D,45,D9,88,78,8B,
-1762630422659082,0405C430,true,Rx,0,8,02,64,DC,2C,BC,FE,C1,FF,
-1762630422658996,0405C530,true,Rx,0,5,02,5D,00,58,00,00,00,00,
-1762630422658868,0405C530,true,Rx,0,5,01,28,FE,A4,FD,00,00,00,
-1762630422655583,04072001,true,Rx,0,4,00,00,00,01,00,00,00,00,
-1762630422652213,04001442,true,Rx,0,1,00,00,00,00,00,00,00,00,
-1762630422652127,04001462,true,Rx,0,1,42,00,00,00,00,00,00,00,
-1762630422651999,040014A2,true,Rx,0,2,96,4D,00,00,00,00,00,00,
-1762630422651914,04001482,true,Rx,0,1,01,00,00,00,00,00,00,00,
-1762630422651743,040014C2,true,Rx,0,4,B7,02,00,00,00,00,00,00,
-1762630422651658,04001542,true,Rx,0,2,E2,18,00,00,00,00,00,00,
-1762630422651573,04001562,true,Rx,0,2,17,00,00,00,00,00,00,00,
-1762630422651402,04001522,true,Rx,0,2,93,00,00,00,00,00,00,00,
-1762630422651317,040015A2,true,Rx,0,1,01,00,00,00,00,00,00,00,
-1762630422651231,04001722,true,Rx,0,1,5E,00,00,00,00,00,00,00,
-1762630422651018,04001682,true,Rx,0,6,03,84,91,00,11,00,00,00,
-1762630422650933,040015E2,true,Rx,0,2,00,00,00,00,00,00,00,00,
-1762630422650805,04001602,true,Rx,0,1,00,00,00,00,00,00,00,00,
-1762630422650677,04001622,true,Rx,0,1,00,00,00,00,00,00,00,00,
-1762630422650549,04001642,true,Rx,0,1,00,00,00,00,00,00,00,00,
-1762630422650421,04001662,true,Rx,0,3,00,00,00,00,00,00,00,00,
-1762630422650250,040016C2,true,Rx,0,5,00,00,00,00,00,00,00,00,
-1762630422649994,1C0003E6,true,Rx,0,8,02,FC,23,00,0A,10,02,B1,
-1762630422649866,1C0003E6,true,Rx,0,8,01,E2,02,0A,10,1B,00,14,
-1762630422649695,1C0003E6,true,Rx,0,8,00,8A,0F,7D,0F,80,0F,80,
-1762630422649525,1C0003E6,true,Rx,0,8,0F,8F,0F,00,00,00,00,00,
-1762630422649397,1C0003E6,true,Rx,0,7,00,00,00,00,00,96,03,00,
-1762630422649269,0401E411,true,Rx,0,7,00,01,00,00,00,00,00,00,
-1762630422649141,0401E411,true,Rx,0,7,01,01,05,00,00,00,00,00,
-1762630422648970,0401E451,true,Rx,0,8,01,27,72,FE,FF,FF,00,00,
-1762630422648842,0401E451,true,Rx,0,8,00,27,4B,FF,FF,FF,00,00,
-1762630422648714,1C0003E6,true,Rx,0,8,02,FC,19,00,0A,10,02,B1,
-1762630422648501,1C0003E6,true,Rx,0,8,01,7D,02,0A,10,1C,00,0A,
-1762630422648373,1C0003E6,true,Rx,0,8,00,00,00,00,00,00,00,00,
-1762630422648245,1C0003E6,true,Rx,0,5,00,00,00,13,03,00,00,00,
-1762630422647434,0405200C,true,Rx,0,2,00,00,00,00,00,00,00,00,
-1762630422645642,040A2011,true,Rx,0,8,E9,FF,F2,FF,CD,03,2A,90,
-1762630422645514,04056411,true,Rx,0,8,F8,FF,05,00,06,FD,2A,90,
-1762630422644149,040A2012,true,Rx,0,8,10,00,FA,FF,EB,03,2B,90,
-1762630422644021,04056412,true,Rx,0,8,F9,FF,F8,FF,4A,04,2B,90,
-1762630422642485,0405200B,true,Rx,0,2,00,00,00,00,00,00,00,00,
-1762630422639882,0401E412,true,Rx,0,7,00,01,04,00,00,00,00,00,
-1762630422639754,0401E412,true,Rx,0,7,01,01,03,00,00,00,00,00,
-1762630422639626,0401E452,true,Rx,0,8,01,30,C9,F5,FF,FF,00,00,
-1762630422639456,0401E452,true,Rx,0,8,00,30,44,F5,FF,FF,00,00,
-1762630422631179,04030C82,true,Rx,0,4,01,05,10,00,00,00,00,00,
-1762630422631008,04030CE2,true,Rx,0,8,8D,00,00,00,C2,64,1E,67,
-1762630422629387,0401E411,true,Rx,0,7,00,01,00,00,00,00,00,00,
-1762630422629259,0401E411,true,Rx,0,7,01,01,02,00,00,00,00,00,
-1762630422629131,0401E451,true,Rx,0,8,01,3B,72,FE,FF,FF,00,00,
-1762630422629003,0401E431,true,Rx,0,6,00,00,00,00,00,00,00,00,
-1762630422628875,0401E431,true,Rx,0,6,01,00,00,00,00,00,00,00,
-1762630422628747,0401E451,true,Rx,0,8,00,3B,4B,FF,FF,FF,00,00,
-1762630422625718,040A2011,true,Rx,0,8,E7,FF,FA,FF,D1,03,3E,90,
-1762630422625547,04056411,true,Rx,0,8,F8,FF,05,00,06,FD,3E,90,
-1762630422624566,0405240A,true,Rx,0,3,07,00,00,00,00,00,00,00,
-1762630422624139,040A2012,true,Rx,0,8,10,00,F8,FF,EB,03,3F,90,
-1762630422624011,04056412,true,Rx,0,8,F9,FF,F8,FF,4A,04,3F,90,
-1762630422623926,0405200E,true,Rx,0,2,00,00,00,00,00,00,00,00,
-1762630422621067,0405200D,true,Rx,0,2,00,00,00,00,00,00,00,00,
-1762630422619873,0401E412,true,Rx,0,7,00,01,03,00,00,00,00,00,
-1762630422619745,0401E412,true,Rx,0,7,01,01,07,00,00,00,00,00,
-1762630422619617,0401E452,true,Rx,0,8,01,44,C9,F5,FF,FF,00,00,
-1762630422619446,0401E452,true,Rx,0,8,00,44,44,F5,FF,FF,00,00,
-1762630422612321,0405C40F,true,Rx,0,8,00,01,2B,40,5D,51,FF,2E,
-1762630422612193,0405C42F,true,Rx,0,8,00,64,6D,29,F7,FF,45,00,
-1762630422612022,0405C40F,true,Rx,0,8,01,01,D9,3F,DB,51,89,1D,
-1762630422611894,0405C42F,true,Rx,0,8,01,64,E4,29,E1,FF,7C,00,
-1762630422611766,0405C52F,true,Rx,0,5,00,EB,FF,34,00,00,00,00,
-1762630422611638,0405C40F,true,Rx,0,8,02,01,54,41,DE,51,74,D5,
-1762630422611510,0405C42F,true,Rx,0,8,02,64,77,28,EC,FF,41,00,
-1762630422611382,0405C52F,true,Rx,0,5,02,3C,00,2A,00,00,00,00,
-1762630422611297,0405C52F,true,Rx,0,5,01,48,00,F6,FF,00,00,00,
-1762630422610444,0405C410,true,Rx,0,8,00,01,C8,45,88,87,E3,72,
-1762630422610316,0405C430,true,Rx,0,8,00,64,9A,08,04,00,C3,FF,
-1762630422610188,0405C530,true,Rx,0,5,00,4E,FF,A0,FF,00,00,00,
-1762630422610102,0405280C,true,Rx,0,2,00,00,00,00,00,00,00,00,
-1762630422609974,0405C410,true,Rx,0,8,01,01,6E,4C,96,88,B3,48,
-1762630422609804,0405C430,true,Rx,0,8,01,64,A3,2B,7C,03,85,FE,
-1762630422609676,0405C410,true,Rx,0,8,02,01,42,45,2D,89,47,8B,
-1762630422609548,0405C430,true,Rx,0,8,02,64,32,2D,3E,FE,81,FF,
-1762630422609420,0401E411,true,Rx,0,7,00,01,FE,FF,00,00,00,00,
-1762630422609249,0401E411,true,Rx,0,7,01,01,02,00,00,00,00,00,
-1762630422609121,0401E451,true,Rx,0,8,01,4F,72,FE,FF,FF,00,00,
-1762630422608993,0401E451,true,Rx,0,8,00,4F,4B,FF,FF,FF,00,00,
-1762630422608865,0405C530,true,Rx,0,5,01,75,FB,C7,02,00,00,00,
-1762630422608737,0405C530,true,Rx,0,5,02,A5,FF,BF,00,00,00,00,
-1762630422605708,040A2011,true,Rx,0,8,EB,FF,F6,FF,D0,03,52,90,
-1762630422605580,04056411,true,Rx,0,8,F8,FF,05,00,06,FD,52,90,
-1762630422605281,04072001,true,Rx,0,4,00,00,00,01,00,00,00,00,
-1762630422604129,040A2012,true,Rx,0,8,0D,00,F7,FF,E4,03,53,90,
-1762630422604001,04056412,true,Rx,0,8,F9,FF,F8,FF,4A,04,53,90,
-1762630422602935,0405280B,true,Rx,0,2,00,00,00,00,00,00,00,00,
-1762630422599905,0401E412,true,Rx,0,7,00,01,02,00,00,00,00,00,
-1762630422599777,0401E412,true,Rx,0,7,01,01,FF,FF,00,00,00,00,
-1762630422599607,0401E452,true,Rx,0,8,01,58,C9,F5,FF,FF,00,00,
-1762630422599479,0401E452,true,Rx,0,8,00,58,44,F5,FF,FF,00,00,
-1762630422589410,0401E411,true,Rx,0,7,00,01,02,00,00,00,00,00,
-1762630422589282,0401E411,true,Rx,0,7,01,01,07,00,00,00,00,00,
-1762630422589154,0401E451,true,Rx,0,8,01,63,72,FE,FF,FF,00,00,
-1762630422589026,0401E451,true,Rx,0,8,00,63,4B,FF,FF,FF,00,00,
-1762630422585698,040A2011,true,Rx,0,8,E9,FF,F2,FF,D4,03,66,90,
-1762630422585570,04056411,true,Rx,0,8,F8,FF,05,00,06,FD,66,90,
-1762630422584162,040A2012,true,Rx,0,8,0C,00,F9,FF,ED,03,67,90,
-1762630422584034,04056412,true,Rx,0,8,F9,FF,F8,FF,4A,04,67,90,
-1762630422579853,0401E412,true,Rx,0,7,00,01,02,00,00,00,00,00,
-1762630422579725,0401E412,true,Rx,0,7,01,01,00,00,00,00,00,00,
-1762630422579554,0401E452,true,Rx,0,8,01,6C,C9,F5,FF,FF,00,00,
-1762630422579426,0401E432,true,Rx,0,6,00,00,00,00,00,00,00,00,
-1762630422579341,0401E432,true,Rx,0,6,01,00,00,00,00,00,00,00,
-1762630422579170,0401E452,true,Rx,0,8,00,6C,44,F5,FF,FF,00,00,
-1762630422574562,0405240A,true,Rx,0,3,01,00,00,00,00,00,00,00,
-1762630422569443,0401E411,true,Rx,0,7,00,01,01,00,00,00,00,00,
-1762630422569315,0401E411,true,Rx,0,7,01,01,00,00,00,00,00,00,
-1762630422569144,0401E451,true,Rx,0,8,01,77,72,FE,FF,FF,00,00,
-1762630422569016,0401E451,true,Rx,0,8,00,77,4B,FF,FF,FF,00,00,
-1762630422568931,0405200C,true,Rx,0,2,00,00,00,00,00,00,00,00,
-1762630422567395,0405200B,true,Rx,0,2,00,00,00,00,00,00,00,00,
-1762630422567181,04098C31,true,Rx,0,3,00,00,00,00,00,00,00,00,
-1762630422567096,04098C51,true,Rx,0,3,00,F2,FF,00,00,00,00,00,
-1762630422565304,040A2011,true,Rx,0,8,EA,FF,FB,FF,CD,03,7B,90,
-1762630422565133,04056411,true,Rx,0,8,F8,FF,05,00,06,FD,7A,90,
-1762630422564152,040A2012,true,Rx,0,8,0E,00,F7,FF,E7,03,7B,90,
-1762630422564024,04056412,true,Rx,0,8,F9,FF,F8,FF,4A,04,7B,90,
-1762630422562190,0405C40F,true,Rx,0,8,00,01,1D,40,73,51,B1,2E,
-1762630422562019,0405C42F,true,Rx,0,8,00,64,82,29,F1,FF,3E,00,
-1762630422561891,0405C40F,true,Rx,0,8,01,01,E6,3F,E4,51,7F,1D,
-1762630422561720,0405C42F,true,Rx,0,8,01,64,A5,29,02,00,F3,FF,
-1762630422561635,0405C52F,true,Rx,0,5,00,F4,FF,10,00,00,00,00,
-1762630422561507,0405C40F,true,Rx,0,8,02,01,54,41,F3,51,7E,D5,
-1762630422561379,0405C42F,true,Rx,0,8,02,64,5D,28,E4,FF,2A,00,
-1762630422561251,0405C52F,true,Rx,0,5,02,48,00,22,00,00,00,00,
-1762630422561123,0405C52F,true,Rx,0,5,01,55,FF,2A,00,00,00,00,
-1762630422560440,0405C410,true,Rx,0,8,00,01,CE,45,40,87,73,72,
-1762630422560312,0405C430,true,Rx,0,8,00,64,69,08,96,00,17,00,
-1762630422560184,0405C410,true,Rx,0,8,01,01,6C,4C,8F,88,E3,47,
-1762630422560056,0405C430,true,Rx,0,8,01,64,D6,2B,05,05,16,FE,
-1762630422559886,0405C530,true,Rx,0,5,00,8D,00,98,00,00,00,00,
-1762630422559800,0401E412,true,Rx,0,7,00,01,00,00,00,00,00,00,
-1762630422559630,0401E412,true,Rx,0,7,01,01,FE,FF,00,00,00,00,
-1762630422559502,0401E452,true,Rx,0,8,01,80,C9,F5,FF,FF,00,00,
-1762630422559374,0401E452,true,Rx,0,8,00,80,44,F5,FF,FF,00,00,
-1762630422559203,0405C410,true,Rx,0,8,02,01,41,45,42,89,25,8B,
-1762630422559075,0405C430,true,Rx,0,8,02,64,5C,2D,EF,00,6B,00,
-1762630422558990,0405C530,true,Rx,0,5,02,90,FF,F1,FF,00,00,00,
-1762630422558862,0405C530,true,Rx,0,5,01,89,FC,2A,01,00,00,00,
-1762630422558008,1C0000DA,true,Rx,0,8,02,FD,09,00,13,49,B4,39,
-1762630422557880,1C0000DA,true,Rx,0,5,00,6B,16,40,03,00,00,00,
-1762630422555875,1C000346,true,Rx,0,8,02,FD,09,00,13,49,B4,39,
-1762630422555790,1C000346,true,Rx,0,5,00,6B,17,1E,03,00,00,00,
-1762630422555534,04072001,true,Rx,0,4,00,00,00,01,00,00,00,00,
-1762630422549561,1C00003A,true,Rx,0,8,02,FD,09,00,36,40,FD,74,
-1762630422549433,0401E411,true,Rx,0,7,00,01,01,00,00,00,00,00,
-1762630422549305,0401E411,true,Rx,0,7,01,01,01,00,00,00,00,00,
-1762630422549134,0401E451,true,Rx,0,8,01,8B,72,FE,FF,FF,00,00,
-1762630422549006,0401E451,true,Rx,0,8,00,8B,4B,FF,FF,FF,00,00,
-1762630422548878,1C00003A,true,Rx,0,5,00,7F,16,40,03,00,00,00,
-1762630422548153,1C000341,true,Rx,0,8,02,FD,09,00,36,40,FD,74,
-1762630422548025,1C000341,true,Rx,0,5,00,7F,17,1E,03,00,00,00,
-1762630422545678,040A2011,true,Rx,0,8,E9,FF,F7,FF,D1,03,8E,90,
-1762630422545550,04056411,true,Rx,0,8,F8,FF,04,00,06,FD,8E,90,
-1762630422544953,0405200E,true,Rx,0,2,00,00,00,00,00,00,00,00,
-1762630422544142,040A2012,true,Rx,0,8,0F,00,F9,FF,E9,03,8F,90,
-1762630422544014,04056412,true,Rx,0,8,F9,FF,F8,FF,4A,04,8F,90,
-1762630422542990,0405200D,true,Rx,0,2,00,00,00,00,00,00,00,00,
-1762630422542137,04030C82,true,Rx,0,4,01,05,10,00,00,00,00,00,
-1762630422542009,04030CE2,true,Rx,0,8,8D,00,00,00,C2,64,1E,67,
-1762630422539876,0401E412,true,Rx,0,7,00,01,03,00,00,00,00,00,
-1762630422539748,0401E412,true,Rx,0,7,01,01,00,00,00,00,00,00,
-1762630422539620,0401E452,true,Rx,0,8,01,94,C9,F5,FF,FF,00,00,
-1762630422539449,0401E452,true,Rx,0,8,00,94,44,F5,FF,FF,00,00,
-1762630422532580,1C00005A,true,Rx,0,8,02,FD,09,00,E2,71,1C,50,
-1762630422532452,1C00005A,true,Rx,0,5,00,6F,16,40,03,00,00,00,
-1762630422531599,1C000342,true,Rx,0,8,02,FD,09,00,E2,71,1C,50,
-1762630422531471,1C000342,true,Rx,0,5,00,6F,17,1E,03,00,00,00,
-1762630422529423,0401E411,true,Rx,0,7,00,01,FE,FF,00,00,00,00,
-1762630422529295,0401E411,true,Rx,0,7,01,01,02,00,00,00,00,00,
-1762630422529124,0401E451,true,Rx,0,8,01,9F,72,FE,FF,FF,00,00,
-1762630422528996,0401E431,true,Rx,0,6,00,00,00,00,00,00,00,00,
-1762630422528911,0401E431,true,Rx,0,6,01,00,00,00,00,00,00,00,
-1762630422528740,0401E451,true,Rx,0,8,00,9F,4B,FF,FF,FF,00,00,
-1762630422525711,040A2011,true,Rx,0,8,E6,FF,FD,FF,CE,03,A2,90,
-1762630422525583,04056411,true,Rx,0,8,F8,FF,04,00,06,FD,A2,90,
-1762630422524175,040A2012,true,Rx,0,8,0F,00,FA,FF,EC,03,A3,90,
-1762630422524004,04056412,true,Rx,0,8,F9,FF,F8,FF,4A,04,A3,90,
-1762630422523407,0405240A,true,Rx,0,3,08,00,00,00,00,00,00,00,
-1762630422519908,0401E412,true,Rx,0,7,00,01,02,00,00,00,00,00,
-1762630422519738,0401E412,true,Rx,0,7,01,01,FF,FF,00,00,00,00,
-1762630422519610,0401E452,true,Rx,0,8,01,A8,C9,F5,FF,FF,00,00,
-1762630422519482,0401E452,true,Rx,0,8,00,A8,44,F5,FF,FF,00,00,
-1762630422513167,0405280C,true,Rx,0,2,00,00,00,00,00,00,00,00,
-1762630422512314,0405C40F,true,Rx,0,8,00,01,19,40,6F,51,BA,2E,
-1762630422512143,0405C42F,true,Rx,0,8,00,64,8A,29,E6,FF,43,00,
-1762630422512058,0405C52F,true,Rx,0,5,00,DD,FF,F6,FF,00,00,00,
-1762630422511930,0405C40F,true,Rx,0,8,01,01,DA,3F,B1,51,B2,1D,
-1762630422511759,0405C42F,true,Rx,0,8,01,64,96,29,CB,FF,98,FF,
-1762630422511631,0405C40F,true,Rx,0,8,02,01,45,41,D3,51,A2,D5,
-1762630422511503,0405C42F,true,Rx,0,8,02,64,60,28,E0,FF,1E,00,
-1762630422511375,0405C52F,true,Rx,0,5,01,86,FF,5E,00,00,00,00,
-1762630422511290,0405C52F,true,Rx,0,5,02,31,00,1E,00,00,00,00,
-1762630422510437,0405C410,true,Rx,0,8,00,01,CE,45,B5,87,1A,72,
-1762630422510309,0405C430,true,Rx,0,8,00,64,47,08,12,00,19,01,
-1762630422510138,0405C410,true,Rx,0,8,01,01,70,4C,7A,88,5F,47,
-1762630422510010,0405C430,true,Rx,0,8,01,64,C6,2B,BA,02,5C,FE,
-1762630422509925,0405C530,true,Rx,0,5,00,60,01,C1,00,00,00,00,
-1762630422509754,0405C410,true,Rx,0,8,02,01,41,45,0B,89,23,8B,
-1762630422509626,0405C430,true,Rx,0,8,02,64,4E,2D,B7,FF,23,01,
-1762630422509498,0405C530,true,Rx,0,5,02,88,00,62,00,00,00,00,
-1762630422509370,0401E411,true,Rx,0,7,00,01,02,00,00,00,00,00,
-1762630422509242,0401E411,true,Rx,0,7,01,01,03,00,00,00,00,00,
-1762630422509114,0401E451,true,Rx,0,8,01,B3,72,FE,FF,FF,00,00,
-1762630422508944,0401E451,true,Rx,0,8,00,B3,4B,FF,FF,FF,00,00,
-1762630422508816,0405C530,true,Rx,0,5,01,4C,FD,28,00,00,00,00,
-1762630422507152,0405280B,true,Rx,0,2,00,00,00,00,00,00,00,00,
-1762630422505701,040A2011,true,Rx,0,8,ED,FF,F6,FF,D3,03,B6,90,
-1762630422505573,04056411,true,Rx,0,8,F8,FF,04,00,06,FD,B6,90,
-1762630422505445,04072001,true,Rx,0,4,00,00,00,01,00,00,00,00,
-1762630422504165,040A2012,true,Rx,0,8,0F,00,FE,FF,E8,03,B7,90,
-1762630422503994,04056412,true,Rx,0,8,F9,FF,F8,FF,4A,04,B7,90,
-1762630422499856,0401E412,true,Rx,0,7,00,01,02,00,00,00,00,00,
-1762630422499728,0401E412,true,Rx,0,7,01,01,04,00,00,00,00,00,
-1762630422499600,0401E452,true,Rx,0,8,01,BC,C9,F5,FF,FF,00,00,
-1762630422499429,0401E452,true,Rx,0,8,00,BC,44,F5,FF,FF,00,00,
-1762630422490342,0405200C,true,Rx,0,2,00,00,00,00,00,00,00,00,
-1762630422489403,0401E411,true,Rx,0,7,00,01,02,00,00,00,00,00,
-1762630422489275,0401E411,true,Rx,0,7,01,01,01,00,00,00,00,00,
-1762630422489147,0401E451,true,Rx,0,8,01,C7,72,FE,FF,FF,00,00,
-1762630422489019,0401E451,true,Rx,0,8,00,C7,4B,FF,FF,FF,00,00,
-1762630422488550,0405200B,true,Rx,0,2,00,00,00,00,00,00,00,00,
-1762630422485691,040A2011,true,Rx,0,8,E9,FF,F5,FF,CF,03,CA,90,
-1762630422485563,04056411,true,Rx,0,8,F8,FF,04,00,06,FD,CA,90,
-1762630422484155,040A2012,true,Rx,0,8,0B,00,FA,FF,EB,03,CB,90,
-1762630422484027,04056412,true,Rx,0,8,F9,FF,F8,FF,4A,04,CB,90,
-1762630422479889,0401E412,true,Rx,0,7,00,01,03,00,00,00,00,00,
-1762630422479761,0401E412,true,Rx,0,7,01,01,01,00,00,00,00,00,
-1762630422479590,0401E452,true,Rx,0,8,01,D0,C9,F5,FF,FF,00,00,
-1762630422479462,0401E432,true,Rx,0,6,00,00,00,00,00,00,00,00,
-1762630422479334,0401E432,true,Rx,0,6,01,00,00,00,00,00,00,00,
-1762630422479206,0401E452,true,Rx,0,8,00,D0,44,F5,FF,FF,00,00,
-1762630422474556,0405240A,true,Rx,0,3,02,00,00,00,00,00,00,00,
-1762630422469436,0401E411,true,Rx,0,7,00,01,01,00,00,00,00,00,
-1762630422469308,0401E411,true,Rx,0,7,01,01,03,00,00,00,00,00,
-1762630422469180,0401E451,true,Rx,0,8,01,DB,72,FE,FF,FF,00,00,
-1762630422469009,0401E451,true,Rx,0,8,00,DB,4B,FF,FF,FF,00,00,
-1762630422467217,04098C31,true,Rx,0,3,00,00,00,00,00,00,00,00,
-1762630422467132,04098C51,true,Rx,0,3,00,F0,FF,00,00,00,00,00,
-1762630422465937,0405200E,true,Rx,0,2,00,00,00,00,00,00,00,00,
-1762630422465297,040A2011,true,Rx,0,8,EC,FF,FB,FF,D2,03,DF,90,
-1762630422465169,04056411,true,Rx,0,8,F8,FF,04,00,06,FD,DE,90,
-1762630422464145,040A2012,true,Rx,0,8,13,00,FA,FF,EC,03,DF,90,
-1762630422464017,04056412,true,Rx,0,8,F9,FF,F8,FF,4A,04,DF,90,
-1762630422463932,0405200D,true,Rx,0,2,00,00,00,00,00,00,00,00,
-1762630422462311,0405C40F,true,Rx,0,8,00,01,17,40,6D,51,9E,2E,
-1762630422462183,0405C42F,true,Rx,0,8,00,64,A7,29,FA,FF,32,00,
-1762630422462012,0405C40F,true,Rx,0,8,01,01,DF,3F,99,51,18,1D,
-1762630422461884,0405C42F,true,Rx,0,8,01,64,D3,29,D6,FF,60,00,
-1762630422461756,0405C52F,true,Rx,0,5,00,CF,FF,06,00,00,00,00,
-1762630422461628,0405C40F,true,Rx,0,8,02,01,39,41,EB,51,93,D5,
-1762630422461500,0405C42F,true,Rx,0,8,02,64,5C,28,03,00,3B,00,
-1762630422461372,0405C52F,true,Rx,0,5,02,04,00,2D,00,00,00,00,
-1762630422461287,0405C52F,true,Rx,0,5,01,CF,FF,42,00,00,00,00,
-1762630422460433,0405C410,true,Rx,0,8,00,01,D2,45,99,87,2B,72,
-1762630422460305,0405C430,true,Rx,0,8,00,64,1E,09,71,00,7D,FF,
-1762630422460135,0405C410,true,Rx,0,8,01,01,85,4C,B1,88,DA,48,
-1762630422460007,0405C430,true,Rx,0,8,01,64,C8,2B,43,01,1B,FD,
-1762630422459879,0401E412,true,Rx,0,7,00,01,01,00,00,00,00,00,
-1762630422459751,0401E412,true,Rx,0,7,01,01,05,00,00,00,00,00,
-1762630422459580,0401E452,true,Rx,0,8,01,E4,C9,F5,FF,FF,00,00,
-1762630422459452,0401E452,true,Rx,0,8,00,E4,44,F5,FF,FF,00,00,
-1762630422459324,0405C410,true,Rx,0,8,02,01,3F,45,2B,89,15,8B,
-1762630422459196,0405C530,true,Rx,0,5,00,19,00,39,01,00,00,00,
-1762630422459068,0405C430,true,Rx,0,8,02,64,39,2D,2E,00,80,FF,
-1762630422458983,0405C530,true,Rx,0,5,02,7A,01,F6,00,00,00,00,
-1762630422458855,0405C530,true,Rx,0,5,01,DF,FC,73,01,00,00,00,
-1762630422455570,04072001,true,Rx,0,4,00,00,00,01,00,00,00,00,
-1762630422453180,04030C82,true,Rx,0,4,01,05,10,00,00,00,00,00,
-1762630422453010,04030CE2,true,Rx,0,8,8D,00,00,00,C2,64,1E,67,
-1762630422449426,0401E411,true,Rx,0,7,00,01,FF,FF,00,00,00,00,
-1762630422449298,0401E411,true,Rx,0,7,01,01,01,00,00,00,00,00,
-1762630422449170,0401E451,true,Rx,0,8,01,EF,72,FE,FF,FF,00,00,
-1762630422448999,0401E451,true,Rx,0,8,00,EF,4B,FF,FF,FF,00,00,
-1762630422445714,040A2011,true,Rx,0,8,E8,FF,F8,FF,CD,03,F2,90,
-1762630422445586,04056411,true,Rx,0,8,F8,FF,04,00,06,FD,F2,90,
-1762630422444135,040A2012,true,Rx,0,8,12,00,F9,FF,E9,03,F3,90,
-1762630422444007,04056412,true,Rx,0,8,F9,FF,F8,FF,4A,04,F3,90,
-1762630422439869,0401E412,true,Rx,0,7,00,01,03,00,00,00,00,00,
-1762630422439741,0401E412,true,Rx,0,7,01,01,00,00,00,00,00,00,
-1762630422439613,0401E452,true,Rx,0,8,01,F8,C9,F5,FF,FF,00,00,
-1762630422439442,0401E452,true,Rx,0,8,00,F8,44,F5,FF,FF,00,00,
-1762630422429416,0401E411,true,Rx,0,7,00,01,04,00,00,00,00,00,
-1762630422429288,0401E411,true,Rx,0,7,01,01,00,00,00,00,00,00,
-1762630422429117,0401E451,true,Rx,0,8,01,03,72,FE,FF,FF,00,00,
-1762630422428989,0401E431,true,Rx,0,6,00,00,00,00,00,00,00,00,
-1762630422428861,0401E431,true,Rx,0,6,01,00,00,00,00,00,00,00,
-1762630422428733,0401E451,true,Rx,0,8,00,03,4B,FF,FF,FF,00,00,
-1762630422425704,040A2011,true,Rx,0,8,E7,FF,F9,FF,D1,03,06,91,
-1762630422425576,04056411,true,Rx,0,8,F8,FF,04,00,06,FD,06,91,
-1762630422425406,040D6863,true,Rx,0,6,00,00,00,00,00,01,00,00,
-1762630422424552,0405240A,true,Rx,0,3,02,00,00,00,00,00,00,00,
-1762630422424168,040A2012,true,Rx,0,8,11,00,FA,FF,EC,03,07,91,
-1762630422423998,04056412,true,Rx,0,8,F9,FF,F8,FF,4A,04,07,91,
-1762630422423400,040D6843,true,Rx,0,3,00,00,00,00,00,00,00,00,
-1762630422421352,040D6863,true,Rx,0,6,01,00,00,00,00,01,00,00,
-1762630422419902,0401E412,true,Rx,0,7,00,01,00,00,00,00,00,00,
-1762630422419774,0401E412,true,Rx,0,7,01,01,01,00,00,00,00,00,
-1762630422419603,0401E452,true,Rx,0,8,01,0C,C9,F5,FF,FF,00,00,
-1762630422419475,0401E452,true,Rx,0,8,00,0C,44,F5,FF,FF,00,00,
-1762630422419347,040D6843,true,Rx,0,3,01,00,00,00,00,00,00,00,
-1762630422414099,0405280C,true,Rx,0,2,00,00,00,00,00,00,00,00,
-1762630422412563,0405200C,true,Rx,0,2,00,00,00,00,00,00,00,00,
-1762630422412265,0405C40F,true,Rx,0,8,00,01,2F,40,59,51,AE,2E,
-1762630422412137,0405C42F,true,Rx,0,8,00,64,83,29,10,00,26,00,
-1762630422412009,0405C40F,true,Rx,0,8,01,01,DD,3F,C1,51,71,1D,
-1762630422411881,0405C42F,true,Rx,0,8,01,64,D1,29,49,00,6C,00,
-1762630422411753,0405C52F,true,Rx,0,5,00,C9,FF,1E,00,00,00,00,
-1762630422411625,0405C40F,true,Rx,0,8,02,01,40,41,EF,51,AC,D5,
-1762630422411497,0405C42F,true,Rx,0,8,02,64,5A,28,D8,00,48,00,
-1762630422411369,0405C52F,true,Rx,0,5,02,14,00,1C,00,00,00,00,
-1762630422411241,0405C52F,true,Rx,0,5,01,B6,FF,3B,00,00,00,00,
-1762630422410473,0405C410,true,Rx,0,8,00,01,CD,45,B3,87,89,72,
-1762630422410302,0405C430,true,Rx,0,8,00,64,84,09,E9,FF,73,FE,
-1762630422410174,0405C410,true,Rx,0,8,01,01,86,4C,D8,88,73,48,
-1762630422410046,0405C430,true,Rx,0,8,01,64,D5,2B,35,00,A6,FC,
-1762630422409918,0405C530,true,Rx,0,5,00,7F,00,85,FF,00,00,00,
-1762630422409790,0405C410,true,Rx,0,8,02,01,3D,45,33,89,EB,8A,
-1762630422409662,0405C430,true,Rx,0,8,02,64,3A,2D,63,FF,C2,FE,
-1762630422409534,0405C530,true,Rx,0,5,02,F3,00,4C,00,00,00,00,
-1762630422409406,0401E411,true,Rx,0,7,00,01,02,00,00,00,00,00,
-1762630422409278,0401E411,true,Rx,0,7,01,01,03,00,00,00,00,00,
-1762630422409150,0401E451,true,Rx,0,8,01,17,72,FE,FF,FF,00,00,
-1762630422408979,0401E451,true,Rx,0,8,00,17,4B,FF,FF,FF,00,00,
-1762630422408894,0405200B,true,Rx,0,2,00,00,00,00,00,00,00,00,
-1762630422408809,0405280B,true,Rx,0,2,00,00,00,00,00,00,00,00,
-1762630422408681,0405C530,true,Rx,0,5,01,CE,02,9C,04,00,00,00,
-1762630422405694,040A2011,true,Rx,0,8,E7,FF,FA,FF,CE,03,1A,91,
-1762630422405566,04056411,true,Rx,0,8,F8,FF,04,00,06,FD,1A,91,
-1762630422405438,04072001,true,Rx,0,4,00,00,00,01,00,00,00,00,
-1762630422404158,040A2012,true,Rx,0,8,0E,00,F7,FF,E8,03,1B,91,
-1762630422403988,04056412,true,Rx,0,8,F9,FF,F8,FF,4A,04,1B,91,
-1762630422399892,0401E412,true,Rx,0,7,00,01,02,00,00,00,00,00,
-1762630422399764,0401E412,true,Rx,0,7,01,01,01,00,00,00,00,00,
-1762630422399593,0401E452,true,Rx,0,8,01,20,C9,F5,FF,FF,00,00,
-1762630422399465,0401E452,true,Rx,0,8,00,20,44,F5,FF,FF,00,00,
-1762630422397503,1C0003FA,true,Rx,0,8,02,FD,1F,00,00,00,00,00,
-1762630422397375,1C0003FA,true,Rx,0,8,00,E2,14,02,01,28,80,33,
-1762630422397247,1C0003FA,true,Rx,0,8,00,00,00,57,69,66,69,42,
-1762630422397119,1C0003FA,true,Rx,0,8,6C,65,44,6F,6E,67,6C,65,
-1762630422396991,1C0003FA,true,Rx,0,3,00,3C,03,00,00,00,00,00,
-1762630422389439,0401E411,true,Rx,0,7,00,01,FF,FF,00,00,00,00,
-1762630422389311,0401E411,true,Rx,0,7,01,01,06,00,00,00,00,00,
-1762630422389140,0401E451,true,Rx,0,8,01,2B,72,FE,FF,FF,00,00,
-1762630422389012,0401E451,true,Rx,0,8,00,2B,4B,FF,FF,FF,00,00,
-1762630422385940,0405200D,true,Rx,0,2,00,00,00,00,00,00,00,00,
-1762630422385727,040A2011,true,Rx,0,8,ED,FF,F9,FF,D2,03,2E,91,
-1762630422385599,04056411,true,Rx,0,8,F8,FF,04,00,06,FD,2E,91,
-1762630422384874,0405200E,true,Rx,0,2,00,00,00,00,00,00,00,00,
-1762630422384148,040A2012,true,Rx,0,8,0F,00,FA,FF,EB,03,2F,91,
-1762630422384020,04056412,true,Rx,0,8,F9,FF,F8,FF,4A,04,2F,91,
-1762630422382613,1C0000DA,true,Rx,0,8,02,FD,09,00,00,01,28,80,
-1762630422382485,1C0000DA,true,Rx,0,5,00,86,16,40,03,00,00,00,
-1762630422380991,1C000346,true,Rx,0,8,02,FD,09,00,00,01,28,80,
-1762630422380863,1C000346,true,Rx,0,5,00,86,17,1E,03,00,00,00,
-1762630422379882,0401E412,true,Rx,0,7,00,01,01,00,00,00,00,00,
-1762630422379754,0401E412,true,Rx,0,7,01,01,FE,FF,00,00,00,00,
-1762630422379626,0401E452,true,Rx,0,8,01,34,C9,F5,FF,FF,00,00,
-1762630422379455,0401E432,true,Rx,0,6,00,00,00,00,00,00,00,00,
-1762630422379370,0401E432,true,Rx,0,6,01,00,00,00,00,00,00,00,
-1762630422379199,0401E452,true,Rx,0,8,00,34,44,F5,FF,FF,00,00,
-1762630422373312,0405240A,true,Rx,0,3,05,00,00,00,00,00,00,00,
-1762630422369429,0401E411,true,Rx,0,7,00,01,01,00,00,00,00,00,
-1762630422369301,0401E411,true,Rx,0,7,01,01,FF,FF,00,00,00,00,
-1762630422369173,0401E451,true,Rx,0,8,01,3F,72,FE,FF,FF,00,00,
-1762630422369002,0401E451,true,Rx,0,8,00,3F,4B,FF,FF,FF,00,00,
-1762630422367082,04098C31,true,Rx,0,3,00,00,00,00,00,00,00,00,
-1762630422366997,04098C51,true,Rx,0,3,00,F2,FF,00,00,00,00,00,
-1762630422365163,040A2011,true,Rx,0,8,EC,FF,F9,FF,CF,03,43,91,
-1762630422365035,04056411,true,Rx,0,8,F8,FF,04,00,06,FD,43,91,
-1762630422364181,040A2012,true,Rx,0,8,10,00,F7,FF,E7,03,43,91,
-1762630422364053,04030C82,true,Rx,0,4,01,05,10,00,00,00,00,00,
-1762630422363925,04030CE2,true,Rx,0,8,8D,00,00,00,C2,64,1E,67,
-1762630422363797,04056412,true,Rx,0,8,F9,FF,F8,FF,4A,04,43,91,
-1762630422362304,0405C40F,true,Rx,0,8,00,01,35,40,64,51,E2,2E,
-1762630422362176,0405C42F,true,Rx,0,8,00,64,77,29,01,00,20,00,
-1762630422362005,0405C40F,true,Rx,0,8,01,01,EB,3F,C6,51,55,1E,
-1762630422361877,0405C42F,true,Rx,0,8,01,64,E6,29,5F,00,8F,00,
-1762630422361792,0405C52F,true,Rx,0,5,00,D1,FF,24,00,00,00,00,
-1762630422361621,0405C40F,true,Rx,0,8,02,01,37,41,FD,51,B4,D5,
-1762630422361493,0405C42F,true,Rx,0,8,02,64,7F,28,AB,00,58,00,
-1762630422361408,0405C52F,true,Rx,0,5,02,E5,FF,18,00,00,00,00,
-1762630422361280,0405C52F,true,Rx,0,5,01,F2,FF,1A,00,00,00,00,
-1762630422360427,0405C410,true,Rx,0,8,00,01,B7,45,D9,87,71,72,
-1762630422360299,0405C430,true,Rx,0,8,00,64,B2,08,69,FF,8A,FE,
-1762630422360213,0405C530,true,Rx,0,5,00,4C,02,DB,FE,00,00,00,
-1762630422360043,0405C410,true,Rx,0,8,01,01,91,4C,68,88,F6,47,
-1762630422359915,0405C430,true,Rx,0,8,01,64,7A,2B,54,FB,22,FD,
-1762630422359787,0401E412,true,Rx,0,7,00,01,02,00,00,00,00,00,
-1762630422359659,0401E412,true,Rx,0,7,01,01,FE,FF,00,00,00,00,
-1762630422359488,0401E452,true,Rx,0,8,01,48,C9,F5,FF,FF,00,00,
-1762630422359360,0401E452,true,Rx,0,8,00,48,44,F5,FF,FF,00,00,
-1762630422359189,0405C410,true,Rx,0,8,02,01,40,45,3A,89,97,8A,
-1762630422359061,0405C430,true,Rx,0,8,02,64,3E,2D,AD,FE,84,FF,
-1762630422358976,0405C530,true,Rx,0,5,02,4B,01,A1,01,00,00,00,
-1762630422358848,0405C530,true,Rx,0,5,01,D3,03,B7,05,00,00,00,
-1762630422358507,1C00005A,true,Rx,0,8,02,FD,09,00,0E,01,28,80,
-1762630422358421,1C00005A,true,Rx,0,5,00,24,16,40,03,00,00,00,
-1762630422355606,04072001,true,Rx,0,4,00,00,00,01,00,00,00,00,
-1762630422354326,1C000342,true,Rx,0,8,02,FD,09,00,0E,01,28,80,
-1762630422354198,1C000342,true,Rx,0,5,00,24,17,1E,03,00,00,00,
-1762630422349419,0401E411,true,Rx,0,7,00,01,FF,FF,00,00,00,00,
-1762630422349291,0401E411,true,Rx,0,7,01,01,03,00,00,00,00,00,
-1762630422349120,0401E451,true,Rx,0,8,01,53,72,FE,FF,FF,00,00,
-1762630422348992,0401E451,true,Rx,0,8,00,53,4B,FF,FF,FF,00,00,
-1762630422348054,1C00005A,true,Rx,0,8,02,FD,11,00,04,01,28,80,
-1762630422347926,1C00005A,true,Rx,0,8,01,CD,00,A1,F2,10,00,00,
-1762630422347798,1C00005A,true,Rx,0,5,01,00,00,B7,03,00,00,00,
-1762630422347627,1C00003A,true,Rx,0,8,02,FD,11,00,0C,01,28,80,
-1762630422347499,1C00003A,true,Rx,0,8,01,F3,00,A3,F2,10,00,00,
-1762630422347371,1C00003A,true,Rx,0,5,01,00,00,31,03,00,00,00,
-1762630422346390,1C000341,true,Rx,0,8,02,FD,11,00,0C,01,28,80,
-1762630422346219,1C000341,true,Rx,0,8,01,F3,01,A3,F2,10,00,00,
-1762630422346134,1C000341,true,Rx,0,5,00,00,00,3E,03,00,00,00,
-1762630422345707,040A2011,true,Rx,0,8,E9,FF,F8,FF,D0,03,56,91,
-1762630422345579,04056411,true,Rx,0,8,F8,FF,04,00,06,FD,56,91,
-1762630422344811,1C000342,true,Rx,0,8,02,FD,11,00,04,01,28,80,
-1762630422344683,1C000342,true,Rx,0,8,01,CD,01,A1,F2,10,00,00,
-1762630422344555,1C000342,true,Rx,0,5,00,00,00,B8,03,00,00,00,
-1762630422344043,040A2012,true,Rx,0,8,0C,00,FF,FF,E8,03,57,91,
-1762630422343915,04056412,true,Rx,0,8,F9,FF,F8,FF,4A,04,57,91,
-1762630422342379,1C00005A,true,Rx,0,8,02,FD,11,00,04,01,28,80,
-1762630422342251,1C00005A,true,Rx,0,8,01,CD,00,A6,F2,10,00,00,
-1762630422342166,1C00005A,true,Rx,0,5,01,00,00,67,03,00,00,00,
-1762630422341611,1C00003A,true,Rx,0,8,02,FD,11,00,0C,01,28,80,
-1762630422341483,1C00003A,true,Rx,0,8,01,F3,00,A7,F2,10,00,00,
-1762630422341355,1C00003A,true,Rx,0,5,01,00,00,24,03,00,00,00,
-1762630422341185,1C000342,true,Rx,0,8,02,FD,11,00,04,01,28,80,
-1762630422341014,1C000342,true,Rx,0,8,01,CD,01,A6,F2,10,00,00,
-1762630422340886,1C000342,true,Rx,0,5,00,00,00,68,03,00,00,00,
-1762630422340332,1C000341,true,Rx,0,8,02,FD,11,00,0C,01,28,80,
-1762630422340204,1C000341,true,Rx,0,8,01,F3,01,A7,F2,10,00,00,
-1762630422340076,1C000341,true,Rx,0,5,00,00,00,2B,03,00,00,00,
-1762630422339734,0401E412,true,Rx,0,7,00,01,06,00,00,00,00,00,
-1762630422339606,0401E412,true,Rx,0,7,01,01,FE,FF,00,00,00,00,
-1762630422339478,0401E452,true,Rx,0,8,01,5C,C9,F5,FF,FF,00,00,
-1762630422339308,0401E452,true,Rx,0,8,00,5C,44,F5,FF,FF,00,00,
-1762630422333590,0405200C,true,Rx,0,2,00,00,00,00,00,00,00,00,
-1762630422330561,0405200B,true,Rx,0,2,00,00,00,00,00,00,00,00,
-1762630422329409,0401E411,true,Rx,0,7,00,01,02,00,00,00,00,00,
-1762630422329281,0401E411,true,Rx,0,7,01,01,02,00,00,00,00,00,
-1762630422329153,0401E451,true,Rx,0,8,01,67,72,FE,FF,FF,00,00,
-1762630422328983,0401E431,true,Rx,0,6,00,00,00,00,00,00,00,00,
-1762630422328897,0401E431,true,Rx,0,6,01,00,00,00,00,00,00,00,
-1762630422328769,0401E451,true,Rx,0,8,00,67,4B,FF,FF,FF,00,00,
-1762630422325697,040A2011,true,Rx,0,8,E6,FF,FA,FF,CE,03,6A,91,
-1762630422325569,04056411,true,Rx,0,8,F8,FF,04,00,06,FD,6A,91,
-1762630422324588,0405240A,true,Rx,0,3,01,00,00,00,00,00,00,00,
-1762630422324161,040A2012,true,Rx,0,8,0E,00,FA,FF,EA,03,6B,91,
-1762630422324033,04056412,true,Rx,0,8,F9,FF,F8,FF,4A,04,6B,91,
-1762630422319895,0401E412,true,Rx,0,7,00,01,02,00,00,00,00,00,
-1762630422319767,0401E412,true,Rx,0,7,01,01,FF,FF,00,00,00,00,
-1762630422319596,0401E452,true,Rx,0,8,01,70,C9,F5,FF,FF,00,00,
-1762630422319468,0401E452,true,Rx,0,8,00,70,44,F5,FF,FF,00,00,
-1762630422316994,0405280C,true,Rx,0,2,00,00,00,00,00,00,00,00,
-1762630422313154,0405280B,true,Rx,0,2,00,00,00,00,00,00,00,00,
-1762630422312173,0405C40F,true,Rx,0,8,00,01,33,40,8B,51,DF,2E,
-1762630422312045,0405C42F,true,Rx,0,8,00,64,73,29,FD,FF,31,00,
-1762630422311917,0405C40F,true,Rx,0,8,01,01,DA,3F,C2,51,CD,1D,
-1762630422311746,0405C42F,true,Rx,0,8,01,64,B9,29,BF,FF,33,00,
-1762630422311661,0405C52F,true,Rx,0,5,00,FD,FF,F9,FF,00,00,00,
-1762630422311533,0405C40F,true,Rx,0,8,02,01,37,41,E8,51,A2,D5,
-1762630422311362,0405C42F,true,Rx,0,8,02,64,7A,28,3D,00,1E,00,
-1762630422311277,0405C52F,true,Rx,0,5,02,DD,FF,21,00,00,00,00,
-1762630422311149,0405C52F,true,Rx,0,5,01,DB,FF,1D,00,00,00,00,
-1762630422310466,0405C410,true,Rx,0,8,00,01,D8,45,D7,87,6B,72,
-1762630422310295,0405C430,true,Rx,0,8,00,64,AE,08,07,00,FF,FE,
-1762630422310167,0405C410,true,Rx,0,8,01,01,9B,4C,48,88,9C,48,
-1762630422310039,0405C430,true,Rx,0,8,01,64,DC,2B,CD,FE,1C,FE,
-1762630422309911,0405C530,true,Rx,0,5,00,9F,00,5A,00,00,00,00,
-1762630422309783,0405C410,true,Rx,0,8,02,01,30,45,FE,88,F2,8A,
-1762630422309655,0405C430,true,Rx,0,8,02,64,74,2D,49,FF,6E,00,
-1762630422309527,0405C530,true,Rx,0,5,02,E2,FF,5C,01,00,00,00,
-1762630422309399,0401E411,true,Rx,0,7,00,01,FF,FF,00,00,00,00,
-1762630422309271,0401E411,true,Rx,0,7,01,01,07,00,00,00,00,00,
-1762630422309101,0401E451,true,Rx,0,8,01,7B,72,FE,FF,FF,00,00,
-1762630422308973,0401E451,true,Rx,0,8,00,7B,4B,FF,FF,FF,00,00,
-1762630422308845,0405C530,true,Rx,0,5,01,07,01,6A,02,00,00,00,
-1762630422307138,0405200D,true,Rx,0,2,00,00,00,00,00,00,00,00,
-1762630422305730,040A2011,true,Rx,0,8,EE,FF,F4,FF,CD,03,7E,91,
-1762630422305645,0405200E,true,Rx,0,2,00,00,00,00,00,00,00,00,
-1762630422305474,04056411,true,Rx,0,8,F8,FF,04,00,06,FD,7E,91,
-1762630422305389,04072001,true,Rx,0,4,00,00,00,01,00,00,00,00,
-1762630422304152,040A2012,true,Rx,0,8,0E,00,F8,FF,E9,03,7F,91,
-1762630422304024,04056412,true,Rx,0,8,F9,FF,F8,FF,4A,04,7F,91,
-1762630422299885,0401E412,true,Rx,0,7,00,01,01,00,00,00,00,00,
-1762630422299757,0401E412,true,Rx,0,7,01,01,FE,FF,00,00,00,00,
-1762630422299586,0401E452,true,Rx,0,8,01,84,C9,F5,FF,FF,00,00,
-1762630422299458,0401E452,true,Rx,0,8,00,84,44,F5,FF,FF,00,00,
-1762630422289389,0401E411,true,Rx,0,7,00,01,00,00,00,00,00,00,
-1762630422289261,0401E411,true,Rx,0,7,01,01,00,00,00,00,00,00,
-1762630422289134,0401E451,true,Rx,0,8,01,8F,72,FE,FF,FF,00,00,
-1762630422289006,0401E451,true,Rx,0,8,00,8F,4B,FF,FF,FF,00,00,
-1762630422285720,040A2011,true,Rx,0,8,E8,FF,FB,FF,D0,03,92,91,
-1762630422285592,04056411,true,Rx,0,8,F8,FF,04,00,06,FD,92,91,
-1762630422284142,040A2012,true,Rx,0,8,11,00,F9,FF,E8,03,93,91,
-1762630422284014,04056412,true,Rx,0,8,F9,FF,F8,FF,4A,04,93,91,
-1762630422279875,0401E412,true,Rx,0,7,00,01,02,00,00,00,00,00,
-1762630422279747,0401E412,true,Rx,0,7,01,01,FF,FF,00,00,00,00,
-1762630422279619,0401E452,true,Rx,0,8,01,98,C9,F5,FF,FF,00,00,
-1762630422279491,0401E432,true,Rx,0,6,00,00,00,00,00,00,00,00,
-1762630422279363,0401E432,true,Rx,0,6,01,00,00,00,00,00,00,00,
-1762630422279235,0401E452,true,Rx,0,8,00,98,44,F5,FF,FF,00,00,
-1762630422275097,04030C82,true,Rx,0,4,01,05,10,00,00,00,00,00,
-1762630422274926,04030CE2,true,Rx,0,8,8D,00,00,00,C2,64,1E,67,
-1762630422274542,0405240A,true,Rx,0,3,06,00,00,00,00,00,00,00,
-1762630422269422,0401E411,true,Rx,0,7,00,01,FF,FF,00,00,00,00,
-1762630422269294,0401E411,true,Rx,0,7,01,01,03,00,00,00,00,00,
-1762630422269166,0401E451,true,Rx,0,8,01,A3,72,FE,FF,FF,00,00,
-1762630422268996,0401E451,true,Rx,0,8,00,A3,4B,FF,FF,FF,00,00,
-1762630422267204,04098C31,true,Rx,0,3,00,00,00,00,00,00,00,00,
-1762630422267118,04098C51,true,Rx,0,3,00,F2,FF,00,00,00,00,00,
-1762630422265326,040A2011,true,Rx,0,8,E9,FF,F6,FF,D3,03,A7,91,
-1762630422265156,04056411,true,Rx,0,8,F8,FF,04,00,06,FD,A6,91,
-1762630422264174,040A2012,true,Rx,0,8,0E,00,F9,FF,E9,03,A7,91,
-1762630422264046,04056412,true,Rx,0,8,F9,FF,F8,FF,4A,04,A7,91,
-1762630422262297,0405C40F,true,Rx,0,8,00,01,20,40,7B,51,DA,2E,
-1762630422262169,0405C42F,true,Rx,0,8,00,64,5E,29,EC,FF,43,00,
-1762630422262084,0405C52F,true,Rx,0,5,00,11,00,04,00,00,00,00,
-1762630422261913,0405C40F,true,Rx,0,8,01,01,E4,3F,E7,51,4E,1D,
-1762630422261785,0405C42F,true,Rx,0,8,01,64,A9,29,96,00,FA,FF,
-1762630422261657,0405C40F,true,Rx,0,8,02,01,37,41,F8,51,84,D5,
-1762630422261529,0405C42F,true,Rx,0,8,02,64,78,28,FF,FF,1C,00,
-1762630422261401,0405C52F,true,Rx,0,5,02,D6,FF,37,00,00,00,00,
-1762630422261273,0405C52F,true,Rx,0,5,01,B1,FF,10,00,00,00,00,
-1762630422260463,0405C410,true,Rx,0,8,00,01,C7,45,9B,87,F6,72,
-1762630422260292,0405C430,true,Rx,0,8,00,64,93,08,7B,00,30,FF,
-1762630422260164,0405C410,true,Rx,0,8,01,01,85,4C,8E,87,C1,48,
-1762630422259993,0405C430,true,Rx,0,8,01,64,E5,2B,03,01,FE,00,
-1762630422259908,0401E412,true,Rx,0,7,00,01,00,00,00,00,00,00,
-1762630422259737,0401E412,true,Rx,0,7,01,01,FE,FF,00,00,00,00,
-1762630422259609,0401E452,true,Rx,0,8,01,AC,C9,F5,FF,FF,00,00,
-1762630422259481,0401E452,true,Rx,0,8,00,AC,44,F5,FF,FF,00,00,
-1762630422259353,0405C410,true,Rx,0,8,02,01,2C,45,73,89,35,8B,
-1762630422259225,0405C530,true,Rx,0,5,00,AA,FF,85,00,00,00,00,
-1762630422259097,0405C430,true,Rx,0,8,02,64,7D,2D,64,FF,10,00,
-1762630422258969,0405C530,true,Rx,0,5,02,21,FF,DD,FF,00,00,00,
-1762630422258841,0405C530,true,Rx,0,5,01,4E,FF,01,FE,00,00,00,
-1762630422255599,04072001,true,Rx,0,4,00,00,00,01,00,00,00,00,
-1762630422254575,0405200C,true,Rx,0,2,00,00,00,00,00,00,00,00,
-1762630422249540,0405200B,true,Rx,0,2,00,00,00,00,00,00,00,00,
-1762630422249412,0401E411,true,Rx,0,7,00,01,02,00,00,00,00,00,
-1762630422249242,0401E411,true,Rx,0,7,01,01,02,00,00,00,00,00,
-1762630422249114,0401E451,true,Rx,0,8,01,B7,72,FE,FF,FF,00,00,
-1762630422248943,0401E451,true,Rx,0,8,00,B7,4B,FF,FF,FF,00,00,
-1762630422245701,040A2011,true,Rx,0,8,E9,FF,F8,FF,D0,03,BA,91,
-1762630422245573,04056411,true,Rx,0,8,F8,FF,04,00,06,FD,BA,91,
-1762630422244165,040A2012,true,Rx,0,8,0F,00,FA,FF,EA,03,BB,91,
-1762630422244037,04056412,true,Rx,0,8,F9,FF,F8,FF,4A,04,BB,91,
-1762630422239898,0401E412,true,Rx,0,7,00,01,00,00,00,00,00,00,
-1762630422239727,0401E412,true,Rx,0,7,01,01,00,00,00,00,00,00,
-1762630422239599,0401E452,true,Rx,0,8,01,C0,C9,F5,FF,FF,00,00,
-1762630422239471,0401E452,true,Rx,0,8,00,C0,44,F5,FF,FF,00,00,
-1762630422229403,0401E411,true,Rx,0,7,00,01,03,00,00,00,00,00,
-1762630422229275,0401E411,true,Rx,0,7,01,01,02,00,00,00,00,00,
-1762630422229147,0401E451,true,Rx,0,8,01,CB,72,FE,FF,FF,00,00,
-1762630422229019,0401E431,true,Rx,0,6,00,00,00,00,00,00,00,00,
-1762630422228891,0401E431,true,Rx,0,6,01,00,00,00,00,00,00,00,
-1762630422228763,0401E451,true,Rx,0,8,00,CB,4B,FF,FF,FF,00,00,
-1762630422228080,0405200D,true,Rx,0,2,00,00,00,00,00,00,00,00,
-1762630422227739,0405200E,true,Rx,0,2,00,00,00,00,00,00,00,00,
-1762630422225691,040A2011,true,Rx,0,8,E9,FF,F5,FF,CD,03,CE,91,
-1762630422225563,04056411,true,Rx,0,8,F8,FF,04,00,06,FD,CE,91,
-1762630422224155,040A2012,true,Rx,0,8,0E,00,F9,FF,ED,03,CF,91,
-1762630422224027,04056412,true,Rx,0,8,F9,FF,F8,FF,4A,04,CF,91,
-1762630422223429,0405240A,true,Rx,0,3,07,00,00,00,00,00,00,00,
-1762630422222021,0405280C,true,Rx,0,2,00,00,00,00,00,00,00,00,
-1762630422219888,0401E412,true,Rx,0,7,00,01,03,00,00,00,00,00,
-1762630422219760,0401E412,true,Rx,0,7,01,01,FE,FF,00,00,00,00,
-1762630422219632,0401E452,true,Rx,0,8,01,D4,C9,F5,FF,FF,00,00,
-1762630422219462,0401E452,true,Rx,0,8,00,D4,44,F5,FF,FF,00,00,
-1762630422212976,0405280B,true,Rx,0,2,00,00,00,00,00,00,00,00,
-1762630422212294,0405C40F,true,Rx,0,8,00,01,2A,40,73,51,BE,2E,
-1762630422212166,0405C42F,true,Rx,0,8,00,64,6D,29,E4,FF,3D,00,
-1762630422212038,0405C40F,true,Rx,0,8,01,01,F2,3F,E2,51,61,1D,
-1762630422211910,0405C42F,true,Rx,0,8,01,64,A2,29,86,00,02,00,
-1762630422211782,0405C52F,true,Rx,0,5,00,1B,00,1B,00,00,00,00,
-1762630422211654,0405C40F,true,Rx,0,8,02,01,42,41,04,52,54,D5,
-1762630422211483,0405C42F,true,Rx,0,8,02,64,AD,28,FB,FF,2A,00,
-1762630422211398,0405C52F,true,Rx,0,5,02,E3,FF,4C,00,00,00,00,
-1762630422211270,0405C52F,true,Rx,0,5,01,58,00,DA,FF,00,00,00,
-1762630422210459,0405C410,true,Rx,0,8,00,01,BA,45,A7,87,05,73,
-1762630422210331,0405C430,true,Rx,0,8,00,64,37,08,5D,FF,C4,00,
-1762630422210203,0405C410,true,Rx,0,8,01,01,6D,4C,6A,87,7F,48,
-1762630422210033,0405C430,true,Rx,0,8,01,64,CE,2B,61,FF,EE,FF,
-1762630422209905,0405C530,true,Rx,0,5,00,13,FF,02,FF,00,00,00,
-1762630422209777,0405C410,true,Rx,0,8,02,01,2E,45,8A,89,5E,8B,
-1762630422209649,0405C430,true,Rx,0,8,02,64,36,2D,20,FF,BB,FF,
-1762630422209521,0405C530,true,Rx,0,5,02,05,FF,88,FF,00,00,00,
-1762630422209393,0401E411,true,Rx,0,7,00,01,FF,FF,00,00,00,00,
-1762630422209265,0401E411,true,Rx,0,7,01,01,02,00,00,00,00,00,
-1762630422209094,0401E451,true,Rx,0,8,01,DF,72,FE,FF,FF,00,00,
-1762630422208966,0401E451,true,Rx,0,8,00,DF,4B,FF,FF,FF,00,00,
-1762630422208881,0405C530,true,Rx,0,5,01,98,FE,F8,FD,00,00,00,
-1762630422205723,040A2011,true,Rx,0,8,EA,FF,F5,FF,D1,03,E2,91,
-1762630422205595,04056411,true,Rx,0,8,F8,FF,04,00,06,FD,E2,91,
-1762630422205467,04072001,true,Rx,0,4,00,00,00,01,00,00,00,00,
-1762630422204145,040A2012,true,Rx,0,8,12,00,FA,FF,EA,03,E3,91,
-1762630422204017,04056412,true,Rx,0,8,F9,FF,F8,FF,4A,04,E3,91,
-1762630422199878,0401E412,true,Rx,0,7,00,01,03,00,00,00,00,00,
-1762630422199750,0401E412,true,Rx,0,7,01,01,00,00,00,00,00,00,
-1762630422199580,0401E452,true,Rx,0,8,01,E8,C9,F5,FF,FF,00,00,
-1762630422199452,0401E452,true,Rx,0,8,00,E8,44,F5,FF,FF,00,00,
-1762630422189425,0401E411,true,Rx,0,7,00,01,02,00,00,00,00,00,
-1762630422189297,0401E411,true,Rx,0,7,01,01,03,00,00,00,00,00,
-1762630422189169,0401E451,true,Rx,0,8,01,F3,72,FE,FF,FF,00,00,
-1762630422188999,0401E451,true,Rx,0,8,00,F3,4B,FF,FF,FF,00,00,
-1762630422186140,04030C82,true,Rx,0,4,01,05,10,00,00,00,00,00,
-1762630422186012,04030CE2,true,Rx,0,8,8D,00,00,00,C2,64,1E,67,
-1762630422185714,040A2011,true,Rx,0,8,F1,FF,F7,FF,CF,03,F6,91,
-1762630422185586,04056411,true,Rx,0,8,F8,FF,04,00,06,FD,F6,91,
-1762630422184178,040A2012,true,Rx,0,8,10,00,FA,FF,EA,03,F7,91,
-1762630422184007,04056412,true,Rx,0,8,F9,FF,F8,FF,4A,04,F7,91,
-1762630422179868,0401E412,true,Rx,0,7,00,01,03,00,00,00,00,00,
-1762630422179740,0401E412,true,Rx,0,7,01,01,FF,FF,00,00,00,00,
-1762630422179612,0401E452,true,Rx,0,8,01,FC,C9,F5,FF,FF,00,00,
-1762630422179484,0401E432,true,Rx,0,6,00,00,00,00,00,00,00,00,
-1762630422179356,0401E432,true,Rx,0,6,01,00,00,00,00,00,00,00,
-1762630422179228,0401E452,true,Rx,0,8,00,FC,44,F5,FF,FF,00,00,
-1762630422174535,0405240A,true,Rx,0,3,08,00,00,00,00,00,00,00,
-1762630422173511,0405200C,true,Rx,0,2,00,00,00,00,00,00,00,00,
-1762630422170354,0405200B,true,Rx,0,2,00,00,00,00,00,00,00,00,
-1762630422169416,0401E411,true,Rx,0,7,00,01,FF,FF,00,00,00,00,
-1762630422169288,0401E411,true,Rx,0,7,01,01,02,00,00,00,00,00,
-1762630422169117,0401E451,true,Rx,0,8,01,07,72,FE,FF,FF,00,00,
-1762630422168989,0401E451,true,Rx,0,8,00,07,4B,FF,FF,FF,00,00,
-1762630422167197,04098C31,true,Rx,0,3,00,00,00,00,00,00,00,00,
-1762630422167112,04098C51,true,Rx,0,3,00,F4,FF,00,00,00,00,00,
-1762630422165277,040A2011,true,Rx,0,8,E7,FF,FB,FF,D2,03,0B,92,
-1762630422165149,04056411,true,Rx,0,8,F8,FF,04,00,06,FD,0A,92,
-1762630422165064,04057002,true,Rx,0,4,A2,E5,15,69,00,00,00,00,
-1762630422164168,040A2012,true,Rx,0,8,0B,00,FA,FF,E8,03,0B,92,
-1762630422163997,04056412,true,Rx,0,8,F9,FF,F8,FF,4A,04,0B,92,
-1762630422162290,0405C40F,true,Rx,0,8,00,01,42,40,6D,51,84,2E,
-1762630422162162,0405C42F,true,Rx,0,8,00,64,8A,29,04,00,35,00,
-1762630422162034,0405C40F,true,Rx,0,8,01,01,EC,3F,B5,51,86,1D,
-1762630422161864,0405C42F,true,Rx,0,8,01,64,C5,29,58,00,02,00,
-1762630422161778,0405C52F,true,Rx,0,5,00,17,00,29,00,00,00,00,
-1762630422161650,0405C40F,true,Rx,0,8,02,01,38,41,06,52,44,D5,
-1762630422161480,0405C42F,true,Rx,0,8,02,64,91,28,1D,00,32,00,
-1762630422161394,0405C52F,true,Rx,0,5,02,00,00,3A,00,00,00,00,
-1762630422161266,0405C52F,true,Rx,0,5,01,01,00,05,00,00,00,00,
-1762630422160456,0405C410,true,Rx,0,8,00,01,E4,45,6B,87,AF,72,
-1762630422160328,0405C430,true,Rx,0,8,00,64,80,08,FA,FD,19,FF,
-1762630422160157,0405C410,true,Rx,0,8,01,01,62,4C,99,87,6F,48,
-1762630422160029,0405C430,true,Rx,0,8,01,64,B8,2B,F9,FD,31,01,
-1762630422159944,0405C530,true,Rx,0,5,00,83,00,D7,FE,00,00,00,
-1762630422159773,0401E412,true,Rx,0,7,00,01,04,00,00,00,00,00,
-1762630422159645,0401E412,true,Rx,0,7,01,01,FD,FF,00,00,00,00,
-1762630422159517,0401E452,true,Rx,0,8,01,10,C9,F5,FF,FF,00,00,
-1762630422159389,0401E452,true,Rx,0,8,00,10,44,F5,FF,FF,00,00,
-1762630422159219,0405C410,true,Rx,0,8,02,01,27,45,91,89,64,8B,
-1762630422159091,0405C430,true,Rx,0,8,02,64,25,2D,45,FF,9F,FF,
-1762630422158963,0405C530,true,Rx,0,5,02,FC,FF,07,00,00,00,00,
-1762630422158877,0405C530,true,Rx,0,5,01,79,00,AB,FE,00,00,00,
-1762630422155635,04072001,true,Rx,0,4,00,00,00,01,00,00,00,00,
-1762630422149747,0405200E,true,Rx,0,2,00,00,00,00,00,00,00,00,
-1762630422149406,0401E411,true,Rx,0,7,00,01,FF,FF,00,00,00,00,
-1762630422149278,0401E411,true,Rx,0,7,01,01,01,00,00,00,00,00,
-1762630422149150,0401E451,true,Rx,0,8,01,1B,72,FE,FF,FF,00,00,
-1762630422149022,0401E451,true,Rx,0,8,00,1B,4B,FF,FF,FF,00,00,
-1762630422147059,0405200D,true,Rx,0,2,00,00,00,00,00,00,00,00,
-1762630422145694,040A2011,true,Rx,0,8,EA,FF,F4,FF,D2,03,1E,92,
-1762630422145566,04056411,true,Rx,0,8,F8,FF,04,00,06,FD,1E,92,
-1762630422144158,040A2012,true,Rx,0,8,12,00,FC,FF,EE,03,1F,92,
-1762630422144030,04056412,true,Rx,0,8,F9,FF,F8,FF,4A,04,1F,92,
-1762630422139891,0401E412,true,Rx,0,7,00,01,02,00,00,00,00,00,
-1762630422139763,0401E412,true,Rx,0,7,01,01,00,00,00,00,00,00,
-1762630422139593,0401E452,true,Rx,0,8,01,24,C9,F5,FF,FF,00,00,
-1762630422139465,0401E452,true,Rx,0,8,00,24,44,F5,FF,FF,00,00,
-1762630422129438,0401E411,true,Rx,0,7,00,01,FD,FF,00,00,00,00,
-1762630422129310,0401E411,true,Rx,0,7,01,01,02,00,00,00,00,00,
-1762630422129140,0401E451,true,Rx,0,8,01,2F,72,FE,FF,FF,00,00,
-1762630422129012,0401E431,true,Rx,0,6,00,00,00,00,00,00,00,00,
-1762630422128884,0401E431,true,Rx,0,6,01,00,00,00,00,00,00,00,
-1762630422128756,0401E451,true,Rx,0,8,00,2F,4B,FF,FF,FF,00,00,
-1762630422125727,040A2011,true,Rx,0,8,EB,FF,F6,FF,CE,03,32,92,
-1762630422125599,04056411,true,Rx,0,8,F8,FF,04,00,06,FD,32,92,
-1762630422124959,0405280C,true,Rx,0,2,00,00,00,00,00,00,00,00,
-1762630422124575,0405240A,true,Rx,0,3,04,00,00,00,00,00,00,00,
-1762630422124148,040A2012,true,Rx,0,8,0F,00,F9,FF,E9,03,33,92,
-1762630422124020,04056412,true,Rx,0,8,F9,FF,F8,FF,4A,04,33,92,
-1762630422119881,0401E412,true,Rx,0,7,00,01,FF,FF,00,00,00,00,
-1762630422119753,0401E412,true,Rx,0,7,01,01,02,00,00,00,00,00,
-1762630422119583,0401E452,true,Rx,0,8,01,38,C9,F5,FF,FF,00,00,
-1762630422119455,0401E452,true,Rx,0,8,00,38,44,F5,FF,FF,00,00,
-1762630422118004,0405280B,true,Rx,0,2,00,00,00,00,00,00,00,00,
-1762630422112287,0405C40F,true,Rx,0,8,00,01,46,40,73,51,84,2E,
-1762630422112159,0405C42F,true,Rx,0,8,00,64,98,29,17,00,49,00,
-1762630422112031,0405C40F,true,Rx,0,8,01,01,EE,3F,F3,51,4D,1D,
-1762630422111903,0405C42F,true,Rx,0,8,01,64,01,2A,81,00,43,00,
-1762630422111775,0405C52F,true,Rx,0,5,00,15,00,21,00,00,00,00,
-1762630422111604,0405C40F,true,Rx,0,8,02,01,39,41,F7,51,5D,D5,
-1762630422111519,0405C42F,true,Rx,0,8,02,64,7A,28,5C,00,29,00,
-1762630422111391,0405C52F,true,Rx,0,5,02,24,00,F9,FF,00,00,00,
-1762630422111263,0405C52F,true,Rx,0,5,01,1C,00,C7,FF,00,00,00,
-1762630422110367,0405C410,true,Rx,0,8,00,01,D4,45,6C,87,BB,72,
-1762630422110239,0405C430,true,Rx,0,8,00,64,93,08,4B,FD,33,00,
-1762630422110111,0405C530,true,Rx,0,5,00,1F,01,74,FF,00,00,00,
-1762630422109983,0405C410,true,Rx,0,8,01,01,67,4C,BF,87,55,48,
-1762630422109855,0405C430,true,Rx,0,8,01,64,9F,2B,34,01,E4,01,
-1762630422109685,0405C410,true,Rx,0,8,02,01,27,45,83,89,40,8B,
-1762630422109557,0405C430,true,Rx,0,8,02,64,13,2D,32,FF,16,00,
-1762630422109471,0405C530,true,Rx,0,5,02,F7,FF,7D,00,00,00,00,
-1762630422109301,0401E411,true,Rx,0,7,00,01,00,00,00,00,00,00,
-1762630422109173,0401E411,true,Rx,0,7,01,01,03,00,00,00,00,00,
-1762630422109045,0401E451,true,Rx,0,8,01,43,72,FE,FF,FF,00,00,
-1762630422108917,0401E451,true,Rx,0,8,00,43,4B,FF,FF,FF,00,00,
-1762630422108789,0405C530,true,Rx,0,5,01,1B,01,3B,00,00,00,00,
-1762630422105717,040A2011,true,Rx,0,8,EC,FF,F4,FF,D1,03,46,92,
-1762630422105589,04056411,true,Rx,0,8,F8,FF,04,00,06,FD,46,92,
-1762630422105461,04072001,true,Rx,0,4,00,00,00,01,00,00,00,00,
-1762630422104138,040A2012,true,Rx,0,8,0E,00,FA,FF,EC,03,47,92,
-1762630422104010,04056412,true,Rx,0,8,F9,FF,F8,FF,4A,04,47,92,
-1762630422099914,0401E412,true,Rx,0,7,00,01,05,00,00,00,00,00,
-1762630422099744,0401E412,true,Rx,0,7,01,01,01,00,00,00,00,00,
-1762630422099616,0401E452,true,Rx,0,8,01,4C,C9,F5,FF,FF,00,00,
-1762630422099488,0401E452,true,Rx,0,8,00,4C,44,F5,FF,FF,00,00,
-1762630422097098,04030C82,true,Rx,0,4,01,05,10,00,00,00,00,00,
-1762630422096928,04030CE2,true,Rx,0,8,8D,00,00,00,C2,64,1E,67,
-1762630422094325,0405200C,true,Rx,0,2,00,00,00,00,00,00,00,00,
-1762630422092363,0405200B,true,Rx,0,2,00,00,00,00,00,00,00,00,
-1762630422089419,0401E411,true,Rx,0,7,00,01,FE,FF,00,00,00,00,
-1762630422089291,0401E411,true,Rx,0,7,01,01,00,00,00,00,00,00,
-1762630422089120,0401E451,true,Rx,0,8,01,57,72,FE,FF,FF,00,00,
-1762630422088992,0401E451,true,Rx,0,8,00,57,4B,FF,FF,FF,00,00,
-1762630422085707,040A2011,true,Rx,0,8,EE,FF,F9,FF,CF,03,5A,92,
-1762630422085579,04056411,true,Rx,0,8,F8,FF,04,00,06,FD,5A,92,
-1762630422084128,040A2012,true,Rx,0,8,0B,00,FA,FF,EC,03,5B,92,
-1762630422084000,04056412,true,Rx,0,8,F9,FF,F8,FF,4A,04,5B,92,
-1762630422079862,0401E412,true,Rx,0,7,00,01,01,00,00,00,00,00,
-1762630422079734,0401E412,true,Rx,0,7,01,01,FC,FF,00,00,00,00,
-1762630422079606,0401E452,true,Rx,0,8,01,60,C9,F5,FF,FF,00,00,
-1762630422079435,0401E432,true,Rx,0,6,00,00,00,00,00,00,00,00,
-1762630422079350,0401E432,true,Rx,0,6,01,00,00,00,00,00,00,00,
-1762630422079179,0401E452,true,Rx,0,8,00,60,44,F5,FF,FF,00,00,
-1762630422073291,0405240A,true,Rx,0,3,03,00,00,00,00,00,00,00,
-1762630422070945,0405200E,true,Rx,0,2,00,00,00,00,00,00,00,00,
-1762630422069409,0401E411,true,Rx,0,7,00,01,01,00,00,00,00,00,
-1762630422069281,0401E411,true,Rx,0,7,01,01,00,00,00,00,00,00,
-1762630422069153,0401E451,true,Rx,0,8,01,6B,72,FE,FF,FF,00,00,
-1762630422069025,0401E451,true,Rx,0,8,00,6B,4B,FF,FF,FF,00,00,
-1762630422068939,0405200D,true,Rx,0,2,00,00,00,00,00,00,00,00,
-1762630422067190,04098C31,true,Rx,0,3,00,00,00,00,00,00,00,00,
-1762630422067105,04098C51,true,Rx,0,3,00,EF,FF,00,00,00,00,00,
-1762630422065313,040A2011,true,Rx,0,8,EF,FF,F7,FF,CC,03,6F,92,
-1762630422065142,04056411,true,Rx,0,8,F8,FF,04,00,06,FD,6E,92,
-1762630422064161,040A2012,true,Rx,0,8,0E,00,F7,FF,EF,03,6F,92,
-1762630422064033,04056412,true,Rx,0,8,F9,FF,F8,FF,4A,04,6F,92,
-1762630422062156,0405C40F,true,Rx,0,8,00,01,3A,40,78,51,A4,2E,
-1762630422062028,0405C42F,true,Rx,0,8,00,64,B3,29,1B,00,58,00,
-1762630422061900,0405C40F,true,Rx,0,8,01,01,F4,3F,F5,51,F5,1C,
-1762630422061729,0405C42F,true,Rx,0,8,01,64,E1,29,EE,FF,E0,FF,
-1762630422061644,0405C52F,true,Rx,0,5,00,F5,FF,20,00,00,00,00,
-1762630422061473,0405C40F,true,Rx,0,8,02,01,40,41,0A,52,39,D5,
-1762630422061345,0405C42F,true,Rx,0,8,02,64,78,28,45,00,25,00,
-1762630422061260,0405C52F,true,Rx,0,5,02,2F,00,F5,FF,00,00,00,
-1762630422061132,0405C52F,true,Rx,0,5,01,EA,FF,75,FF,00,00,00,
-1762630422060449,0405C410,true,Rx,0,8,00,01,CD,45,71,87,DD,72,
-1762630422060321,0405C430,true,Rx,0,8,00,64,2C,08,02,FE,56,02,
-1762630422060193,0405C410,true,Rx,0,8,01,01,62,4C,CF,87,F7,47,
-1762630422060065,0405C430,true,Rx,0,8,01,64,93,2B,45,FF,25,01,
-1762630422059937,0405C530,true,Rx,0,5,00,CA,00,87,FF,00,00,00,
-1762630422059809,0401E412,true,Rx,0,7,00,01,05,00,00,00,00,00,
-1762630422059681,0401E412,true,Rx,0,7,01,01,00,00,00,00,00,00,
-1762630422059510,0401E452,true,Rx,0,8,01,74,C9,F5,FF,FF,00,00,
-1762630422059382,0401E452,true,Rx,0,8,00,74,44,F5,FF,FF,00,00,
-1762630422059254,0405C410,true,Rx,0,8,02,01,31,45,71,89,04,8B,
-1762630422059084,0405C430,true,Rx,0,8,02,64,1F,2D,09,FF,2D,01,
-1762630422058998,0405C530,true,Rx,0,5,02,91,FF,A1,00,00,00,00,
-1762630422058870,0405C530,true,Rx,0,5,01,E8,FF,51,02,00,00,00,
-1762630422055628,04072001,true,Rx,0,4,00,00,00,01,00,00,00,00,
-1762630422049399,0401E411,true,Rx,0,7,00,01,03,00,00,00,00,00,
-1762630422049271,0401E411,true,Rx,0,7,01,01,03,00,00,00,00,00,
-1762630422049143,0401E451,true,Rx,0,8,01,7F,72,FE,FF,FF,00,00,
-1762630422049015,0401E451,true,Rx,0,8,00,7F,4B,FF,FF,FF,00,00,
-1762630422045687,040A2011,true,Rx,0,8,EA,FF,F7,FF,CE,03,82,92,
-1762630422045559,04056411,true,Rx,0,8,F8,FF,04,00,06,FD,82,92,
-1762630422044151,040A2012,true,Rx,0,8,0F,00,F9,FF,E8,03,83,92,
-1762630422044023,04056412,true,Rx,0,8,F9,FF,F8,FF,4A,04,83,92,
-1762630422039885,0401E412,true,Rx,0,7,00,01,FF,FF,00,00,00,00,
-1762630422039757,0401E412,true,Rx,0,7,01,01,FF,FF,00,00,00,00,
-1762630422039586,0401E452,true,Rx,0,8,01,88,C9,F5,FF,FF,00,00,
-1762630422039458,0401E452,true,Rx,0,8,00,88,44,F5,FF,FF,00,00,
-1762630422029432,0401E411,true,Rx,0,7,00,01,FE,FF,00,00,00,00,
-1762630422029261,0401E411,true,Rx,0,7,01,01,02,00,00,00,00,00,
-1762630422029133,0401E451,true,Rx,0,8,01,93,72,FE,FF,FF,00,00,
-1762630422029005,0401E431,true,Rx,0,6,00,00,00,00,00,00,00,00,
-1762630422028877,0401E431,true,Rx,0,6,01,00,00,00,00,00,00,00,
-1762630422028749,0401E451,true,Rx,0,8,00,93,4B,FF,FF,FF,00,00,
-1762630422028152,0405280C,true,Rx,0,2,00,00,00,00,00,00,00,00,
-1762630422025720,040A2011,true,Rx,0,8,E9,FF,F8,FF,CE,03,96,92,
-1762630422025592,04056411,true,Rx,0,8,F8,FF,04,00,06,FD,96,92,
-1762630422024568,0405240A,true,Rx,0,3,02,00,00,00,00,00,00,00,
-1762630422024141,040A2012,true,Rx,0,8,0D,00,FA,FF,EB,03,97,92,
-1762630422024013,04056412,true,Rx,0,8,F9,FF,F8,FF,4A,04,97,92,
-1762630422020941,0405280B,true,Rx,0,2,00,00,00,00,00,00,00,00,
-1762630422019917,0401E412,true,Rx,0,7,00,01,03,00,00,00,00,00,
-1762630422019747,0401E412,true,Rx,0,7,01,01,01,00,00,00,00,00,
-1762630422019619,0401E452,true,Rx,0,8,01,9C,C9,F5,FF,FF,00,00,
-1762630422019491,0401E452,true,Rx,0,8,00,9C,44,F5,FF,FF,00,00,
-1762630422017443,0405200C,true,Rx,0,2,00,00,00,00,00,00,00,00,
-1762630422014584,0405200B,true,Rx,0,2,00,00,00,00,00,00,00,00,
-1762630422012707,04048421,true,Rx,0,0,00,00,00,00,00,00,00,00,
-1762630422012280,0405C40F,true,Rx,0,8,00,01,36,40,63,51,89,2E,
-1762630422012152,0405C42F,true,Rx,0,8,00,64,B3,29,1B,00,47,00,
-1762630422012024,0405C52F,true,Rx,0,5,00,F0,FF,25,00,00,00,00,
-1762630422011896,0405C40F,true,Rx,0,8,01,01,DE,3F,ED,51,88,1C,
-1762630422011768,0405C42F,true,Rx,0,8,01,64,DB,29,11,00,80,00,
-1762630422011598,0405C40F,true,Rx,0,8,02,01,34,41,F9,51,47,D5,
-1762630422011470,0405C42F,true,Rx,0,8,02,64,77,28,10,00,48,00,
-1762630422011342,0405C52F,true,Rx,0,5,01,37,00,2C,01,00,00,00,
-1762630422011256,0405C52F,true,Rx,0,5,02,34,00,05,00,00,00,00,
-1762630422010446,0405C410,true,Rx,0,8,00,01,BB,45,1A,87,4F,72,
-1762630422010318,0405C430,true,Rx,0,8,00,64,92,07,B7,00,31,FF,
-1762630422010190,0405C410,true,Rx,0,8,01,01,6E,4C,18,88,42,47,
-1762630422010062,0405C430,true,Rx,0,8,01,64,91,2B,69,02,65,FE,
-1762630422009934,0405C530,true,Rx,0,5,00,CB,FF,FF,00,00,00,00,
-1762630422009806,0405C410,true,Rx,0,8,02,01,44,45,02,89,08,8B,
-1762630422009635,0405C430,true,Rx,0,8,02,64,21,2D,92,00,94,01,
-1762630422009507,0405C530,true,Rx,0,5,02,2E,FF,99,00,00,00,00,
-1762630422009422,0401E411,true,Rx,0,7,00,01,01,00,00,00,00,00,
-1762630422009294,0401E411,true,Rx,0,7,01,01,01,00,00,00,00,00,
-1762630422009123,0401E451,true,Rx,0,8,01,A7,72,FE,FF,FF,00,00,
-1762630422008995,0401E451,true,Rx,0,8,00,A7,4B,FF,FF,FF,00,00,
-1762630422008867,0405C530,true,Rx,0,5,01,6B,FF,F5,02,00,00,00,
-1762630422008184,04030C82,true,Rx,0,4,01,05,10,00,00,00,00,00,
-1762630422008014,04030CE2,true,Rx,0,8,8D,00,00,00,C2,64,1E,67,
-1762630422005710,040A2011,true,Rx,0,8,E7,FF,FB,FF,D4,03,AA,92,
-1762630422005582,04056411,true,Rx,0,8,F8,FF,04,00,06,FD,AA,92,
-1762630422005454,04072001,true,Rx,0,4,00,00,00,01,00,00,00,00,
-1762630422004131,040A2012,true,Rx,0,8,10,00,FA,FF,ED,03,AB,92,
-1762630422004003,04056412,true,Rx,0,8,F9,FF,F8,FF,4A,04,AB,92,
-1762630421999907,0401E412,true,Rx,0,7,00,01,03,00,00,00,00,00,
-1762630421999779,0401E412,true,Rx,0,7,01,01,FF,FF,00,00,00,00,
-1762630421999609,0401E452,true,Rx,0,8,01,B0,C9,F5,FF,FF,00,00,
-1762630421999481,0401E452,true,Rx,0,8,00,B0,44,F5,FF,FF,00,00,
-1762630421991929,0405200E,true,Rx,0,2,00,00,00,00,00,00,00,00,
-1762630421991033,0405200D,true,Rx,0,2,00,00,00,00,00,00,00,00,
-1762630421989412,0401E411,true,Rx,0,7,00,01,00,00,00,00,00,00,
-1762630421989284,0401E411,true,Rx,0,7,01,01,02,00,00,00,00,00,
-1762630421989156,0401E451,true,Rx,0,8,01,BB,72,FE,FF,FF,00,00,
-1762630421988985,0401E451,true,Rx,0,8,00,BB,4B,FF,FF,FF,00,00,
-1762630421985700,040A2011,true,Rx,0,8,EB,FF,F8,FF,D2,03,BE,92,
-1762630421985572,04056411,true,Rx,0,8,F8,FF,04,00,06,FD,BE,92,
-1762630421984164,040A2012,true,Rx,0,8,0B,00,FA,FF,EA,03,BF,92,
-1762630421984036,04056412,true,Rx,0,8,F9,FF,F8,FF,4A,04,BF,92,
-1762630421979898,0401E412,true,Rx,0,7,00,01,02,00,00,00,00,00,
-1762630421979727,0401E412,true,Rx,0,7,01,01,FD,FF,00,00,00,00,
-1762630421979599,0401E452,true,Rx,0,8,01,C4,C9,F5,FF,FF,00,00,
-1762630421979471,0401E432,true,Rx,0,6,00,00,00,00,00,00,00,00,
-1762630421979343,0401E432,true,Rx,0,6,01,00,00,00,00,00,00,00,
-1762630421979215,0401E452,true,Rx,0,8,00,C4,44,F5,FF,FF,00,00,
-1762630421974564,0405240A,true,Rx,0,3,04,00,00,00,00,00,00,00,
-1762630421969402,0401E411,true,Rx,0,7,00,01,03,00,00,00,00,00,
-1762630421969274,0401E411,true,Rx,0,7,01,01,01,00,00,00,00,00,
-1762630421969146,0401E451,true,Rx,0,8,01,CF,72,FE,FF,FF,00,00,
-1762630421969018,0401E451,true,Rx,0,8,00,CF,4B,FF,FF,FF,00,00,
-1762630421967183,04098C31,true,Rx,0,3,00,00,00,00,00,00,00,00,
-1762630421967098,04098C51,true,Rx,0,3,00,F4,FF,00,00,00,00,00,
-1762630421964935,040A2011,true,Rx,0,8,E8,FF,F7,FF,D3,03,D3,92,
-1762630421964807,04056411,true,Rx,0,8,F8,FF,04,00,06,FD,D3,92,
-1762630421964167,040A2012,true,Rx,0,8,0C,00,F9,FF,E9,03,D3,92,
-1762630421964039,04056412,true,Rx,0,8,F9,FF,F8,FF,4A,04,D3,92,
-1762630421962333,0405C40F,true,Rx,0,8,00,01,34,40,7E,51,7C,2E,
-1762630421962162,0405C42F,true,Rx,0,8,00,64,B3,29,17,00,3B,00,
-1762630421962034,0405C40F,true,Rx,0,8,01,01,F5,3F,1F,52,AA,1C,
-1762630421961906,0405C42F,true,Rx,0,8,01,64,C5,29,CC,FF,83,00,
-1762630421961778,0405C52F,true,Rx,0,5,00,DB,FF,15,00,00,00,00,
-1762630421961650,0405C40F,true,Rx,0,8,02,01,45,41,DC,51,41,D5,
-1762630421961522,0405C42F,true,Rx,0,8,02,64,88,28,E9,FF,4F,00,
-1762630421961394,0405C52F,true,Rx,0,5,02,8C,00,61,00,00,00,00,
-1762630421961309,0405C52F,true,Rx,0,5,01,94,00,92,00,00,00,00,
-1762630421960455,0405C410,true,Rx,0,8,00,01,BD,45,5B,87,68,72,
-1762630421960285,0405C430,true,Rx,0,8,00,64,7D,07,D3,02,C6,FF,
-1762630421960157,0405C410,true,Rx,0,8,01,01,77,4C,A9,88,B7,47,
-1762630421960029,0405C430,true,Rx,0,8,01,64,6E,2B,CE,04,A1,01,
-1762630421959901,0401E412,true,Rx,0,7,00,01,03,00,00,00,00,00,
-1762630421959773,0401E412,true,Rx,0,7,01,01,01,00,00,00,00,00,
-1762630421959602,0401E452,true,Rx,0,8,01,D8,C9,F5,FF,FF,00,00,
-1762630421959474,0401E452,true,Rx,0,8,00,D8,44,F5,FF,FF,00,00,
-1762630421959346,0405C410,true,Rx,0,8,02,01,46,45,01,89,50,8B,
-1762630421959218,0405C530,true,Rx,0,5,00,61,00,91,FF,00,00,00,
-1762630421959090,0405C430,true,Rx,0,8,02,64,46,2D,2C,01,03,01,
-1762630421958962,0405C530,true,Rx,0,5,02,6F,FF,D5,FF,00,00,00,
-1762630421958834,0405C530,true,Rx,0,5,01,DD,FE,2F,00,00,00,00,
-1762630421955677,04072001,true,Rx,0,4,00,00,00,01,00,00,00,00,
-1762630421951325,1C0000D5,true,Rx,0,8,02,FD,09,00,00,0F,2B,80,
-1762630421951240,1C0000D5,true,Rx,0,5,00,77,16,40,03,00,00,00,
-1762630421949448,0401E411,true,Rx,0,7,00,01,02,00,00,00,00,00,
-1762630421949320,0401E411,true,Rx,0,7,01,01,03,00,00,00,00,00,
-1762630421949149,0401E451,true,Rx,0,8,01,E3,72,FE,FF,FF,00,00,
-1762630421949021,0401E451,true,Rx,0,8,00,E3,4B,FF,FF,FF,00,00,
-1762630421948893,1C0002A6,true,Rx,0,8,02,FD,09,00,00,0F,2B,80,
-1762630421948765,1C0002A6,true,Rx,0,5,00,77,17,1E,03,00,00,00,
-1762630421946077,040A2011,true,Rx,0,8,EB,FF,F6,FF,D0,03,E6,92,
-1762630421945949,04056411,true,Rx,0,8,F8,FF,04,00,06,FD,E6,92,
-1762630421944157,040A2012,true,Rx,0,8,0F,00,FC,FF,EB,03,E7,92,
-1762630421944029,04056412,true,Rx,0,8,F9,FF,F8,FF,4A,04,E7,92,
