Time Stamp,ID,Extended,Dir,Bus,LEN,D1,D2,D3,D4,D5,D6,D7,D8
-1762629373416839,040A2012,true,Rx,0,8,28,00,2A,FF,A0,05,5A,84,
-1762629373416711,0405200D,true,Rx,0,2,00,00,00,00,00,00,00,00,
-1762629373416626,0405200E,true,Rx,0,2,00,00,00,00,00,00,00,00,
-1762629373416498,04056412,true,Rx,0,8,F8,FF,14,00,AC,00,5A,84,
-1762629373416370,0401E412,true,Rx,0,7,00,05,14,00,D2,FE,01,00,
-1762629373416242,0401E412,true,Rx,0,7,01,05,04,00,EA,FE,01,00,
-1762629373416114,0401E452,true,Rx,0,8,01,5B,DF,01,00,00,2E,FA,
-1762629373415943,0401E452,true,Rx,0,8,00,5B,ED,FF,FF,FF,B8,F8,
-1762629373415218,040A2011,true,Rx,0,8,8F,FF,0B,00,68,03,5D,84,
-1762629373415047,04056411,true,Rx,0,8,FE,FF,18,00,8F,FD,5D,84,
-1762629373410909,0401E411,true,Rx,0,7,00,05,F1,00,C6,FE,01,00,
-1762629373410781,0401E411,true,Rx,0,7,01,05,05,00,C5,FE,01,00,
-1762629373410653,0401E451,true,Rx,0,8,01,62,91,00,00,00,7D,FA,
-1762629373410525,0401E451,true,Rx,0,8,00,62,99,01,00,00,D3,F8,
-1762629373405192,0401E481,true,Rx,0,4,11,01,D7,FE,00,00,00,00,
-1762629373405064,0401E481,true,Rx,0,4,11,00,D2,FE,00,00,00,00,
-1762629373404978,0401E481,true,Rx,0,4,12,00,82,FE,00,00,00,00,
-1762629373404850,0401E481,true,Rx,0,4,12,01,26,FF,00,00,00,00,
-1762629373402888,0405240A,true,Rx,0,3,07,00,00,00,00,00,00,00,
-1762629373396829,040A2012,true,Rx,0,8,D1,FF,58,00,FE,02,6E,84,
-1762629373396659,04056412,true,Rx,0,8,F9,FF,12,00,AB,00,6E,84,
-1762629373396445,0401E412,true,Rx,0,7,00,05,21,00,C2,FE,01,00,
-1762629373396317,0401E412,true,Rx,0,7,01,05,F9,FF,E0,FE,01,00,
-1762629373396189,0401E452,true,Rx,0,8,01,6F,DB,01,00,00,62,FA,
-1762629373396061,0401E432,true,Rx,0,6,00,00,00,00,00,00,00,00,
-1762629373395933,0401E432,true,Rx,0,6,01,00,00,00,00,00,00,00,
-1762629373395805,0401E452,true,Rx,0,8,00,6F,E9,FF,FF,FF,88,F8,
-1762629373395165,040A2011,true,Rx,0,8,22,00,C5,FF,52,04,71,84,
-1762629373395037,04056411,true,Rx,0,8,FF,FF,18,00,8F,FD,71,84,
-1762629373394952,04072001,true,Rx,0,4,01,01,01,01,00,00,00,00,
-1762629373391880,0405C40F,true,Rx,0,8,00,01,2A,43,38,1A,DC,F6,
-1762629373391710,0405C42F,true,Rx,0,8,00,64,B7,E0,FD,FF,CA,00,
-1762629373391582,0405C40F,true,Rx,0,8,01,01,E3,43,ED,1A,AA,F6,
-1762629373391411,0405C42F,true,Rx,0,8,01,64,BE,E0,2B,FF,AC,00,
-1762629373391326,0405C52F,true,Rx,0,5,00,71,00,69,00,00,00,00,
-1762629373391198,0405C40F,true,Rx,0,8,02,01,FB,44,5E,1B,A8,F5,
-1762629373391070,0405C42F,true,Rx,0,8,02,64,D2,E0,C8,FF,8C,00,
-1762629373390942,0405C52F,true,Rx,0,5,02,8E,00,3B,00,00,00,00,
-1762629373390814,0401E411,true,Rx,0,7,00,05,D4,00,C6,FE,01,00,
-1762629373390686,0401E411,true,Rx,0,7,01,05,FC,FF,B5,FE,01,00,
-1762629373390558,0401E451,true,Rx,0,8,01,76,8E,00,00,00,96,FA,
-1762629373390430,0401E431,true,Rx,0,6,00,00,00,00,00,00,00,00,
-1762629373390259,0401E431,true,Rx,0,6,01,00,00,00,00,00,00,00,
-1762629373390131,0401E451,true,Rx,0,8,00,76,96,01,00,00,DC,F8,
-1762629373390003,0405C410,true,Rx,0,8,00,01,FD,35,6B,21,B3,0B,
-1762629373389875,0405C430,true,Rx,0,8,00,64,3B,25,0E,FF,F1,01,
-1762629373389704,0405C410,true,Rx,0,8,01,01,73,36,C8,1F,A6,0B,
-1762629373389619,0405C430,true,Rx,0,8,01,64,66,24,15,02,0E,FD,
-1762629373389491,0405C52F,true,Rx,0,5,01,AB,FF,2C,FF,00,00,00,
-1762629373389363,0405C410,true,Rx,0,8,02,01,AE,36,DD,1E,BE,0A,
-1762629373389235,0405C530,true,Rx,0,5,01,77,00,2E,FE,00,00,00,
-1762629373389107,0405C430,true,Rx,0,8,02,64,0A,25,63,01,20,00,
-1762629373388979,0405C530,true,Rx,0,5,02,5B,FE,19,01,00,00,00,
-1762629373388851,0405C530,true,Rx,0,5,00,FF,FE,51,00,00,00,00,
-1762629373386632,04098C31,true,Rx,0,3,00,87,09,00,00,00,00,00,
-1762629373386547,04098C51,true,Rx,0,3,00,A3,01,00,00,00,00,00,
-1762629373385011,0401E481,true,Rx,0,4,11,01,D6,FE,00,00,00,00,
-1762629373384926,0401E481,true,Rx,0,4,11,00,D2,FE,00,00,00,00,
-1762629373384798,0401E481,true,Rx,0,4,12,00,76,FE,00,00,00,00,
-1762629373384713,0401E481,true,Rx,0,4,12,01,32,FF,00,00,00,00,
-1762629373383561,0405280C,true,Rx,0,2,00,00,00,00,00,00,00,00,
-1762629373382195,0405280B,true,Rx,0,2,00,00,00,00,00,00,00,00,
-1762629373381129,1C0003FA,true,Rx,0,8,02,FD,1F,00,00,00,00,00,
-1762629373381001,1C0003FA,true,Rx,0,8,00,E2,14,02,01,28,80,33,
-1762629373380873,1C0003FA,true,Rx,0,8,00,00,00,57,69,66,69,42,
-1762629373380745,1C0003FA,true,Rx,0,8,6C,65,44,6F,6E,67,6C,65,
-1762629373380617,1C0003FA,true,Rx,0,3,00,3C,03,00,00,00,00,00,
-1762630423131820,040A2012,true,Rx,0,8,82,00,62,00,63,04,82,84,
-1762630423131692,04056412,true,Rx,0,8,F9,FF,11,00,AA,00,82,84,
-1762630423131478,0401E412,true,Rx,0,7,00,05,28,00,BE,FE,01,00,
-1762630423131350,0401E412,true,Rx,0,7,01,05,FE,FF,DA,FE,01,00,
-1762630423131222,0401E452,true,Rx,0,8,01,83,D8,01,00,00,A4,FA,
-1762630423131094,0401E452,true,Rx,0,8,00,83,E6,FF,FF,FF,52,F8,
-1762630423130198,040A2011,true,Rx,0,8,38,00,C8,FF,25,04,85,84,
-1762630423130070,04056411,true,Rx,0,8,FE,FF,19,00,8F,FD,85,84,
-1762630423125932,0401E411,true,Rx,0,7,00,05,BC,00,C1,FE,01,00,
-1762630423125804,0401E411,true,Rx,0,7,01,05,0A,00,D8,FE,01,00,
-1762630423125676,0401E451,true,Rx,0,8,01,8A,8B,00,00,00,95,FA,
-1762630423125505,0401E451,true,Rx,0,8,00,8A,93,01,00,00,E8,F8,
-1762630423123159,1C00015A,true,Rx,0,8,02,FD,09,00,07,01,28,80,
-1762630423123031,1C00015A,true,Rx,0,5,00,D7,16,40,03,00,00,00,
-1762630423121751,1C00034A,true,Rx,0,8,02,FD,09,00,07,01,28,80,
-1762630423121623,1C00034A,true,Rx,0,5,00,D7,17,1E,03,00,00,00,
-1762630423120001,0401E481,true,Rx,0,4,11,01,D6,FE,00,00,00,00,
-1762630423119873,0401E481,true,Rx,0,4,11,00,D2,FE,00,00,00,00,
-1762630423119788,0401E481,true,Rx,0,4,12,00,6B,FE,00,00,00,00,
-1762630423119660,0401E481,true,Rx,0,4,12,01,3D,FF,00,00,00,00,
-1762630423116929,0405200C,true,Rx,0,2,00,00,00,00,00,00,00,00,
-1762630423115735,0405200B,true,Rx,0,2,00,00,00,00,00,00,00,00,
-1762630423115223,1C0002BA,true,Rx,0,8,02,FD,09,00,06,01,28,80,
-1762630423115095,1C0002BA,true,Rx,0,5,00,1A,16,40,03,00,00,00,
-1762630423114199,1C00003A,true,Rx,0,8,02,FD,09,00,0C,01,28,80,
-1762630423114071,1C00003A,true,Rx,0,5,00,A7,16,40,03,00,00,00,
-1762630423113772,1C000355,true,Rx,0,8,02,FD,09,00,06,01,28,80,
-1762630423113644,1C000355,true,Rx,0,5,00,1A,17,1E,03,00,00,00,
-1762630423113218,1C000341,true,Rx,0,8,02,FD,09,00,0C,01,28,80,
-1762630423113090,1C000341,true,Rx,0,5,00,A7,17,1E,03,00,00,00,
-1762630423111170,040A2012,true,Rx,0,8,DB,FF,B6,FF,32,03,97,84,
-1762630423111042,04056412,true,Rx,0,8,F7,FF,11,00,A8,00,97,84,
-1762630423110615,0401E412,true,Rx,0,7,00,05,1A,00,A4,FE,01,00,
-1762630423110487,0401E412,true,Rx,0,7,01,05,FA,FF,FB,FE,01,00,
-1762630423110359,0401E452,true,Rx,0,8,01,97,D5,01,00,00,D5,FA,
-1762630423110188,0401E452,true,Rx,0,8,00,97,E2,FF,FF,FF,28,F8,
-1762630423110103,04056411,true,Rx,0,8,FE,FF,16,00,8F,FD,99,84,
-1762630423109932,040A2011,true,Rx,0,8,0D,00,1E,00,61,03,99,84,
-1762630423109804,040D6863,true,Rx,0,6,00,69,00,00,00,00,00,00,
-1762630423109719,0405240A,true,Rx,0,3,02,00,00,00,00,00,00,00,
-1762630423109634,040D6843,true,Rx,0,3,00,00,00,00,00,00,00,00,
-1762630423107884,040D6863,true,Rx,0,6,01,A6,01,00,00,02,00,00,
-1762630423105922,0401E411,true,Rx,0,7,00,05,C9,00,D5,FE,01,00,
-1762630423105794,0401E411,true,Rx,0,7,01,05,08,00,D7,FE,01,00,
-1762630423105666,0401E451,true,Rx,0,8,00,9E,90,01,00,00,E6,F8,
-1762630423105538,0401E451,true,Rx,0,8,01,9E,88,00,00,00,95,FA,
-1762630423105410,040D6843,true,Rx,0,3,01,00,00,00,00,00,00,00,
-1762630423100162,04072001,true,Rx,0,4,01,01,01,01,00,00,00,00,
-1762630423099906,0401E481,true,Rx,0,4,11,01,D5,FE,00,00,00,00,
-1762630423099778,0401E481,true,Rx,0,4,11,00,D3,FE,00,00,00,00,
-1762630423099693,0401E481,true,Rx,0,4,12,00,5F,FE,00,00,00,00,
-1762630423099565,0401E481,true,Rx,0,4,12,01,49,FF,00,00,00,00,
-1762630423096877,0405C40F,true,Rx,0,8,00,01,03,43,C5,1A,A4,F6,
-1762630423096749,0405C42F,true,Rx,0,8,00,64,26,E0,8B,FF,AA,00,
-1762630423096578,0405C40F,true,Rx,0,8,01,01,33,43,39,1B,FC,F5,
-1762630423096450,0405C42F,true,Rx,0,8,01,64,24,E0,26,00,FC,FF,
-1762630423096322,0405C52F,true,Rx,0,5,00,64,00,52,00,00,00,00,
-1762630423096194,0405C40F,true,Rx,0,8,02,01,A7,44,A4,1B,4F,F5,
-1762630423096066,0405C42F,true,Rx,0,8,02,64,A7,E0,C0,FF,61,00,
-1762630423095938,0405C52F,true,Rx,0,5,02,8C,00,4C,00,00,00,00,
-1762630423095853,0405C52F,true,Rx,0,5,01,84,00,67,FF,00,00,00,
-1762630423095085,0405C410,true,Rx,0,8,00,01,F6,35,87,1F,C8,0B,
-1762630423094957,0405C430,true,Rx,0,8,00,64,18,25,B8,00,83,01,
-1762630423094829,0405C410,true,Rx,0,8,01,01,61,36,3F,1F,12,0C,
-1762630423094658,0405C430,true,Rx,0,8,01,64,37,24,D6,FF,30,FC,
-1762630423094573,0405C530,true,Rx,0,5,00,0A,00,F6,FE,00,00,00,
-1762630423094445,04030C82,true,Rx,0,4,00,01,00,00,00,00,00,00,
-1762630423094317,04030CE2,true,Rx,0,8,8D,00,00,00,C2,64,1E,67,
-1762630423094189,0405C410,true,Rx,0,8,02,01,A8,36,5F,1D,15,0B,
-1762630423094018,0405C430,true,Rx,0,8,02,64,AB,24,C5,02,C0,FF,
-1762630423093933,0405C530,true,Rx,0,5,02,11,01,22,02,00,00,00,
-1762630423093805,0405C530,true,Rx,0,5,01,11,03,58,00,00,00,00,
-1762630423092781,0405200E,true,Rx,0,2,00,00,00,00,00,00,00,00,
-1762630423092184,1C00017A,true,Rx,0,8,02,FD,09,00,09,01,28,80,
-1762630423092098,1C00017A,true,Rx,0,5,00,75,16,40,03,00,00,00,
-1762630423091800,040A2012,true,Rx,0,8,47,00,8F,FF,05,05,AA,84,
-1762630423091672,04056412,true,Rx,0,8,FA,FF,10,00,A5,00,AA,84,
-1762630423091501,0401E412,true,Rx,0,7,00,05,1A,00,A5,FE,01,00,
-1762630423091330,0401E412,true,Rx,0,7,01,05,00,00,FE,FE,01,00,
-1762630423091202,0401E452,true,Rx,0,8,01,AB,D2,01,00,00,0D,FB,
-1762630423091074,0401E452,true,Rx,0,8,00,AB,DE,FF,FF,FF,F4,F7,
-1762630423090904,1C00029A,true,Rx,0,8,02,FD,09,00,08,01,28,80,
-1762630423090818,1C00029A,true,Rx,0,5,00,B8,16,40,03,00,00,00,
-1762630423090648,0405200D,true,Rx,0,2,00,00,00,00,00,00,00,00,
-1762630423090477,1C00034B,true,Rx,0,8,02,FD,09,00,09,01,28,80,
-1762630423090392,1C00034B,true,Rx,0,5,00,75,17,1E,03,00,00,00,
-1762630423090179,040A2011,true,Rx,0,8,F0,FF,19,00,85,04,AD,84,
-1762630423090093,04056411,true,Rx,0,8,FE,FF,16,00,8F,FD,AD,84,
-1762630423089923,1C00023A,true,Rx,0,8,02,FD,09,00,0A,01,28,80,
-1762630423089795,1C00023A,true,Rx,0,5,00,3B,16,40,03,00,00,00,
-1762630423088216,1C000354,true,Rx,0,8,02,FD,09,00,08,01,28,80,
-1762630423088088,1C000354,true,Rx,0,5,00,B8,17,1E,03,00,00,00,
-1762630423087960,1C000351,true,Rx,0,8,02,FD,09,00,0A,01,28,80,
-1762630423087832,1C000351,true,Rx,0,5,00,3B,17,1E,03,00,00,00,
-1762630423085912,0401E411,true,Rx,0,7,00,05,E5,00,D3,FE,01,00,
-1762630423085784,0401E411,true,Rx,0,7,01,05,0C,00,E5,FE,01,00,
-1762630423085656,0401E451,true,Rx,0,8,00,B2,8D,01,00,00,E6,F8,
-1762630423085528,0401E451,true,Rx,0,8,01,B2,85,00,00,00,89,FA,
-1762630423085101,1C0000BA,true,Rx,0,8,02,FD,09,00,0D,01,28,80,
-1762630423085016,1C0000BA,true,Rx,0,5,00,6A,16,40,03,00,00,00,
-1762630423084845,1C00037A,true,Rx,0,8,02,FD,09,00,0B,01,28,80,
-1762630423084717,1C00037A,true,Rx,0,5,00,F6,16,40,03,00,00,00,
-1762630423083480,1C000345,true,Rx,0,8,02,FD,09,00,0D,01,28,80,
-1762630423083352,1C000345,true,Rx,0,5,00,6A,17,1E,03,00,00,00,
-1762630423083181,1C00035B,true,Rx,0,8,02,FD,09,00,0B,01,28,80,
-1762630423083053,1C00035B,true,Rx,0,5,00,F6,17,1E,03,00,00,00,
-1762630423080195,0401E481,true,Rx,0,4,11,01,D5,FE,00,00,00,00,
-1762630423080110,0401E481,true,Rx,0,4,11,00,D3,FE,00,00,00,00,
-1762630423079982,0401E481,true,Rx,0,4,12,00,53,FE,00,00,00,00,
-1762630423079896,0401E481,true,Rx,0,4,12,01,55,FF,00,00,00,00,
-1762630423071833,040A2012,true,Rx,0,8,F6,FF,78,00,8B,03,BE,84,
-1762630423071705,04056412,true,Rx,0,8,F9,FF,10,00,A1,00,BE,84,
-1762630423071534,0401E412,true,Rx,0,7,00,05,24,00,9F,FE,01,00,
-1762630423071406,0401E412,true,Rx,0,7,01,05,FE,FF,09,FF,01,00,
-1762630423071235,0401E452,true,Rx,0,8,01,BF,D0,01,00,00,46,FB,
-1762630423071107,0401E452,true,Rx,0,8,00,BF,DA,FF,FF,FF,BB,F7,
-1762630423070169,040A2011,true,Rx,0,8,22,00,11,00,EB,02,C1,84,
-1762630423070041,04056411,true,Rx,0,8,FD,FF,16,00,8F,FD,C1,84,
-1762630423065945,0401E411,true,Rx,0,7,00,05,EF,00,D5,FE,01,00,
-1762630423065817,0401E411,true,Rx,0,7,01,05,0E,00,DE,FE,01,00,
-1762630423065646,0401E451,true,Rx,0,8,00,C6,8A,01,00,00,E5,F8,
-1762630423065518,0401E451,true,Rx,0,8,01,C6,83,00,00,00,83,FA,
-1762630423064196,1C00005A,true,Rx,0,8,02,FD,09,00,0E,01,28,80,
-1762630423064110,1C00005A,true,Rx,0,5,00,24,16,40,03,00,00,00,
-1762630423060100,0401E481,true,Rx,0,4,11,01,D5,FE,00,00,00,00,
-1762630423060014,0401E481,true,Rx,0,4,11,00,D3,FE,00,00,00,00,
-1762630423059929,0401E481,true,Rx,0,4,12,00,48,FE,00,00,00,00,
-1762630423059801,0401E481,true,Rx,0,4,12,01,60,FF,00,00,00,00,
-1762630423059716,0405240A,true,Rx,0,3,F5,FF,00,00,00,00,00,00,
-1762630423059588,1C000342,true,Rx,0,8,02,FD,09,00,0E,01,28,80,
-1762630423059460,1C000342,true,Rx,0,5,00,24,17,1E,03,00,00,00,
-1762630423051823,040A2012,true,Rx,0,8,F0,FF,86,FF,5E,04,D2,84,
-1762630423051695,04056412,true,Rx,0,8,FA,FF,0F,00,9C,00,D2,84,
-1762630423051481,0401E412,true,Rx,0,7,00,05,2C,00,97,FE,01,00,
-1762630423051396,0401E412,true,Rx,0,7,01,05,FE,FF,19,FF,01,00,
-1762630423051225,0401E452,true,Rx,0,8,01,D3,CD,01,00,00,7B,FB,
-1762630423051097,0401E432,true,Rx,0,6,00,00,00,00,00,00,00,00,
-1762630423050969,0401E432,true,Rx,0,6,01,00,00,00,00,00,00,00,
-1762630423050841,0401E452,true,Rx,0,8,00,D3,D6,FF,FF,FF,80,F7,
-1762630423050201,040A2011,true,Rx,0,8,79,FF,26,00,9E,03,D5,84,
-1762630423050073,04056411,true,Rx,0,8,FE,FF,13,00,8F,FD,D5,84,
-1762630423049945,04072001,true,Rx,0,4,01,01,01,01,00,00,00,00,
-1762630423046831,0405C40F,true,Rx,0,8,00,01,E6,42,05,1B,67,F6,
-1762630423046703,0405C42F,true,Rx,0,8,00,64,DE,DF,7B,FF,A5,00,
-1762630423046618,0405C52F,true,Rx,0,5,00,72,00,65,00,00,00,00,
-1762630423046447,0405C40F,true,Rx,0,8,01,01,DC,42,BD,1B,A2,F5,
-1762630423046319,0405C42F,true,Rx,0,8,01,64,D0,DF,4D,FF,ED,FF,
-1762630423046191,0405C40F,true,Rx,0,8,02,01,1E,44,41,1C,99,F4,
-1762630423046063,0405C42F,true,Rx,0,8,02,64,1F,E0,15,00,62,00,
-1762630423045935,0405C52F,true,Rx,0,5,01,A5,00,67,00,00,00,00,
-1762630423045807,0401E411,true,Rx,0,7,00,05,EE,00,D6,FE,01,00,
-1762630423045679,0401E411,true,Rx,0,7,01,05,0C,00,DD,FE,01,00,
-1762630423045551,0401E451,true,Rx,0,8,01,DA,80,00,00,00,7D,FA,
-1762630423045423,0401E431,true,Rx,0,6,00,00,00,00,00,00,00,00,
-1762630423045295,0401E431,true,Rx,0,6,01,00,00,00,00,00,00,00,
-1762630423045124,0401E451,true,Rx,0,8,00,DA,88,01,00,00,E3,F8,
-1762630423044996,0405C410,true,Rx,0,8,00,01,06,36,72,1F,FA,0B,
-1762630423044868,0405C430,true,Rx,0,8,00,64,F3,24,68,01,E7,00,
-1762630423044698,0405C410,true,Rx,0,8,01,01,7C,36,D8,1E,1B,0C,
-1762630423044570,0405C430,true,Rx,0,8,01,64,30,24,23,01,A7,FD,
-1762630423044484,0405C52F,true,Rx,0,5,02,6E,00,3D,00,00,00,00,
-1762630423044314,0405C410,true,Rx,0,8,02,01,A4,36,CC,1D,CD,0A,
-1762630423044228,0405C530,true,Rx,0,5,01,82,FD,3E,03,00,00,00,
-1762630423044100,0405C430,true,Rx,0,8,02,64,78,24,BA,02,A0,FE,
-1762630423043972,0405C530,true,Rx,0,5,02,43,FE,60,02,00,00,00,
-1762630423043844,0405C530,true,Rx,0,5,00,7A,FF,34,FF,00,00,00,
-1762630423041668,04098C31,true,Rx,0,3,00,67,09,00,00,00,00,00,
-1762630423041583,04098C51,true,Rx,0,3,00,E5,00,00,00,00,00,00,
-1762630423040090,0401E481,true,Rx,0,4,11,01,D1,FE,00,00,00,00,
-1762630423040004,0401E481,true,Rx,0,4,11,00,D7,FE,00,00,00,00,
-1762630423039876,0401E481,true,Rx,0,4,12,00,46,FE,00,00,00,00,
-1762630423039791,0401E481,true,Rx,0,4,12,01,62,FF,00,00,00,00,
-1762630423039663,0405280B,true,Rx,0,2,00,00,00,00,00,00,00,00,
-1762630423038426,0405280C,true,Rx,0,2,00,00,00,00,00,00,00,00,
-1762630423037487,0405200C,true,Rx,0,2,00,00,00,00,00,00,00,00,
-1762630423034671,0405200B,true,Rx,0,2,00,00,00,00,00,00,00,00,
-1762630423031813,040A2012,true,Rx,0,8,91,FF,3A,00,11,05,E6,84,
-1762630423031685,04056412,true,Rx,0,8,FB,FF,0F,00,98,00,E6,84,
-1762630423031514,0401E412,true,Rx,0,7,00,05,39,00,99,FE,01,00,
-1762630423031386,0401E412,true,Rx,0,7,01,05,FD,FF,05,FF,01,00,
-1762630423031215,0401E452,true,Rx,0,8,01,E7,CA,01,00,00,C0,FB,
-1762630423031087,0401E452,true,Rx,0,8,00,E7,D2,FF,FF,FF,42,F7,
-1762630423030192,040A2011,true,Rx,0,8,E9,FF,FD,FF,1A,04,E9,84,
-1762630423030064,04056411,true,Rx,0,8,FE,FF,13,00,8F,FD,E9,84,
-1762630423025925,0401E411,true,Rx,0,7,00,05,E7,00,D6,FE,01,00,
-1762630423025797,0401E411,true,Rx,0,7,01,05,FF,FF,A4,FE,01,00,
-1762630423025669,0401E451,true,Rx,0,8,00,EE,85,01,00,00,E3,F8,
-1762630423025541,0401E451,true,Rx,0,8,01,EE,7D,00,00,00,9E,FA,
-1762630423020080,0401E481,true,Rx,0,4,11,01,D1,FE,00,00,00,00,
-1762630423019995,0401E481,true,Rx,0,4,11,00,D7,FE,00,00,00,00,
-1762630423019867,0401E481,true,Rx,0,4,12,00,46,FE,00,00,00,00,
-1762630423019781,0401E481,true,Rx,0,4,12,01,62,FF,00,00,00,00,
-1762630423012614,0405200D,true,Rx,0,2,00,00,00,00,00,00,00,00,
-1762630423011846,040A2012,true,Rx,0,8,BD,FF,0A,00,B6,02,FA,84,
-1762630423011760,0405200E,true,Rx,0,2,00,00,00,00,00,00,00,00,
-1762630423011632,04056412,true,Rx,0,8,F9,FF,0D,00,94,00,FA,84,
-1762630423011504,0401E412,true,Rx,0,7,00,05,46,00,8C,FE,01,00,
-1762630423011334,0401E412,true,Rx,0,7,01,05,F7,FF,04,FF,01,00,
-1762630423011206,0401E452,true,Rx,0,8,01,FB,C8,01,00,00,06,FC,
-1762630423011078,0401E452,true,Rx,0,8,00,FB,CE,FF,FF,FF,0E,F7,
-1762630423010182,040A2011,true,Rx,0,8,1B,00,C1,FF,57,04,FD,84,
-1762630423010054,04056411,true,Rx,0,8,FE,FF,13,00,8F,FD,FD,84,
-1762630423009926,040D6863,true,Rx,0,6,00,76,01,00,00,00,00,00,
-1762630423009542,040D6843,true,Rx,0,3,00,00,00,00,00,00,00,00,
-1762630423007878,0405240A,true,Rx,0,3,EF,FF,00,00,00,00,00,00,
-1762630423006896,040D6863,true,Rx,0,6,01,EE,01,00,00,02,00,00,
-1762630423005531,04030C82,true,Rx,0,4,00,01,00,00,00,00,00,00,
-1762630423005360,04030CE2,true,Rx,0,8,8D,00,00,00,C2,64,1E,67,
-1762630423004934,0401E411,true,Rx,0,7,00,05,D6,00,D1,FE,01,00,
-1762630423004806,0401E411,true,Rx,0,7,01,05,08,00,DC,FE,01,00,
-1762630423004635,0401E451,true,Rx,0,8,00,03,82,01,00,00,E7,F8,
-1762630423004507,0401E451,true,Rx,0,8,01,03,7A,00,00,00,96,FA,
-1762630423004422,040D6843,true,Rx,0,3,01,00,00,00,00,00,00,00,
-1762630423000198,04072001,true,Rx,0,4,01,01,01,01,00,00,00,00,
-1762630422999985,0401E481,true,Rx,0,4,11,01,D0,FE,00,00,00,00,
-1762630422999857,0401E481,true,Rx,0,4,11,00,D8,FE,00,00,00,00,
-1762630422999771,0401E481,true,Rx,0,4,12,00,45,FE,00,00,00,00,
-1762630422999686,0401E481,true,Rx,0,4,12,01,63,FF,00,00,00,00,
-1762630422996870,0405C40F,true,Rx,0,8,00,01,72,42,E6,1B,66,F6,
-1762630422996742,0405C42F,true,Rx,0,8,00,64,2A,DF,7C,FF,CB,00,
-1762630422996614,0405C40F,true,Rx,0,8,01,01,17,42,73,1C,C3,F4,
-1762630422996443,0405C42F,true,Rx,0,8,01,64,1D,DF,00,00,FA,FF,
-1762630422996358,0405C52F,true,Rx,0,5,00,90,00,09,00,00,00,00,
-1762630422996188,0405C40F,true,Rx,0,8,02,01,BA,43,90,1C,6C,F4,
-1762630422996060,0405C42F,true,Rx,0,8,02,64,DE,DF,E7,FF,6D,00,
-1762630422995974,0405C52F,true,Rx,0,5,02,64,00,3A,00,00,00,00,
-1762630422995846,0405C52F,true,Rx,0,5,01,57,00,1E,01,00,00,00,
-1762630422995078,0405C410,true,Rx,0,8,00,01,1B,36,AB,1F,3F,0C,
-1762630422994950,0405C430,true,Rx,0,8,00,64,90,24,FE,FE,00,01,
-1762630422994822,0405C410,true,Rx,0,8,01,01,89,36,33,1E,DF,0A,
-1762630422994652,0405C430,true,Rx,0,8,01,64,12,25,17,03,7C,FD,
-1762630422994566,0405C530,true,Rx,0,5,00,E2,FE,D3,00,00,00,00,
-1762630422994396,0405C410,true,Rx,0,8,02,01,A6,36,F2,1D,CD,0A,
-1762630422994268,0405C430,true,Rx,0,8,02,64,B5,24,7E,02,FE,FD,
-1762630422994182,0405C530,true,Rx,0,5,02,D5,FD,AC,02,00,00,00,
-1762630422994054,0405C530,true,Rx,0,5,01,12,00,CC,02,00,00,00,
-1762630422991836,040A2012,true,Rx,0,8,DB,FF,A6,FF,05,06,0E,85,
-1762630422991708,04056412,true,Rx,0,8,FA,FF,0E,00,8D,00,0E,85,
-1762630422991537,0401E412,true,Rx,0,7,00,05,43,00,88,FE,01,00,
-1762630422991366,0401E412,true,Rx,0,7,01,05,F3,FF,1B,FF,01,00,
-1762630422991238,0401E452,true,Rx,0,8,01,0F,C6,01,00,00,3C,FC,
-1762630422991110,0401E452,true,Rx,0,8,00,0F,C9,FF,FF,FF,DC,F6,
-1762630422990214,040A2011,true,Rx,0,8,D0,FF,A9,FF,54,03,11,85,
-1762630422990086,04056411,true,Rx,0,8,FE,FF,13,00,8E,FD,11,85,
-1762630422983943,0401E411,true,Rx,0,7,00,05,E3,00,D4,FE,01,00,
-1762630422983815,0401E411,true,Rx,0,7,01,05,08,00,CC,FE,01,00,
-1762630422983644,0401E451,true,Rx,0,8,00,18,7F,01,00,00,EA,F8,
-1762630422983516,0401E451,true,Rx,0,8,01,18,77,00,00,00,99,FA,
-1762630422980145,0401E481,true,Rx,0,4,11,01,D0,FE,00,00,00,00,
-1762630422980017,0401E481,true,Rx,0,4,11,00,D8,FE,00,00,00,00,
-1762630422979932,0401E481,true,Rx,0,4,12,00,45,FE,00,00,00,00,
-1762630422979804,0401E481,true,Rx,0,4,12,01,63,FF,00,00,00,00,
-1762630422971868,040A2012,true,Rx,0,8,CA,FF,56,00,43,03,22,85,
-1762630422971698,04056412,true,Rx,0,8,FB,FF,0E,00,87,00,22,85,
-1762630422971442,0401E412,true,Rx,0,7,00,05,3C,00,71,FE,01,00,
-1762630422971314,0401E412,true,Rx,0,7,01,05,F7,FF,34,FF,01,00,
-1762630422971186,0401E452,true,Rx,0,8,01,23,C3,01,00,00,5F,FC,
-1762630422971058,0401E452,true,Rx,0,8,00,23,C5,FF,FF,FF,BB,F6,
-1762630422970205,040A2011,true,Rx,0,8,82,00,21,00,22,04,25,85,
-1762630422970077,04056411,true,Rx,0,8,FE,FF,11,00,8E,FD,25,85,
-1762630422963933,0401E411,true,Rx,0,7,00,05,ED,00,D7,FE,01,00,
-1762630422963805,0401E411,true,Rx,0,7,01,05,01,00,CB,FE,01,00,
-1762630422963677,0401E451,true,Rx,0,8,01,2C,74,00,00,00,9C,FA,
-1762630422963506,0401E451,true,Rx,0,8,00,2C,7C,01,00,00,EA,F8,
-1762630422960861,0405200C,true,Rx,0,2,00,00,00,00,00,00,00,00,
-1762630422960221,0401E481,true,Rx,0,4,11,01,D0,FE,00,00,00,00,
-1762630422960093,0401E481,true,Rx,0,4,11,00,D8,FE,00,00,00,00,
-1762630422960008,0401E481,true,Rx,0,4,12,00,45,FE,00,00,00,00,
-1762630422959880,0401E481,true,Rx,0,4,12,01,63,FF,00,00,00,00,
-1762630422959666,0405240A,true,Rx,0,3,E7,FF,00,00,00,00,00,00,
-1762630422956594,0405200B,true,Rx,0,2,00,00,00,00,00,00,00,00,
-1762630422951816,040A2012,true,Rx,0,8,03,00,E7,FF,4B,04,36,85,
-1762630422951688,04056412,true,Rx,0,8,FC,FF,0D,00,7F,00,36,85,
-1762630422951475,0401E412,true,Rx,0,7,00,05,3B,00,67,FE,01,00,
-1762630422951347,0401E412,true,Rx,0,7,01,05,FC,FF,51,FF,01,00,
-1762630422951219,0401E452,true,Rx,0,8,01,37,C1,01,00,00,6C,FC,
-1762630422951091,0401E432,true,Rx,0,6,00,00,00,00,00,00,00,00,
-1762630422950920,0401E432,true,Rx,0,6,01,00,00,00,00,00,00,00,
-1762630422950835,0401E452,true,Rx,0,8,00,37,C0,FF,FF,FF,A2,F6,
-1762630422950195,040A2011,true,Rx,0,8,01,00,20,00,0E,04,39,85,
-1762630422950024,04056411,true,Rx,0,8,FD,FF,11,00,8D,FD,39,85,
-1762630422949939,04072001,true,Rx,0,4,01,01,01,01,00,00,00,00,
-1762630422946867,0405C40F,true,Rx,0,8,00,01,25,42,F7,1B,43,F6,
-1762630422946739,0405C42F,true,Rx,0,8,00,64,AF,DE,FE,FF,D6,00,
-1762630422946611,0405C40F,true,Rx,0,8,01,01,A2,41,76,1B,C1,F5,
-1762630422946440,0405C42F,true,Rx,0,8,01,64,CD,DE,90,FF,45,00,
-1762630422946355,0405C52F,true,Rx,0,5,00,8D,00,D6,FF,00,00,00,
-1762630422946227,0405C40F,true,Rx,0,8,02,01,36,43,1D,1D,35,F4,
-1762630422946056,0405C42F,true,Rx,0,8,02,64,07,DF,19,00,69,00,
-1762630422945971,0405C52F,true,Rx,0,5,02,4B,00,43,00,00,00,00,
-1762630422945843,0405C52F,true,Rx,0,5,01,C4,FF,A4,01,00,00,00,
-1762630422945118,0405C410,true,Rx,0,8,00,01,35,36,BA,1F,68,0C,
-1762630422944990,0405C430,true,Rx,0,8,00,64,21,24,39,00,32,01,
-1762630422944819,0405C410,true,Rx,0,8,01,01,91,36,5E,1D,3A,0B,
-1762630422944691,0405C430,true,Rx,0,8,01,64,B3,24,DD,02,E5,FB,
-1762630422944606,0405C530,true,Rx,0,5,00,90,00,45,00,00,00,00,
-1762630422944435,0405C410,true,Rx,0,8,02,01,D2,36,92,1D,C6,0A,
-1762630422944307,0405C430,true,Rx,0,8,02,64,E5,24,30,02,92,FD,
-1762630422944179,0405C530,true,Rx,0,5,02,9F,00,BD,02,00,00,00,
-1762630422944094,0405C530,true,Rx,0,5,01,20,03,A0,FE,00,00,00,
-1762630422944008,0405280B,true,Rx,0,2,00,00,00,00,00,00,00,00,
-1762630422943838,0401E411,true,Rx,0,7,00,05,0F,01,E7,FE,01,00,
-1762630422943710,0401E411,true,Rx,0,7,01,05,FF,FF,BB,FE,01,00,
-1762630422943582,0401E451,true,Rx,0,8,01,40,71,00,00,00,AB,FA,
-1762630422943454,0401E431,true,Rx,0,6,00,00,00,00,00,00,00,00,
-1762630422943326,0401E431,true,Rx,0,6,01,00,00,00,00,00,00,00,
-1762630422943198,0401E451,true,Rx,0,8,00,40,79,01,00,00,DF,F8,
-1762630422943112,0405280C,true,Rx,0,2,00,00,00,00,00,00,00,00,
-1762630422941662,04098C31,true,Rx,0,3,00,83,09,00,00,00,00,00,
-1762630422941576,04098C51,true,Rx,0,3,00,8A,01,00,00,00,00,00,
-1762630422940040,0401E481,true,Rx,0,4,11,01,CE,FE,00,00,00,00,
-1762630422939912,0401E481,true,Rx,0,4,11,00,DB,FE,00,00,00,00,
-1762630422939827,0401E481,true,Rx,0,4,12,00,43,FE,00,00,00,00,
-1762630422939699,0401E481,true,Rx,0,4,12,01,65,FF,00,00,00,00,
-1762630422938590,04001442,true,Rx,0,1,00,00,00,00,00,00,00,00,
-1762630422938462,04001462,true,Rx,0,1,45,00,00,00,00,00,00,00,
-1762630422938376,040014A2,true,Rx,0,2,76,4B,00,00,00,00,00,00,
-1762630422938248,04001482,true,Rx,0,1,00,00,00,00,00,00,00,00,
-1762630422938078,1C00005A,true,Rx,0,8,02,FD,11,00,04,01,28,80,
-1762630422937992,040014C2,true,Rx,0,4,00,00,00,00,00,00,00,00,
-1762630422937907,04001542,true,Rx,0,2,56,FC,00,00,00,00,00,00,
-1762630422937822,04001562,true,Rx,0,2,14,00,00,00,00,00,00,00,
-1762630422937694,04001522,true,Rx,0,2,93,00,00,00,00,00,00,00,
-1762630422937651,040015A2,true,Rx,0,1,00,00,00,00,00,00,00,00,
-1762630422937566,04001722,true,Rx,0,1,5E,00,00,00,00,00,00,00,
-1762630422937438,1C00005A,true,Rx,0,8,01,CD,00,CB,C6,14,03,00,
-1762630422937310,04001682,true,Rx,0,6,6B,44,7D,00,11,00,00,00,
-1762630422937182,040015E2,true,Rx,0,2,00,00,00,00,00,00,00,00,
-1762630422937096,04001602,true,Rx,0,1,00,00,00,00,00,00,00,00,
-1762630422937054,04001622,true,Rx,0,1,00,00,00,00,00,00,00,00,
-1762630422936926,1C00005A,true,Rx,0,5,01,00,00,88,03,00,00,00,
-1762630422936840,04001642,true,Rx,0,1,00,00,00,00,00,00,00,00,
-1762630422936755,04001662,true,Rx,0,3,00,00,00,00,00,00,00,00,
-1762630422936585,040016C2,true,Rx,0,5,00,00,00,00,00,00,00,00,
-1762630422936371,1C0003E6,true,Rx,0,8,02,FC,23,00,0A,10,02,B1,
-1762630422936201,1C0003E6,true,Rx,0,8,01,E2,02,0A,10,1B,00,14,
-1762630422936073,1C000342,true,Rx,0,8,02,FD,11,00,04,01,28,80,
-1762630422935945,1C0003E6,true,Rx,0,8,00,15,0F,1A,0F,18,0F,17,
-1762630422935817,1C000342,true,Rx,0,8,01,CD,01,CB,C6,14,03,00,
-1762630422935646,1C0003E6,true,Rx,0,8,0F,17,0F,00,00,00,00,00,
-1762630422935518,1C000342,true,Rx,0,5,00,00,00,87,03,00,00,00,
-1762630422935390,1C0003E6,true,Rx,0,7,00,00,00,00,00,C3,03,00,
-1762630422935262,1C0003E6,true,Rx,0,8,02,FC,19,00,0A,10,02,B1,
-1762630422935091,1C0003E6,true,Rx,0,8,01,7D,02,0A,10,1C,00,0A,
-1762630422934921,1C0003E6,true,Rx,0,8,00,00,00,00,00,00,00,00,
-1762630422934793,1C0003E6,true,Rx,0,5,00,00,00,13,03,00,00,00,
-1762630422933641,0405200D,true,Rx,0,2,00,00,00,00,00,00,00,00,
-1762630422931849,040A2012,true,Rx,0,8,BB,FF,20,01,BE,04,4A,85,
-1762630422931721,04056412,true,Rx,0,8,FD,FF,0C,00,76,00,4A,85,
-1762630422931465,0401E412,true,Rx,0,7,00,05,41,00,5F,FE,01,00,
-1762630422931294,0401E412,true,Rx,0,7,01,05,00,00,48,FF,01,00,
-1762630422931166,0401E452,true,Rx,0,8,01,4B,C0,01,00,00,81,FC,
-1762630422931038,0401E452,true,Rx,0,8,00,4B,BC,FF,FF,FF,8D,F6,
-1762630422930953,0405200E,true,Rx,0,2,00,00,00,00,00,00,00,00,
-1762630422930185,040A2011,true,Rx,0,8,C0,FF,39,00,FC,02,4D,85,
-1762630422930057,04056411,true,Rx,0,8,FE,FF,10,00,8C,FD,4D,85,
-1762630422924212,1C0000DA,true,Rx,0,8,02,FD,09,00,47,74,D8,1B,
-1762630422924084,1C0000DA,true,Rx,0,5,00,7A,16,40,03,00,00,00,
-1762630422923913,0401E411,true,Rx,0,7,00,05,0C,01,D6,FE,01,00,
-1762630422923785,0401E411,true,Rx,0,7,01,05,02,00,CF,FE,01,00,
-1762630422923657,0401E451,true,Rx,0,8,00,54,77,01,00,00,E2,F8,
-1762630422923529,0401E451,true,Rx,0,8,01,54,6E,00,00,00,AB,FA,
-1762630422922078,1C000346,true,Rx,0,8,02,FD,09,00,47,74,D8,1B,
-1762630422921950,1C000346,true,Rx,0,5,00,7A,17,1E,03,00,00,00,
-1762630422920201,0401E481,true,Rx,0,4,11,01,CE,FE,00,00,00,00,
-1762630422920073,0401E481,true,Rx,0,4,11,00,DB,FE,00,00,00,00,
-1762630422919988,0401E481,true,Rx,0,4,12,00,43,FE,00,00,00,00,
-1762630422919860,0401E481,true,Rx,0,4,12,01,65,FF,00,00,00,00,
-1762630422916532,04030C82,true,Rx,0,4,00,01,00,00,00,00,00,00,
-1762630422916361,04030CE2,true,Rx,0,8,8D,00,00,00,C2,64,1E,67,
-1762630422915849,040D6863,true,Rx,0,6,00,9C,01,00,00,00,00,00,
-1762630422915209,1C00003A,true,Rx,0,8,02,FD,09,00,82,65,50,5F,
-1762630422915124,1C00003A,true,Rx,0,5,00,DA,16,40,03,00,00,00,
-1762630422914228,1C000341,true,Rx,0,8,02,FD,09,00,82,65,50,5F,
-1762630422914100,1C000341,true,Rx,0,5,00,DA,17,1E,03,00,00,00,
-1762630422913887,040D6843,true,Rx,0,3,00,00,00,00,00,00,00,00,
-1762630422911839,040A2012,true,Rx,0,8,35,00,B7,FF,37,02,5E,85,
-1762630422911711,04056412,true,Rx,0,8,FC,FF,0A,00,6C,00,5E,85,
-1762630422911540,0401E412,true,Rx,0,7,00,05,38,00,5C,FE,01,00,
-1762630422911369,0401E412,true,Rx,0,7,01,05,FF,FF,48,FF,01,00,
-1762630422911241,0401E452,true,Rx,0,8,01,5F,BE,01,00,00,96,FC,
-1762630422911113,0401E452,true,Rx,0,8,00,5F,B7,FF,FF,FF,7B,F6,
-1762630422910218,040A2011,true,Rx,0,8,EE,FF,F6,FF,3A,04,61,85,
-1762630422910047,04056411,true,Rx,0,8,FF,FF,10,00,8C,FD,61,85,
-1762630422909962,040D6863,true,Rx,0,6,01,D6,01,00,00,02,00,00,
-1762630422909834,0405240A,true,Rx,0,3,D7,FF,00,00,00,00,00,00,
-1762630422909748,040D6843,true,Rx,0,3,01,00,00,00,00,00,00,00,
-1762630422905226,1C00005A,true,Rx,0,8,02,FD,09,00,54,E3,C7,41,
-1762630422905098,1C00005A,true,Rx,0,5,00,AA,16,40,03,00,00,00,
-1762630422904202,1C000342,true,Rx,0,8,02,FD,09,00,54,E3,C7,41,
-1762630422904074,1C000342,true,Rx,0,5,00,AA,17,1E,03,00,00,00,
-1762630422903860,0401E411,true,Rx,0,7,00,05,F7,00,D6,FE,01,00,
-1762630422903732,0401E411,true,Rx,0,7,01,05,FB,FF,B3,FE,01,00,
-1762630422903562,0401E451,true,Rx,0,8,01,68,6B,00,00,00,BF,FA,
-1762630422903434,0401E451,true,Rx,0,8,00,68,74,01,00,00,E5,F8,
-1762630422900234,04072001,true,Rx,0,4,01,01,01,01,00,00,00,00,
-1762630422899893,0401E481,true,Rx,0,4,11,01,CA,FE,00,00,00,00,
-1762630422899807,0401E481,true,Rx,0,4,11,00,DF,FE,00,00,00,00,
-1762630422899722,0401E481,true,Rx,0,4,12,00,40,FE,00,00,00,00,
-1762630422899594,0401E481,true,Rx,0,4,12,01,68,FF,00,00,00,00,
-1762630422898911,040D6863,true,Rx,0,6,00,86,00,00,00,00,00,00,
-1762630422896906,040D6843,true,Rx,0,3,00,00,00,00,00,00,00,00,
-1762630422896778,0405C40F,true,Rx,0,8,00,01,CB,41,3B,1C,E9,F5,
-1762630422896650,0405C42F,true,Rx,0,8,00,64,72,DE,BC,FF,A5,00,
-1762630422896522,0405C40F,true,Rx,0,8,01,01,FD,40,3C,1C,22,F6,
-1762630422896394,0405C42F,true,Rx,0,8,01,64,CA,DE,68,00,D7,FF,
-1762630422896266,0405C52F,true,Rx,0,5,01,6C,FF,FB,00,00,00,00,
-1762630422896138,0405C40F,true,Rx,0,8,02,01,A7,42,34,1D,56,F4,
-1762630422896010,0405C42F,true,Rx,0,8,02,64,C4,DE,3E,00,5D,00,
-1762630422895882,0405C52F,true,Rx,0,5,02,5E,00,64,00,00,00,00,
-1762630422895754,0405C52F,true,Rx,0,5,00,7D,00,24,00,00,00,00,
-1762630422895114,0405C410,true,Rx,0,8,00,01,49,36,91,1E,6E,0C,
-1762630422894943,0405C430,true,Rx,0,8,00,64,0C,24,89,FF,B4,FF,
-1762630422894815,0405C410,true,Rx,0,8,01,01,9D,36,62,1C,85,0B,
-1762630422894687,0405C430,true,Rx,0,8,01,64,9F,24,93,FF,58,FC,
-1762630422894559,0405C530,true,Rx,0,5,00,12,01,A7,FF,00,00,00,
-1762630422894431,0405C410,true,Rx,0,8,02,01,E7,36,08,1D,26,0B,
-1762630422894303,0405C430,true,Rx,0,8,02,64,3E,24,5B,02,69,FD,
-1762630422894175,0405C530,true,Rx,0,5,02,A7,01,31,00,00,00,00,
-1762630422894047,0405C530,true,Rx,0,5,01,BA,03,EE,FD,00,00,00,
-1762630422893920,040D6863,true,Rx,0,6,01,E9,01,00,00,02,00,00,
-1762630422892896,040D6843,true,Rx,0,3,01,00,00,00,00,00,00,00,
-1762630422891829,040A2012,true,Rx,0,8,BB,00,08,00,4B,06,72,85,
-1762630422891701,04056412,true,Rx,0,8,FD,FF,0B,00,62,00,72,85,
-1762630422891530,0401E412,true,Rx,0,7,00,05,27,00,45,FE,01,00,
-1762630422891402,0401E412,true,Rx,0,7,01,05,01,00,52,FF,01,00,
-1762630422891274,0401E452,true,Rx,0,8,01,73,BC,01,00,00,A6,FC,
-1762630422891104,0401E452,true,Rx,0,8,00,73,B2,FF,FF,FF,78,F6,
-1762630422890208,040A2011,true,Rx,0,8,3A,00,0F,00,8F,04,75,85,
-1762630422890080,04056411,true,Rx,0,8,FE,FF,10,00,8B,FD,75,85,
-1762630422883936,0401E411,true,Rx,0,7,00,05,03,01,DC,FE,01,00,
-1762630422883808,0401E411,true,Rx,0,7,01,05,04,00,C3,FE,01,00,
-1762630422883637,0401E451,true,Rx,0,8,01,7C,69,00,00,00,C4,FA,
-1762630422883509,0401E451,true,Rx,0,8,00,7C,71,01,00,00,E7,F8,
-1762630422882016,0405200C,true,Rx,0,2,00,00,00,00,00,00,00,00,
-1762630422880224,0401E481,true,Rx,0,4,11,01,CA,FE,00,00,00,00,
-1762630422880096,0401E481,true,Rx,0,4,11,00,DF,FE,00,00,00,00,
-1762630422880011,0401E481,true,Rx,0,4,12,00,40,FE,00,00,00,00,
-1762630422879883,0401E481,true,Rx,0,4,12,01,68,FF,00,00,00,00,
-1762630422877024,0405200B,true,Rx,0,2,00,00,00,00,00,00,00,00,
-1762630422871862,040A2012,true,Rx,0,8,37,00,1B,00,D1,01,86,85,
-1762630422871691,04056412,true,Rx,0,8,FD,FF,0A,00,58,00,86,85,
-1762630422871520,0401E412,true,Rx,0,7,00,05,26,00,48,FE,01,00,
-1762630422871392,0401E412,true,Rx,0,7,01,05,FE,FF,53,FF,01,00,
-1762630422871264,0401E452,true,Rx,0,8,01,87,BA,01,00,00,B5,FC,
-1762630422871094,0401E452,true,Rx,0,8,00,87,AD,FF,FF,FF,72,F6,
-1762630422870240,040A2011,true,Rx,0,8,D6,FF,B7,FF,BA,02,89,85,
-1762630422870070,04056411,true,Rx,0,8,FF,FF,0E,00,8A,FD,89,85,
-1762630422863926,0401E411,true,Rx,0,7,00,05,FB,00,D5,FE,01,00,
-1762630422863798,0401E411,true,Rx,0,7,01,05,F9,FF,C9,FE,01,00,
-1762630422863670,0401E451,true,Rx,0,8,00,90,6E,01,00,00,EE,F8,
-1762630422863499,0401E451,true,Rx,0,8,01,90,66,00,00,00,C4,FA,
-1762630422860171,0401E481,true,Rx,0,4,11,01,CA,FE,00,00,00,00,
-1762630422860043,0401E481,true,Rx,0,4,11,00,DF,FE,00,00,00,00,
-1762630422859958,0401E481,true,Rx,0,4,12,00,40,FE,00,00,00,00,
-1762630422859830,0401E481,true,Rx,0,4,12,01,68,FF,00,00,00,00,
-1762630422857868,0405240A,true,Rx,0,3,C9,FF,00,00,00,00,00,00,
-1762630422855692,0405200E,true,Rx,0,2,00,00,00,00,00,00,00,00,
-1762630422855564,0405200D,true,Rx,0,2,00,00,00,00,00,00,00,00,
-1762630422851852,040A2012,true,Rx,0,8,EB,FF,0A,00,C1,05,9A,85,
-1762630422851724,04056412,true,Rx,0,8,FE,FF,0A,00,4F,00,9A,85,
-1762630422851468,0401E412,true,Rx,0,7,00,05,2A,00,5A,FE,01,00,
-1762630422851340,0401E412,true,Rx,0,7,01,05,FB,FF,55,FF,01,00,
-1762630422851169,0401E452,true,Rx,0,8,00,9B,A8,FF,FF,FF,5F,F6,
-1762630422851041,0401E432,true,Rx,0,6,00,00,00,00,00,00,00,00,
-1762630422850913,0401E432,true,Rx,0,6,01,00,00,00,00,00,00,00,
-1762630422850785,0401E452,true,Rx,0,8,01,9B,B8,01,00,00,C3,FC,
-1762630422850188,040A2011,true,Rx,0,8,77,00,D0,FF,9F,04,9D,85,
-1762630422850060,04056411,true,Rx,0,8,FF,FF,0E,00,8A,FD,9D,85,
-1762630422849932,04072001,true,Rx,0,4,01,01,01,01,00,00,00,00,
-1762630422847287,0405280B,true,Rx,0,2,00,00,00,00,00,00,00,00,
-1762630422846860,0405C40F,true,Rx,0,8,00,01,13,41,DF,1C,89,F5,
-1762630422846732,0405C42F,true,Rx,0,8,00,64,27,DE,7C,FF,B5,FF,
-1762630422846604,0405C40F,true,Rx,0,8,01,01,83,40,36,1D,7A,F5,
-1762630422846433,0405C42F,true,Rx,0,8,01,64,66,DE,12,00,38,01,
-1762630422846348,0405280C,true,Rx,0,2,00,00,00,00,00,00,00,00,
-1762630422846220,0405C40F,true,Rx,0,8,02,01,36,42,4F,1D,46,F4,
-1762630422846135,0405C52F,true,Rx,0,5,00,6A,00,83,00,00,00,00,
-1762630422845964,0405C42F,true,Rx,0,8,02,64,A0,DE,03,00,51,00,
-1762630422845879,0405C52F,true,Rx,0,5,02,60,00,75,00,00,00,00,
-1762630422845751,0405C52F,true,Rx,0,5,01,43,FF,13,01,00,00,00,
-1762630422845111,0405C410,true,Rx,0,8,00,01,4D,36,47,1E,3A,0C,
-1762630422844940,0405C430,true,Rx,0,8,00,64,05,24,9C,FE,22,FE,
-1762630422844812,0405C410,true,Rx,0,8,01,01,A6,36,63,1B,E4,0A,
-1762630422844684,0405C430,true,Rx,0,8,01,64,F5,24,7B,02,AD,01,
-1762630422844556,0405C530,true,Rx,0,5,00,47,01,B3,FF,00,00,00,
-1762630422844428,0405C410,true,Rx,0,8,02,01,CC,36,85,1C,FF,0A,
-1762630422844300,0405C430,true,Rx,0,8,02,64,22,24,85,02,B2,FC,
-1762630422844172,0405C530,true,Rx,0,5,02,44,02,75,FE,00,00,00,
-1762630422844044,0405C530,true,Rx,0,5,01,87,04,1D,02,00,00,00,
-1762630422843873,0401E411,true,Rx,0,7,00,05,2C,01,F5,FE,01,00,
-1762630422843788,0401E411,true,Rx,0,7,01,05,00,00,D2,FE,01,00,
-1762630422843617,0401E451,true,Rx,0,8,01,A4,63,00,00,00,BE,FA,
-1762630422843489,0401E431,true,Rx,0,6,00,00,00,00,00,00,00,00,
-1762630422843361,0401E431,true,Rx,0,6,01,00,00,00,00,00,00,00,
-1762630422843233,0401E451,true,Rx,0,8,00,A4,6C,01,00,00,DE,F8,
-1762630422841655,04098C31,true,Rx,0,3,00,91,09,00,00,00,00,00,
-1762630422841570,04098C51,true,Rx,0,3,00,48,01,00,00,00,00,00,
-1762630422840119,0401E481,true,Rx,0,4,11,01,C7,FE,00,00,00,00,
-1762630422839991,0401E481,true,Rx,0,4,11,00,E3,FE,00,00,00,00,
-1762630422839906,0401E481,true,Rx,0,4,12,00,3E,FE,00,00,00,00,
-1762630422839778,0401E481,true,Rx,0,4,12,01,6A,FF,00,00,00,00,
-1762630422831885,040A2012,true,Rx,0,8,DB,FF,DC,FF,1A,02,AE,85,
-1762630422831714,04056412,true,Rx,0,8,FC,FF,08,00,46,00,AE,85,
-1762630422831458,0401E412,true,Rx,0,7,00,05,3D,00,52,FE,01,00,
-1762630422831330,0401E412,true,Rx,0,7,01,05,F9,FF,44,FF,01,00,
-1762630422831202,0401E452,true,Rx,0,8,01,AF,B6,01,00,00,DF,FC,
-1762630422831074,0401E452,true,Rx,0,8,00,AF,A4,FF,FF,FF,50,F6,
-1762630422830178,040A2011,true,Rx,0,8,C5,FF,4F,00,41,03,B1,85,
-1762630422830050,04056411,true,Rx,0,8,FE,FF,0E,00,88,FD,B1,85,
-1762630422827533,04030C82,true,Rx,0,4,00,01,00,00,00,00,00,00,
-1762630422827362,04030CE2,true,Rx,0,8,8D,00,00,00,C2,64,1E,67,
-1762630422823906,0401E411,true,Rx,0,7,00,05,4B,01,F9,FE,01,00,
-1762630422823778,0401E411,true,Rx,0,7,01,05,F7,FF,BF,FE,01,00,
-1762630422823650,0401E451,true,Rx,0,8,00,B8,6A,01,00,00,CE,F8,
-1762630422823522,0401E451,true,Rx,0,8,01,B8,60,00,00,00,C4,FA,
-1762630422820109,0401E481,true,Rx,0,4,11,01,C7,FE,00,00,00,00,
-1762630422820024,0401E481,true,Rx,0,4,11,00,E3,FE,00,00,00,00,
-1762630422819896,0401E481,true,Rx,0,4,12,00,3E,FE,00,00,00,00,
-1762630422819810,0401E481,true,Rx,0,4,12,01,6A,FF,00,00,00,00,
-1762630422811875,040A2012,true,Rx,0,8,F6,FF,05,00,E1,03,C2,85,
-1762630422811747,04056412,true,Rx,0,8,FD,FF,08,00,3D,00,C2,85,
-1762630422811448,0401E412,true,Rx,0,7,00,05,43,00,59,FE,01,00,
-1762630422811320,0401E412,true,Rx,0,7,01,05,FA,FF,41,FF,01,00,
-1762630422811149,0401E452,true,Rx,0,8,01,C3,B4,01,00,00,FD,FC,
-1762630422811021,0401E452,true,Rx,0,8,00,C3,9F,FF,FF,FF,3C,F6,
-1762630422810211,040A2011,true,Rx,0,8,6D,FF,DE,FF,61,03,C5,85,
-1762630422810083,04056411,true,Rx,0,8,FE,FF,0C,00,86,FD,C5,85,
-1762630422809827,0405240A,true,Rx,0,3,AE,FF,00,00,00,00,00,00,
-1762630422807864,040D6863,true,Rx,0,6,00,B1,00,00,00,00,00,00,
-1762630422805902,040D6843,true,Rx,0,3,00,00,00,00,00,00,00,00,
-1762630422803939,0401E411,true,Rx,0,7,00,05,65,01,F4,FE,01,00,
-1762630422803811,0401E411,true,Rx,0,7,01,05,F7,FF,AE,FE,01,00,
-1762630422803640,0401E451,true,Rx,0,8,00,CC,67,01,00,00,C2,F8,
-1762630422803512,0401E451,true,Rx,0,8,01,CC,5D,00,00,00,D6,FA,
-1762630422803384,040D6863,true,Rx,0,6,01,F3,01,00,00,02,00,00,
-1762630422803000,0405200C,true,Rx,0,2,00,00,00,00,00,00,00,00,
-1762630422801891,040D6843,true,Rx,0,3,01,00,00,00,00,00,00,00,
-1762630422800227,04072001,true,Rx,0,4,01,01,01,01,00,00,00,00,
-1762630422800014,0401E481,true,Rx,0,4,11,01,C2,FE,00,00,00,00,
-1762630422799886,0401E481,true,Rx,0,4,11,00,EC,FE,00,00,00,00,
-1762630422799801,0401E481,true,Rx,0,4,12,00,39,FE,00,00,00,00,
-1762630422799715,0401E481,true,Rx,0,4,12,01,6F,FF,00,00,00,00,
-1762630422799459,0405200B,true,Rx,0,2,00,00,00,00,00,00,00,00,
-1762630422796857,0405C40F,true,Rx,0,8,00,01,B6,40,88,1D,82,F5,
-1762630422796729,0405C42F,true,Rx,0,8,00,64,E9,DD,7C,FF,36,00,
-1762630422796601,0405C52F,true,Rx,0,5,00,F5,FF,64,00,00,00,00,
-1762630422796473,0405C40F,true,Rx,0,8,01,01,F3,3F,81,1E,C1,F5,
-1762630422796345,0405C42F,true,Rx,0,8,01,64,D5,DD,B8,FF,7C,FF,
-1762630422796174,0405C40F,true,Rx,0,8,02,01,5C,41,A3,1D,15,F4,
-1762630422796046,0405C42F,true,Rx,0,8,02,64,E5,DD,CC,FF,54,00,
-1762630422795918,0405C52F,true,Rx,0,5,01,E2,FF,5F,FF,00,00,00,
-1762630422795833,0405C52F,true,Rx,0,5,02,22,00,72,00,00,00,00,
-1762630422795107,0405C410,true,Rx,0,8,00,01,74,36,89,1D,9A,0B,
-1762630422794979,0405C430,true,Rx,0,8,00,64,2F,24,2C,00,02,00,
-1762630422794851,0405C410,true,Rx,0,8,01,01,E1,36,8F,1B,D6,0A,
-1762630422794681,0405C430,true,Rx,0,8,01,64,65,24,42,04,0F,04,
-1762630422794595,0405C530,true,Rx,0,5,00,B6,01,A2,00,00,00,00,
-1762630422794467,0405C410,true,Rx,0,8,02,01,FA,36,2B,1C,D0,0A,
-1762630422794297,0405C430,true,Rx,0,8,02,64,4C,24,9E,FE,02,01,
-1762630422794211,0405C530,true,Rx,0,5,02,91,02,18,02,00,00,00,
-1762630422794083,0405C530,true,Rx,0,5,01,04,05,07,FF,00,00,00,
-1762630422791822,040A2012,true,Rx,0,8,FF,FF,30,00,65,04,D6,85,
-1762630422791694,04056412,true,Rx,0,8,FD,FF,08,00,33,00,D6,85,
-1762630422791524,0401E412,true,Rx,0,7,00,05,47,00,49,FE,01,00,
-1762630422791396,0401E412,true,Rx,0,7,01,05,FC,FF,57,FF,01,00,
-1762630422791225,0401E452,true,Rx,0,8,01,D7,B2,01,00,00,0F,FD,
-1762630422791097,0401E452,true,Rx,0,8,00,D7,9A,FF,FF,FF,30,F6,
-1762630422790244,040A2011,true,Rx,0,8,CF,FF,FA,FF,0D,04,D9,85,
-1762630422790073,04056411,true,Rx,0,8,FD,FF,0C,00,84,FD,D9,85,
-1762630422783886,0401E411,true,Rx,0,7,00,05,62,01,F1,FE,01,00,
-1762630422783758,0401E411,true,Rx,0,7,01,05,F1,FF,A0,FE,01,00,
-1762630422783630,0401E451,true,Rx,0,8,00,E0,64,01,00,00,BF,F8,
-1762630422783502,0401E451,true,Rx,0,8,01,E0,59,00,00,00,EF,FA,
-1762630422780175,0401E481,true,Rx,0,4,11,01,C2,FE,00,00,00,00,
-1762630422780047,0401E481,true,Rx,0,4,11,00,EC,FE,00,00,00,00,
-1762630422779961,0401E481,true,Rx,0,4,12,00,39,FE,00,00,00,00,
-1762630422779833,0401E481,true,Rx,0,4,12,01,6F,FF,00,00,00,00,
-1762630422776847,0405200E,true,Rx,0,2,00,00,00,00,00,00,00,00,
-1762630422776761,0405200D,true,Rx,0,2,00,00,00,00,00,00,00,00,
-1762630422771855,040A2012,true,Rx,0,8,0D,00,45,FF,74,03,EA,85,
-1762630422771727,04056412,true,Rx,0,8,FC,FF,08,00,29,00,EA,85,
-1762630422771514,0401E412,true,Rx,0,7,00,05,3A,00,44,FE,01,00,
-1762630422771386,0401E412,true,Rx,0,7,01,05,FC,FF,5C,FF,01,00,
-1762630422771258,0401E452,true,Rx,0,8,01,EB,B0,01,00,00,1D,FD,
-1762630422771130,0401E452,true,Rx,0,8,00,EB,95,FF,FF,FF,28,F6,
-1762630422770191,040A2011,true,Rx,0,8,2B,00,2C,00,48,03,ED,85,
-1762630422770063,04056411,true,Rx,0,8,FE,FF,0C,00,83,FD,ED,85,
-1762630422763919,0401E411,true,Rx,0,7,00,05,2E,01,D8,FE,01,00,
-1762630422763791,0401E411,true,Rx,0,7,01,05,F6,FF,B7,FE,01,00,
-1762630422763663,0401E451,true,Rx,0,8,00,F4,62,01,00,00,CE,F8,
-1762630422763535,0401E451,true,Rx,0,8,01,F4,57,00,00,00,F7,FA,
-1762630422760250,0401E481,true,Rx,0,4,11,01,C2,FE,00,00,00,00,
-1762630422760122,0401E481,true,Rx,0,4,11,00,EC,FE,00,00,00,00,
-1762630422760037,0401E481,true,Rx,0,4,12,00,39,FE,00,00,00,00,
-1762630422759909,0401E481,true,Rx,0,4,12,01,6F,FF,00,00,00,00,
-1762630422759823,0405240A,true,Rx,0,3,9D,FF,00,00,00,00,00,00,
-1762630422751845,040A2012,true,Rx,0,8,8A,FF,F1,00,47,05,FE,85,
-1762630422751717,04056412,true,Rx,0,8,FE,FF,06,00,1F,00,FE,85,
-1762630422751418,0401E412,true,Rx,0,7,00,05,39,00,52,FE,01,00,
-1762630422751290,0401E412,true,Rx,0,7,01,05,FC,FF,73,FF,01,00,
-1762630422751162,0401E452,true,Rx,0,8,01,FF,AF,01,00,00,1A,FD,
-1762630422751034,0401E432,true,Rx,0,6,00,00,00,00,00,00,00,00,
-1762630422750906,0401E432,true,Rx,0,6,01,00,00,00,00,00,00,00,
-1762630422750778,0401E452,true,Rx,0,8,00,FF,90,FF,FF,FF,16,F6,
-1762630422750394,0405280C,true,Rx,0,2,00,00,00,00,00,00,00,00,
-1762630422750266,0405280B,true,Rx,0,2,00,00,00,00,00,00,00,00,
-1762630422750138,040A2011,true,Rx,0,8,65,00,D9,FF,CE,04,01,86,
-1762630422750010,04056411,true,Rx,0,8,FF,FF,0C,00,82,FD,01,86,
-1762630422749882,04072001,true,Rx,0,4,01,01,01,01,00,00,00,00,
-1762630422746896,0405C40F,true,Rx,0,8,00,01,01,40,FD,1D,AE,F5,
-1762630422746725,0405C42F,true,Rx,0,8,00,64,F2,DC,75,FF,CF,00,
-1762630422746597,0405C40F,true,Rx,0,8,01,01,5E,3F,FA,1D,7C,F4,
-1762630422746469,0405C42F,true,Rx,0,8,01,64,69,DD,CA,00,D7,00,
-1762630422746341,0405C52F,true,Rx,0,5,00,CC,FF,6D,00,00,00,00,
-1762630422746213,0405C40F,true,Rx,0,8,02,01,E8,40,EA,1D,D7,F3,
-1762630422746085,0405C42F,true,Rx,0,8,02,64,A8,DD,03,00,58,00,
-1762630422745957,0405C52F,true,Rx,0,5,02,03,00,66,00,00,00,00,
-1762630422745872,0405C52F,true,Rx,0,5,01,87,00,85,FF,00,00,00,
-1762630422745104,0405C410,true,Rx,0,8,00,01,C4,36,0D,1C,5D,0C,
-1762630422744933,0405C430,true,Rx,0,8,00,64,E6,23,F6,01,56,01,
-1762630422744805,0405C410,true,Rx,0,8,01,01,08,37,F0,1B,AC,0B,
-1762630422744677,0405C430,true,Rx,0,8,01,64,45,24,39,05,28,05,
-1762630422744549,0405C530,true,Rx,0,5,00,AA,00,54,01,00,00,00,
-1762630422744421,0405C410,true,Rx,0,8,02,01,41,37,D9,19,23,0A,
-1762630422744293,0405C430,true,Rx,0,8,02,64,68,24,AA,FF,60,03,
-1762630422744165,0405C530,true,Rx,0,5,02,E8,01,AA,00,00,00,00,
-1762630422744037,0405C530,true,Rx,0,5,01,7C,00,31,FC,00,00,00,
-1762630422743909,0401E411,true,Rx,0,7,00,05,26,01,DE,FE,01,00,
-1762630422743781,0401E411,true,Rx,0,7,01,05,F5,FF,BF,FE,01,00,
-1762630422743611,0401E451,true,Rx,0,8,00,08,5F,01,00,00,D8,F8,
-1762630422743483,0401E431,true,Rx,0,6,00,00,00,00,00,00,00,00,
-1762630422743355,0401E431,true,Rx,0,6,01,00,00,00,00,00,00,00,
-1762630422743227,0401E451,true,Rx,0,8,01,08,54,00,00,00,F9,FA,
-1762630422741691,04098C31,true,Rx,0,3,00,9F,09,00,00,00,00,00,
-1762630422741605,04098C51,true,Rx,0,3,00,69,01,00,00,00,00,00,
-1762630422740155,0401E481,true,Rx,0,4,11,01,C0,FE,00,00,00,00,
-1762630422740070,0401E481,true,Rx,0,4,11,00,F1,FE,00,00,00,00,
-1762630422739942,0401E481,true,Rx,0,4,12,00,36,FE,00,00,00,00,
-1762630422739856,0401E481,true,Rx,0,4,12,01,72,FF,00,00,00,00,
-1762630422738576,04030C82,true,Rx,0,4,00,01,00,00,00,00,00,00,
-1762630422738406,04030CE2,true,Rx,0,8,8D,00,00,00,C2,64,1E,67,
-1762630422731878,040A2012,true,Rx,0,8,77,00,4B,00,FE,01,12,86,
-1762630422731750,04056412,true,Rx,0,8,FB,FF,06,00,14,00,12,86,
-1762630422731451,0401E412,true,Rx,0,7,00,05,2F,00,36,FE,01,00,
-1762630422731323,0401E412,true,Rx,0,7,01,05,FC,FF,65,FF,01,00,
-1762630422731195,0401E452,true,Rx,0,8,01,13,AD,01,00,00,23,FD,
-1762630422731067,0401E452,true,Rx,0,8,00,13,8B,FF,FF,FF,16,F6,
-1762630422730214,040A2011,true,Rx,0,8,7B,FF,0A,00,A4,03,15,86,
-1762630422730043,04056411,true,Rx,0,8,FF,FF,0C,00,81,FD,15,86,
-1762630422723985,0405200C,true,Rx,0,2,00,00,00,00,00,00,00,00,
-1762630422723857,0401E411,true,Rx,0,7,00,05,2F,01,EE,FE,01,00,
-1762630422723729,0401E411,true,Rx,0,7,01,05,F1,FF,AC,FE,01,00,
-1762630422723558,0401E451,true,Rx,0,8,01,1C,51,00,00,00,08,FB,
-1762630422723430,0401E451,true,Rx,0,8,00,1C,5C,01,00,00,DA,F8,
-1762630422720670,0405200B,true,Rx,0,2,00,00,00,00,00,00,00,00,
-1762630422720200,0401E481,true,Rx,0,4,11,01,C0,FE,00,00,00,00,
-1762630422720072,0401E481,true,Rx,0,4,11,00,F1,FE,00,00,00,00,
-1762630422719987,0401E481,true,Rx,0,4,12,00,36,FE,00,00,00,00,
-1762630422719859,0401E481,true,Rx,0,4,12,01,72,FF,00,00,00,00,
-1762630422712862,040D6863,true,Rx,0,6,00,E1,00,00,00,00,00,00,
-1762630422711795,040A2012,true,Rx,0,8,E0,00,D9,FF,2F,05,26,86,
-1762630422711667,04056412,true,Rx,0,8,FC,FF,07,00,0A,00,26,86,
-1762630422711454,0401E412,true,Rx,0,7,00,05,2A,00,39,FE,01,00,
-1762630422711326,0401E412,true,Rx,0,7,01,05,FF,FF,72,FF,01,00,
-1762630422711198,0401E452,true,Rx,0,8,01,27,AB,01,00,00,23,FD,
-1762630422711070,0401E452,true,Rx,0,8,00,27,86,FF,FF,FF,14,F6,
-1762630422710174,040A2011,true,Rx,0,8,ED,00,ED,FF,BE,02,29,86,
-1762630422710046,04056411,true,Rx,0,8,FE,FF,0B,00,80,FD,29,86,
-1762630422709961,040D6843,true,Rx,0,3,00,00,00,00,00,00,00,00,
-1762630422709065,040D6863,true,Rx,0,6,01,19,02,00,00,02,00,00,
-1762630422707827,0405240A,true,Rx,0,3,87,FF,00,00,00,00,00,00,
-1762630422706889,040D6843,true,Rx,0,3,01,00,00,00,00,00,00,00,
-1762630422703902,0401E411,true,Rx,0,7,00,05,4E,01,F0,FE,01,00,
-1762630422703774,0401E411,true,Rx,0,7,01,05,F3,FF,CF,FE,01,00,
-1762630422703604,0401E451,true,Rx,0,8,00,30,5A,01,00,00,DA,F8,
-1762630422703476,0401E451,true,Rx,0,8,01,30,4D,00,00,00,FD,FA,
-1762630422700190,04072001,true,Rx,0,4,01,01,01,01,00,00,00,00,
-1762630422699934,0401E481,true,Rx,0,4,11,01,BC,FE,00,00,00,00,
-1762630422699806,0401E481,true,Rx,0,4,11,00,F9,FE,00,00,00,00,
-1762630422699721,0401E481,true,Rx,0,4,12,00,32,FE,00,00,00,00,
-1762630422699593,0401E481,true,Rx,0,4,12,01,76,FF,00,00,00,00,
-1762630422697844,0405200E,true,Rx,0,2,00,00,00,00,00,00,00,00,
-1762630422697716,0405200D,true,Rx,0,2,00,00,00,00,00,00,00,00,
-1762630422696863,0405C40F,true,Rx,0,8,00,01,AB,3F,DD,1D,B5,F5,
-1762630422696692,0405C42F,true,Rx,0,8,00,64,BE,DC,6D,FF,ED,00,
-1762630422696564,0405C40F,true,Rx,0,8,01,01,C9,3E,34,1E,13,F4,
-1762630422696436,0405C42F,true,Rx,0,8,01,64,B9,DC,D7,FF,BA,FF,
-1762630422696308,0405C52F,true,Rx,0,5,00,37,00,0D,01,00,00,00,
-1762630422696180,0405C40F,true,Rx,0,8,02,01,F8,3F,67,1E,A7,F2,
-1762630422696052,0405C42F,true,Rx,0,8,02,64,DD,DC,56,00,74,00,
-1762630422695924,0405C52F,true,Rx,0,5,02,50,00,6F,00,00,00,00,
-1762630422695796,0405C52F,true,Rx,0,5,01,C2,FE,61,01,00,00,00,
-1762630422695071,0405C410,true,Rx,0,8,00,01,F9,36,EB,1B,80,0B,
-1762630422694943,0405C430,true,Rx,0,8,00,64,E4,23,33,00,9B,FF,
-1762630422694772,0405C410,true,Rx,0,8,01,01,10,37,ED,19,F7,09,
-1762630422694644,0405C430,true,Rx,0,8,01,64,2E,24,88,04,43,F9,
-1762630422694559,0405C530,true,Rx,0,5,00,FB,FE,2B,01,00,00,00,
-1762630422694388,0405C410,true,Rx,0,8,02,01,63,37,AF,19,59,09,
-1762630422694260,0405C430,true,Rx,0,8,02,64,80,24,95,01,42,00,
-1762630422694175,0405C530,true,Rx,0,5,02,50,01,D1,FC,00,00,00,
-1762630422694047,0405C530,true,Rx,0,5,01,42,FD,FE,FF,00,00,00,
-1762630422691828,040A2012,true,Rx,0,8,19,00,A8,00,FE,01,3A,86,
-1762630422691700,04056412,true,Rx,0,8,FF,FF,05,00,FF,FF,3A,86,
-1762630422691401,0401E412,true,Rx,0,7,00,05,2B,00,39,FE,01,00,
-1762630422691316,0401E412,true,Rx,0,7,01,05,00,00,74,FF,01,00,
-1762630422691145,0401E452,true,Rx,0,8,00,3B,81,FF,FF,FF,0F,F6,
-1762630422691017,0401E452,true,Rx,0,8,01,3B,AA,01,00,00,24,FD,
-1762630422690164,040A2011,true,Rx,0,8,11,00,B3,FF,A8,04,3D,86,
-1762630422690036,04056411,true,Rx,0,8,FD,FF,09,00,7E,FD,3D,86,
-1762630422688202,1C00005A,true,Rx,0,8,02,FD,11,00,04,01,28,80,
-1762630422688074,1C00005A,true,Rx,0,8,01,CD,00,CC,C6,14,03,00,
-1762630422687946,1C00005A,true,Rx,0,5,01,00,00,58,03,00,00,00,
-1762630422687050,1C000342,true,Rx,0,8,02,FD,11,00,04,01,28,80,
-1762630422686879,1C000342,true,Rx,0,8,01,CD,01,CC,C6,14,03,00,
-1762630422686794,1C000342,true,Rx,0,5,00,00,00,57,03,00,00,00,
-1762630422683892,0401E411,true,Rx,0,7,00,05,5C,01,F2,FE,01,00,
-1762630422683764,0401E411,true,Rx,0,7,01,05,D9,FF,A7,FE,01,00,
-1762630422683636,0401E451,true,Rx,0,8,01,44,4A,00,00,00,0C,FB,
-1762630422683466,0401E451,true,Rx,0,8,00,44,57,01,00,00,DF,F8,
-1762630422680223,0401E481,true,Rx,0,4,11,01,BC,FE,00,00,00,00,
-1762630422680095,0401E481,true,Rx,0,4,11,00,F9,FE,00,00,00,00,
-1762630422680010,0401E481,true,Rx,0,4,12,00,32,FE,00,00,00,00,
-1762630422679882,0401E481,true,Rx,0,4,12,01,76,FF,00,00,00,00,
-1762630422671818,040A2012,true,Rx,0,8,4F,00,6D,00,14,05,4E,86,
-1762630422671690,04056412,true,Rx,0,8,FE,FF,04,00,F3,FF,4E,86,
-1762630422671434,0401E412,true,Rx,0,7,00,05,2C,00,3C,FE,01,00,
-1762630422671306,0401E412,true,Rx,0,7,01,05,FD,FF,70,FF,01,00,
-1762630422671136,0401E452,true,Rx,0,8,01,4F,A8,01,00,00,28,FD,
-1762630422671008,0401E452,true,Rx,0,8,00,4F,7C,FF,FF,FF,08,F6,
-1762630422670154,040A2011,true,Rx,0,8,EE,FF,91,00,12,04,51,86,
-1762630422670026,04056411,true,Rx,0,8,FD,FF,09,00,7C,FD,51,86,
-1762630422663882,0401E411,true,Rx,0,7,00,05,7B,01,00,FF,01,00,
-1762630422663754,0401E411,true,Rx,0,7,01,05,E3,FF,AE,FE,01,00,
-1762630422663626,0401E451,true,Rx,0,8,00,58,55,01,00,00,DA,F8,
-1762630422663456,0401E451,true,Rx,0,8,01,58,47,00,00,00,16,FB,
-1762630422660128,0401E481,true,Rx,0,4,11,01,BC,FE,00,00,00,00,
-1762630422660043,0401E481,true,Rx,0,4,11,00,F9,FE,00,00,00,00,
-1762630422659915,0401E481,true,Rx,0,4,12,00,32,FE,00,00,00,00,
-1762630422659829,0401E481,true,Rx,0,4,12,01,76,FF,00,00,00,00,
-1762630422659659,0405240A,true,Rx,0,3,6B,FF,00,00,00,00,00,00,
-1762630422653515,0405280C,true,Rx,0,2,00,00,00,00,00,00,00,00,
-1762630422651808,040A2012,true,Rx,0,8,B7,FF,F5,FF,6B,02,62,86,
-1762630422651680,04056412,true,Rx,0,8,FE,FF,03,00,E7,FF,62,86,
-1762630422651424,0401E412,true,Rx,0,7,00,05,29,00,3D,FE,01,00,
-1762630422651296,0401E412,true,Rx,0,7,01,05,FC,FF,76,FF,01,00,
-1762630422651126,0401E452,true,Rx,0,8,01,63,A7,01,00,00,28,FD,
-1762630422650998,0401E432,true,Rx,0,6,00,00,00,00,00,00,00,00,
-1762630422650870,0401E432,true,Rx,0,6,01,00,00,00,00,00,00,00,
-1762630422650742,0401E452,true,Rx,0,8,00,63,77,FF,FF,FF,00,F6,
-1762630422650187,040A2011,true,Rx,0,8,89,FF,1A,00,BD,02,65,86,
-1762630422650059,0405280B,true,Rx,0,2,00,00,00,00,00,00,00,00,
-1762630422649931,04056411,true,Rx,0,8,FD,FF,0A,00,7A,FD,65,86,
-1762630422649846,04072001,true,Rx,0,4,01,01,01,01,00,00,00,00,
-1762630422649504,04030C82,true,Rx,0,4,00,01,00,00,00,00,00,00,
-1762630422649376,04030CE2,true,Rx,0,8,8D,00,00,00,C2,64,1E,67,
-1762630422646816,0405C40F,true,Rx,0,8,00,01,67,3F,E3,1D,65,F5,
-1762630422646688,0405C42F,true,Rx,0,8,00,64,9D,DC,69,FF,07,01,
-1762630422646603,0405C52F,true,Rx,0,5,00,6D,00,5D,01,00,00,00,
-1762630422646433,0405C40F,true,Rx,0,8,01,01,89,3E,6E,1E,64,F4,
-1762630422646305,0405C42F,true,Rx,0,8,01,64,C2,DC,24,00,14,00,
-1762630422646177,0405C40F,true,Rx,0,8,02,01,98,3F,E0,1E,2B,F2,
-1762630422646049,0405C42F,true,Rx,0,8,02,64,91,DC,60,00,81,00,
-1762630422645921,0405C52F,true,Rx,0,5,01,89,00,F5,00,00,00,00,
-1762630422645793,0405C52F,true,Rx,0,5,02,68,00,70,00,00,00,00,
-1762630422645067,0405C410,true,Rx,0,8,00,01,0D,37,5E,1B,C8,0A,
-1762630422644939,0405C430,true,Rx,0,8,00,64,EE,23,17,FF,C2,00,
-1762630422644769,0405C410,true,Rx,0,8,01,01,11,37,A1,18,6C,09,
-1762630422644641,0405C430,true,Rx,0,8,01,64,7D,24,6F,00,F8,F9,
-1762630422644513,0405C530,true,Rx,0,5,00,11,00,9C,FF,00,00,00,
-1762630422644385,0405C410,true,Rx,0,8,02,01,5C,37,E1,19,E3,09,
-1762630422644257,0405C430,true,Rx,0,8,02,64,79,24,CF,FD,CD,FD,
-1762630422644129,0405C530,true,Rx,0,5,02,32,FE,C8,FB,00,00,00,
-1762630422644043,0405C530,true,Rx,0,5,01,CF,FC,FC,FC,00,00,00,
-1762630422643873,0401E411,true,Rx,0,7,00,05,72,01,F0,FE,01,00,
-1762630422643745,0401E411,true,Rx,0,7,01,05,EB,FF,C5,FE,01,00,
-1762630422643617,0401E451,true,Rx,0,8,01,6C,44,00,00,00,10,FB,
-1762630422643489,0401E431,true,Rx,0,6,00,00,00,00,00,00,00,00,
-1762630422643361,0401E431,true,Rx,0,6,01,00,00,00,00,00,00,00,
-1762630422643233,0401E451,true,Rx,0,8,00,6C,53,01,00,00,E0,F8,
-1762630422642977,0405200C,true,Rx,0,2,00,00,00,00,00,00,00,00,
-1762630422641697,0405200B,true,Rx,0,2,00,00,00,00,00,00,00,00,
-1762630422641611,04098C31,true,Rx,0,3,00,98,09,00,00,00,00,00,
-1762630422641483,04098C51,true,Rx,0,3,00,52,01,00,00,00,00,00,
-1762630422640246,0401E481,true,Rx,0,4,11,01,B9,FE,00,00,00,00,
-1762630422640118,0401E481,true,Rx,0,4,11,00,03,FF,00,00,00,00,
-1762630422640033,0401E481,true,Rx,0,4,12,00,2E,FE,00,00,00,00,
-1762630422639905,0401E481,true,Rx,0,4,12,01,7A,FF,00,00,00,00,
-1762630422636193,1C0003FA,true,Rx,0,8,02,FD,1F,00,00,00,00,00,
-1762630422636022,1C0003FA,true,Rx,0,8,00,E2,14,02,01,28,80,33,
-1762630422635894,1C0003FA,true,Rx,0,8,00,00,00,57,69,66,69,42,
-1762630422635766,1C0003FA,true,Rx,0,8,6C,65,44,6F,6E,67,6C,65,
-1762630422635681,1C0003FA,true,Rx,0,3,00,3C,03,00,00,00,00,00,
-1762630422631798,040A2012,true,Rx,0,8,25,00,A4,FF,B6,04,76,86,
-1762630422631670,04056412,true,Rx,0,8,FF,FF,03,00,DB,FF,76,86,
-1762630422631500,0401E412,true,Rx,0,7,00,05,1E,00,32,FE,01,00,
-1762630422631329,0401E412,true,Rx,0,7,01,05,FD,FF,73,FF,01,00,
-1762630422631201,0401E452,true,Rx,0,8,01,77,A5,01,00,00,2D,FD,
-1762630422631073,0401E452,true,Rx,0,8,00,77,72,FF,FF,FF,FD,F5,
-1762630422630177,040A2011,true,Rx,0,8,6D,00,24,00,C6,04,79,86,
-1762630422630049,04056411,true,Rx,0,8,FE,FF,09,00,78,FD,79,86,
-1762630422623905,0401E411,true,Rx,0,7,00,05,87,01,00,FF,01,00,
-1762630422623777,0401E411,true,Rx,0,7,01,05,EE,FF,B2,FE,01,00,
-1762630422623607,0401E451,true,Rx,0,8,01,80,41,00,00,00,15,FB,
-1762630422623479,0401E451,true,Rx,0,8,00,80,50,01,00,00,E2,F8,
-1762630422620236,1C0000DA,true,Rx,0,8,02,FD,09,00,00,01,28,80,
-1762630422620108,1C0000DA,true,Rx,0,5,00,86,16,40,03,00,00,00,
-1762630422620023,0401E481,true,Rx,0,4,11,01,B9,FE,00,00,00,00,
-1762630422619895,0401E481,true,Rx,0,4,11,00,03,FF,00,00,00,00,
-1762630422619767,0401E481,true,Rx,0,4,12,00,2E,FE,00,00,00,00,
-1762630422619682,0401E481,true,Rx,0,4,12,01,7A,FF,00,00,00,00,
-1762630422618828,0405200E,true,Rx,0,2,00,00,00,00,00,00,00,00,
-1762630422618146,1C000346,true,Rx,0,8,02,FD,09,00,00,01,28,80,
-1762630422618018,1C000346,true,Rx,0,5,00,86,17,1E,03,00,00,00,
-1762630422616652,0405200D,true,Rx,0,2,00,00,00,00,00,00,00,00,
-1762630422614903,040D6863,true,Rx,0,6,00,97,01,00,00,00,00,00,
-1762630422612898,040D6843,true,Rx,0,3,00,00,00,00,00,00,00,00,
-1762630422611789,040A2012,true,Rx,0,8,F3,FF,B1,00,9F,03,8A,86,
-1762630422611661,04056412,true,Rx,0,8,00,00,04,00,D0,FF,8A,86,
-1762630422611490,0401E412,true,Rx,0,7,00,05,23,00,3F,FE,01,00,
-1762630422611362,0401E412,true,Rx,0,7,01,05,FC,FF,6E,FF,01,00,
-1762630422611191,0401E452,true,Rx,0,8,01,8B,A3,01,00,00,36,FD,
-1762630422611063,0401E452,true,Rx,0,8,00,8B,6D,FF,FF,FF,F1,F5,
-1762630422610210,040A2011,true,Rx,0,8,AE,FF,16,00,E2,03,8D,86,
-1762630422610039,04056411,true,Rx,0,8,FE,FF,08,00,76,FD,8D,86,
-1762630422609911,040D6863,true,Rx,0,6,01,A3,03,00,00,02,00,00,
-1762630422609826,0405240A,true,Rx,0,3,55,FF,00,00,00,00,00,00,
-1762630422609101,040D6843,true,Rx,0,3,01,00,00,00,00,00,00,00,
-1762630422603895,0401E411,true,Rx,0,7,00,05,8B,01,01,FF,01,00,
-1762630422603768,0401E411,true,Rx,0,7,01,05,E4,FF,B6,FE,01,00,
-1762630422603640,0401E451,true,Rx,0,8,01,94,3E,00,00,00,17,FB,
-1762630422603469,0401E451,true,Rx,0,8,00,94,4E,01,00,00,E3,F8,
-1762630422600226,04072001,true,Rx,0,4,01,01,01,01,00,00,00,00,
-1762630422600013,0401E481,true,Rx,0,4,11,01,B7,FE,00,00,00,00,
-1762630422599885,0401E481,true,Rx,0,4,11,00,0C,FF,00,00,00,00,
-1762630422599800,0401E481,true,Rx,0,4,12,00,2A,FE,00,00,00,00,
-1762630422599672,0401E481,true,Rx,0,4,12,01,7E,FF,00,00,00,00,
-1762630422596813,0405C40F,true,Rx,0,8,00,01,C7,3E,59,1E,CD,F5,
-1762630422596685,0405C42F,true,Rx,0,8,00,64,24,DC,83,00,09,00,
-1762630422596557,0405C40F,true,Rx,0,8,01,01,F6,3D,79,1E,38,F5,
-1762630422596429,0405C42F,true,Rx,0,8,01,64,2A,DC,08,01,46,00,
-1762630422596301,0405C52F,true,Rx,0,5,00,91,00,1E,01,00,00,00,
-1762630422596130,0405C40F,true,Rx,0,8,02,01,45,3F,F4,1E,F9,F2,
-1762630422596045,0405C42F,true,Rx,0,8,02,64,6B,DC,5D,00,69,00,
-1762630422595917,0405C52F,true,Rx,0,5,02,4F,00,78,00,00,00,00,
-1762630422595789,0405C52F,true,Rx,0,5,01,FC,FE,24,01,00,00,00,
-1762630422595064,0405C410,true,Rx,0,8,00,01,39,37,E1,19,F4,09,
-1762630422594936,0405C430,true,Rx,0,8,00,64,44,24,E2,FD,DB,01,
-1762630422594808,0405C410,true,Rx,0,8,01,01,3D,37,8B,16,15,0A,
-1762630422594680,0405C430,true,Rx,0,8,01,64,B9,24,07,FD,69,FF,
-1762630422594552,0405C530,true,Rx,0,5,00,40,01,8C,01,00,00,00,
-1762630422594424,0405C410,true,Rx,0,8,02,01,77,37,B9,18,19,0A,
-1762630422594296,0405C430,true,Rx,0,8,02,64,43,24,0E,01,96,02,
-1762630422594168,0405C530,true,Rx,0,5,02,6F,FC,76,FF,00,00,00,
-1762630422594040,0405C530,true,Rx,0,5,01,41,FB,D3,02,00,00,00,
-1762630422591821,040A2012,true,Rx,0,8,CB,00,97,00,19,04,9E,86,
-1762630422591693,04056412,true,Rx,0,8,00,00,02,00,C5,FF,9E,86,
-1762630422591395,0401E412,true,Rx,0,7,00,05,34,00,37,FE,01,00,
-1762630422591267,0401E412,true,Rx,0,7,01,05,FE,FF,62,FF,01,00,
-1762630422591139,0401E452,true,Rx,0,8,01,9F,A2,01,00,00,4B,FD,
-1762630422591011,0401E452,true,Rx,0,8,00,9F,68,FF,FF,FF,E8,F5,
-1762630422590157,040A2011,true,Rx,0,8,1D,FF,B4,FF,24,03,A1,86,
-1762630422590029,04056411,true,Rx,0,8,FE,FF,07,00,73,FD,A1,86,
-1762630422583886,0401E411,true,Rx,0,7,00,05,8F,01,00,FF,01,00,
-1762630422583758,0401E411,true,Rx,0,7,01,05,E1,FF,A5,FE,01,00,
-1762630422583630,0401E451,true,Rx,0,8,01,A8,3B,00,00,00,24,FB,
-1762630422583502,0401E451,true,Rx,0,8,00,A8,4C,01,00,00,EC,F8,
-1762630422580174,0401E481,true,Rx,0,4,11,01,B7,FE,00,00,00,00,
-1762630422580046,0401E481,true,Rx,0,4,11,00,0C,FF,00,00,00,00,
-1762630422579960,0401E481,true,Rx,0,4,12,00,2A,FE,00,00,00,00,
-1762630422579832,0401E481,true,Rx,0,4,12,01,7E,FF,00,00,00,00,
-1762630422571854,040A2012,true,Rx,0,8,68,FF,7A,00,DB,03,B2,86,
-1762630422571726,04056412,true,Rx,0,8,FF,FF,03,00,BA,FF,B2,86,
-1762630422571427,0401E412,true,Rx,0,7,00,05,42,00,41,FE,01,00,
-1762630422571299,0401E412,true,Rx,0,7,01,05,F9,FF,5F,FF,01,00,
-1762630422571171,0401E452,true,Rx,0,8,01,B3,A0,01,00,00,62,FD,
-1762630422571001,0401E452,true,Rx,0,8,00,B3,63,FF,FF,FF,D7,F5,
-1762630422570190,040A2011,true,Rx,0,8,E3,FF,A9,FF,6E,03,B5,86,
-1762630422570062,04056411,true,Rx,0,8,FD,FF,07,00,71,FD,B5,86,
-1762630422564814,0405200C,true,Rx,0,2,00,00,00,00,00,00,00,00,
-1762630422563918,0401E411,true,Rx,0,7,00,05,96,01,07,FF,01,00,
-1762630422563790,0401E411,true,Rx,0,7,01,05,C4,FF,8A,FE,01,00,
-1762630422563620,0401E451,true,Rx,0,8,01,BC,37,00,00,00,45,FB,
-1762630422563492,0401E451,true,Rx,0,8,00,BC,49,01,00,00,EF,F8,
-1762630422560633,0405200B,true,Rx,0,2,00,00,00,00,00,00,00,00,
-1762630422560505,04030C82,true,Rx,0,4,00,01,00,00,00,00,00,00,
-1762630422560335,04030CE2,true,Rx,0,8,8D,00,00,00,C2,64,1E,67,
-1762630422560207,0401E481,true,Rx,0,4,11,01,B7,FE,00,00,00,00,
-1762630422560079,0401E481,true,Rx,0,4,11,00,0C,FF,00,00,00,00,
-1762630422559993,0401E481,true,Rx,0,4,12,00,2A,FE,00,00,00,00,
-1762630422559865,0401E481,true,Rx,0,4,12,01,7E,FF,00,00,00,00,
-1762630422557860,0405240A,true,Rx,0,3,3F,FF,00,00,00,00,00,00,
-1762630422556537,0405280C,true,Rx,0,2,00,00,00,00,00,00,00,00,
-1762630422555172,0405280B,true,Rx,0,2,00,00,00,00,00,00,00,00,
-1762630422551802,040A2012,true,Rx,0,8,BE,00,07,00,6E,02,C6,86,
-1762630422551674,04056412,true,Rx,0,8,FF,FF,00,00,B0,FF,C6,86,
-1762630422551418,0401E412,true,Rx,0,7,00,05,3E,00,31,FE,01,00,
-1762630422551290,0401E412,true,Rx,0,7,01,05,FD,FF,60,FF,01,00,
-1762630422551119,0401E452,true,Rx,0,8,01,C7,9E,01,00,00,78,FD,
-1762630422550991,0401E432,true,Rx,0,6,00,00,00,00,00,00,00,00,
-1762630422550863,0401E432,true,Rx,0,6,01,00,00,00,00,00,00,00,
-1762630422550735,0401E452,true,Rx,0,8,00,C7,5E,FF,FF,FF,D2,F5,
-1762630422550138,040A2011,true,Rx,0,8,20,00,61,00,A3,04,C9,86,
-1762630422550010,04056411,true,Rx,0,8,FD,FF,08,00,6E,FD,C9,86,
-1762630422549924,04072001,true,Rx,0,4,01,01,01,01,00,00,00,00,
-1762630422546810,0405C40F,true,Rx,0,8,00,01,61,3E,B5,1E,DE,F5,
-1762630422546682,0405C42F,true,Rx,0,8,00,64,D2,DB,E6,FF,A2,FF,
-1762630422546554,0405C40F,true,Rx,0,8,01,01,7E,3D,3E,1F,A6,F4,
-1762630422546426,0405C42F,true,Rx,0,8,01,64,BA,DB,51,FF,57,FF,
-1762630422546298,0405C52F,true,Rx,0,5,00,96,00,13,01,00,00,00,
-1762630422546170,0405C40F,true,Rx,0,8,02,01,99,3E,6C,1F,B8,F3,
-1762630422546042,0405C42F,true,Rx,0,8,02,64,D4,DB,AE,FF,C7,FF,
-1762630422545914,0405C52F,true,Rx,0,5,02,CA,FF,A1,00,00,00,00,
-1762630422545786,0405C52F,true,Rx,0,5,01,E5,FF,26,FF,00,00,00,
-1762630422545060,0405C410,true,Rx,0,8,00,01,85,37,1A,18,99,09,
-1762630422544932,0405C430,true,Rx,0,8,00,64,33,24,81,FD,FF,01,
-1762630422544804,0405C410,true,Rx,0,8,01,01,6F,37,32,15,31,0A,
-1762630422544634,0405C430,true,Rx,0,8,01,64,AE,24,66,FC,30,02,
-1762630422544548,0405C530,true,Rx,0,5,00,B7,FE,E9,FF,00,00,00,
-1762630422544378,0405C410,true,Rx,0,8,02,01,9C,37,C2,17,1C,0A,
-1762630422544250,0405C430,true,Rx,0,8,02,64,26,24,DB,02,05,03,
-1762630422544164,0405C530,true,Rx,0,5,02,51,FC,32,01,00,00,00,
-1762630422544037,0405C530,true,Rx,0,5,01,A9,FF,C8,03,00,00,00,
-1762630422543866,0401E411,true,Rx,0,7,00,05,AE,01,05,FF,01,00,
-1762630422543738,0401E411,true,Rx,0,7,01,05,CB,FF,B7,FE,01,00,
-1762630422543610,0401E451,true,Rx,0,8,00,D0,47,01,00,00,F4,F8,
-1762630422543482,0401E431,true,Rx,0,6,00,00,00,00,00,00,00,00,
-1762630422543354,0401E431,true,Rx,0,6,01,00,00,00,00,00,00,00,
-1762630422543226,0401E451,true,Rx,0,8,01,D0,34,00,00,00,45,FB,
-1762630422541647,04098C31,true,Rx,0,3,00,9C,09,00,00,00,00,00,
-1762630422541562,04098C51,true,Rx,0,3,00,B4,00,00,00,00,00,00,
-1762630422540154,0401E481,true,Rx,0,4,11,01,B5,FE,00,00,00,00,
-1762630422540069,0401E481,true,Rx,0,4,11,00,15,FF,00,00,00,00,
-1762630422539941,0401E481,true,Rx,0,4,12,00,26,FE,00,00,00,00,
-1762630422539855,0401E481,true,Rx,0,4,12,01,82,FF,00,00,00,00,
-1762630422537807,0405200E,true,Rx,0,2,00,00,00,00,00,00,00,00,
-1762630422537551,0405200D,true,Rx,0,2,00,00,00,00,00,00,00,00,
-1762630422531834,040A2012,true,Rx,0,8,A7,FF,73,00,31,05,DA,86,
-1762630422531664,04056412,true,Rx,0,8,00,00,03,00,A5,FF,DA,86,
-1762630422531408,0401E412,true,Rx,0,7,00,05,37,00,2E,FE,01,00,
-1762630422531280,0401E412,true,Rx,0,7,01,05,F9,FF,5B,FF,01,00,
-1762630422531152,0401E452,true,Rx,0,8,01,DB,9C,01,00,00,95,FD,
-1762630422531024,0401E452,true,Rx,0,8,00,DB,59,FF,FF,FF,CC,F5,
-1762630422530170,040A2011,true,Rx,0,8,08,00,10,00,11,03,DD,86,
-1762630422530000,04056411,true,Rx,0,8,FC,FF,08,00,6B,FD,DD,86,
-1762630422523899,0401E411,true,Rx,0,7,00,05,A9,01,09,FF,01,00,
-1762630422523771,0401E411,true,Rx,0,7,01,05,CB,FF,9C,FE,01,00,
-1762630422523600,0401E451,true,Rx,0,8,00,E4,45,01,00,00,FD,F8,
-1762630422523472,0401E451,true,Rx,0,8,01,E4,31,00,00,00,57,FB,
-1762630422520229,0401E481,true,Rx,0,4,11,01,B5,FE,00,00,00,00,
-1762630422520101,0401E481,true,Rx,0,4,11,00,15,FF,00,00,00,00,
-1762630422520016,0401E481,true,Rx,0,4,12,00,26,FE,00,00,00,00,
-1762630422519888,0401E481,true,Rx,0,4,12,01,82,FF,00,00,00,00,
-1762630422511824,040A2012,true,Rx,0,8,D0,00,F4,FE,98,02,EE,86,
-1762630422511696,04056412,true,Rx,0,8,FF,FF,00,00,9A,FF,EE,86,
-1762630422511440,0401E412,true,Rx,0,7,00,05,38,00,36,FE,01,00,
-1762630422511312,0401E412,true,Rx,0,7,01,05,FE,FF,75,FF,01,00,
-1762630422511184,0401E452,true,Rx,0,8,01,EF,9B,01,00,00,9E,FD,
-1762630422511014,0401E452,true,Rx,0,8,00,EF,54,FF,FF,FF,C0,F5,
-1762630422510203,040A2011,true,Rx,0,8,EA,00,06,00,27,04,F1,86,
-1762630422510032,04056411,true,Rx,0,8,FE,FF,07,00,68,FD,F1,86,
-1762630422509777,0405240A,true,Rx,0,3,2C,FF,00,00,00,00,00,00,
-1762630422506875,040D6863,true,Rx,0,6,00,B4,01,00,00,00,00,00,
-1762630422504913,040D6843,true,Rx,0,3,00,00,00,00,00,00,00,00,
-1762630422503889,0401E411,true,Rx,0,7,00,05,93,01,09,FF,01,00,
-1762630422503761,0401E411,true,Rx,0,7,01,05,D3,FF,B5,FE,01,00,
-1762630422503633,0401E451,true,Rx,0,8,00,F8,42,01,00,00,06,F9,
-1762630422503462,0401E451,true,Rx,0,8,01,F8,2E,00,00,00,57,FB,
-1762630422503334,040D6863,true,Rx,0,6,01,E1,03,00,00,02,00,00,
-1762630422500902,040D6843,true,Rx,0,3,01,00,00,00,00,00,00,00,
-1762630422500262,04072001,true,Rx,0,4,01,01,01,01,00,00,00,00,
-1762630422499964,0401E481,true,Rx,0,4,11,01,B4,FE,00,00,00,00,
-1762630422499836,0401E481,true,Rx,0,4,11,00,1D,FF,00,00,00,00,
-1762630422499750,0401E481,true,Rx,0,4,12,00,28,FE,00,00,00,00,
-1762630422499622,0401E481,true,Rx,0,4,12,01,80,FF,00,00,00,00,
-1762630422496849,0405C40F,true,Rx,0,8,00,01,C7,3D,FA,1E,C0,F6,
-1762630422496721,0405C42F,true,Rx,0,8,00,64,5F,DB,65,FF,72,00,
-1762630422496550,0405C40F,true,Rx,0,8,01,01,F7,3C,B2,1E,EB,F5,
-1762630422496422,0405C42F,true,Rx,0,8,01,64,8C,DB,A3,00,DC,00,
-1762630422496294,0405C52F,true,Rx,0,5,00,F0,FF,E5,00,00,00,00,
-1762630422496166,0405C40F,true,Rx,0,8,02,01,3F,3E,C7,1F,E4,F3,
-1762630422496038,0405C42F,true,Rx,0,8,02,64,86,DB,9F,FF,BD,FF,
-1762630422495910,0405C52F,true,Rx,0,5,02,A9,FF,A9,00,00,00,00,
-1762630422495825,0405C52F,true,Rx,0,5,01,76,FF,CB,FF,00,00,00,
-1762630422495014,0405C410,true,Rx,0,8,00,01,CF,37,44,15,6F,09,
-1762630422494886,0405C430,true,Rx,0,8,00,64,0E,24,63,FD,F5,01,
-1762630422494758,0405C410,true,Rx,0,8,01,01,C6,37,FF,10,68,0A,
-1762630422494630,0405C430,true,Rx,0,8,01,64,90,24,95,FF,2B,04,
-1762630422494502,0405C530,true,Rx,0,5,00,72,01,97,FE,00,00,00,
-1762630422494374,0405C410,true,Rx,0,8,02,01,ED,37,7A,16,0D,0A,
-1762630422494246,0405C430,true,Rx,0,8,02,64,6D,24,58,03,8D,04,
-1762630422494118,0405C530,true,Rx,0,5,02,EA,01,7F,03,00,00,00,
-1762630422493990,0405C530,true,Rx,0,5,01,7B,03,C6,FD,00,00,00,
-1762630422491815,040A2012,true,Rx,0,8,47,FF,99,00,4C,04,02,87,
-1762630422491687,04056412,true,Rx,0,8,01,00,01,00,8E,FF,02,87,
-1762630422491431,0401E412,true,Rx,0,7,00,05,44,00,31,FE,01,00,
-1762630422491303,0401E412,true,Rx,0,7,01,05,F9,FF,76,FF,01,00,
-1762630422491132,0401E452,true,Rx,0,8,01,03,99,01,00,00,A5,FD,
-1762630422491004,0401E452,true,Rx,0,8,00,03,4F,FF,FF,FF,BA,F5,
-1762630422490193,040A2011,true,Rx,0,8,FE,FF,FC,FF,9B,03,05,87,
-1762630422490023,04056411,true,Rx,0,8,FE,FF,06,00,66,FD,05,87,
-1762630422485799,0405200C,true,Rx,0,2,00,00,00,00,00,00,00,00,
-1762630422483879,0401E411,true,Rx,0,7,00,05,9A,01,0C,FF,01,00,
-1762630422483751,0401E411,true,Rx,0,7,01,05,C6,FF,9A,FE,01,00,
-1762630422483623,0401E451,true,Rx,0,8,01,0C,2B,00,00,00,6A,FB,
-1762630422483495,0401E451,true,Rx,0,8,00,0C,40,01,00,00,12,F9,
-1762630422481490,0405200B,true,Rx,0,2,00,00,00,00,00,00,00,00,
-1762630422480252,0401E481,true,Rx,0,4,11,01,B4,FE,00,00,00,00,
-1762630422480124,0401E481,true,Rx,0,4,11,00,1D,FF,00,00,00,00,
-1762630422480039,0401E481,true,Rx,0,4,12,00,28,FE,00,00,00,00,
-1762630422479911,0401E481,true,Rx,0,4,12,01,80,FF,00,00,00,00,
-1762630422471847,040A2012,true,Rx,0,8,20,00,4B,00,E6,01,16,87,
-1762630422471719,04056412,true,Rx,0,8,FE,FF,00,00,83,FF,16,87,
-1762630422471421,0401E412,true,Rx,0,7,00,05,48,00,38,FE,01,00,
-1762630422471293,0401E412,true,Rx,0,7,01,05,FB,FF,6B,FF,01,00,
-1762630422471165,0401E452,true,Rx,0,8,01,17,98,01,00,00,B4,FD,
-1762630422471037,0401E452,true,Rx,0,8,00,17,4A,FF,FF,FF,AE,F5,
-1762630422470909,04030C82,true,Rx,0,4,00,01,00,00,00,00,00,00,
-1762630422470781,04030CE2,true,Rx,0,8,8D,00,00,00,C2,64,1E,67,
-1762630422470183,040A2011,true,Rx,0,8,5A,FF,D6,FF,09,03,19,87,
-1762630422470055,04056411,true,Rx,0,8,FE,FF,07,00,63,FD,19,87,
-1762630422463869,0401E411,true,Rx,0,7,00,05,7E,01,02,FF,01,00,
-1762630422463784,0401E411,true,Rx,0,7,01,05,C6,FF,B3,FE,01,00,
-1762630422463613,0401E451,true,Rx,0,8,01,20,28,00,00,00,6A,FB,
-1762630422463485,0401E451,true,Rx,0,8,00,20,3E,01,00,00,26,F9,
-1762630422460541,0405200D,true,Rx,0,2,00,00,00,00,00,00,00,00,
-1762630422460157,0401E481,true,Rx,0,4,11,01,B4,FE,00,00,00,00,
-1762630422460029,0401E481,true,Rx,0,4,11,00,1D,FF,00,00,00,00,
-1762630422459944,0401E481,true,Rx,0,4,12,00,28,FE,00,00,00,00,
-1762630422459816,0401E481,true,Rx,0,4,12,01,80,FF,00,00,00,00,
-1762630422459730,0405240A,true,Rx,0,3,1A,FF,00,00,00,00,00,00,
-1762630422459645,0405200E,true,Rx,0,2,00,00,00,00,00,00,00,00,
-1762630422458109,0405280B,true,Rx,0,2,00,00,00,00,00,00,00,00,
-1762630422456403,0405280C,true,Rx,0,2,00,00,00,00,00,00,00,00,
-1762630422451837,040A2012,true,Rx,0,8,B8,FF,95,00,3C,05,2A,87,
-1762630422451667,04056412,true,Rx,0,8,FF,FF,00,00,78,FF,2A,87,
-1762630422451581,04057002,true,Rx,0,4,0F,DE,15,69,00,00,00,00,
-1762630422451411,0401E412,true,Rx,0,7,00,05,35,00,2A,FE,01,00,
-1762630422451283,0401E412,true,Rx,0,7,01,05,FC,FF,76,FF,01,00,
-1762630422451112,0401E452,true,Rx,0,8,01,2B,96,01,00,00,BB,FD,
-1762630422450984,0401E432,true,Rx,0,6,00,00,00,00,00,00,00,00,
-1762630422450856,0401E432,true,Rx,0,6,01,00,00,00,00,00,00,00,
-1762630422450728,0401E452,true,Rx,0,8,00,2B,44,FF,FF,FF,AD,F5,
-1762630422450131,040A2011,true,Rx,0,8,BA,00,E3,FF,55,05,2D,87,
-1762630422450003,04056411,true,Rx,0,8,FE,FF,06,00,60,FD,2D,87,
-1762630422449875,04072001,true,Rx,0,4,01,01,01,01,00,00,00,00,
-1762630422446718,0405C40F,true,Rx,0,8,00,01,7C,3D,3F,1F,0B,F7,
-1762630422446590,0405C42F,true,Rx,0,8,00,64,25,DB,50,FF,F2,FF,
-1762630422446419,0405C40F,true,Rx,0,8,01,01,63,3C,04,1F,BD,F5,
-1762630422446291,0405C42F,true,Rx,0,8,01,64,1C,DB,61,FF,49,00,
-1762630422446163,0405C52F,true,Rx,0,5,00,9C,FF,D0,00,00,00,00,
-1762630422446035,0405C40F,true,Rx,0,8,02,01,59,3D,0B,20,31,F4,
-1762630422445907,0405C42F,true,Rx,0,8,02,64,44,DB,A1,FF,2F,00,
-1762630422445779,0405C52F,true,Rx,0,5,02,91,FF,86,00,00,00,00,
-1762630422445694,0405C52F,true,Rx,0,5,01,E6,FE,71,00,00,00,00,
-1762630422445096,0405C410,true,Rx,0,8,00,01,25,38,FA,13,26,09,
-1762630422444968,0405C430,true,Rx,0,8,00,64,F5,23,34,FD,66,01,
-1762630422444798,0405C410,true,Rx,0,8,01,01,37,38,73,10,3D,0A,
-1762630422444670,0405C430,true,Rx,0,8,01,64,9B,24,13,04,30,FE,
-1762630422444584,0405C530,true,Rx,0,5,00,78,FB,05,02,00,00,00,
-1762630422444414,0405C410,true,Rx,0,8,02,01,FB,37,9B,14,76,09,
-1762630422444286,0405C430,true,Rx,0,8,02,64,A6,24,24,04,1A,05,
-1762630422444158,0405C530,true,Rx,0,5,02,06,FC,92,04,00,00,00,
-1762630422444072,0405C530,true,Rx,0,5,01,17,05,83,04,00,00,00,
-1762630422443902,0401E411,true,Rx,0,7,00,05,88,01,1A,FF,01,00,
-1762630422443774,0401E411,true,Rx,0,7,01,05,BD,FF,9E,FE,01,00,
-1762630422443603,0401E451,true,Rx,0,8,00,34,3C,01,00,00,28,F9,
-1762630422443518,0401E431,true,Rx,0,6,00,00,00,00,00,00,00,00,
-1762630422443347,0401E431,true,Rx,0,6,01,00,00,00,00,00,00,00,
-1762630422443219,0401E451,true,Rx,0,8,01,34,24,00,00,00,7A,FB,
-1762630422441641,04098C31,true,Rx,0,3,00,9E,09,00,00,00,00,00,
-1762630422441555,04098C51,true,Rx,0,3,00,0F,01,00,00,00,00,00,
-1762630422440233,0401E481,true,Rx,0,4,11,01,B3,FE,00,00,00,00,
-1762630422440147,0401E481,true,Rx,0,4,11,00,24,FF,00,00,00,00,
-1762630422440019,0401E481,true,Rx,0,4,12,00,2F,FE,00,00,00,00,
-1762630422439934,0401E481,true,Rx,0,4,12,01,79,FF,00,00,00,00,
-1762630422438185,1C00005A,true,Rx,0,8,02,FD,11,00,04,01,28,80,
-1762630422438057,1C00005A,true,Rx,0,8,01,CD,00,CD,C6,14,03,00,
-1762630422437929,1C00005A,true,Rx,0,5,01,00,00,1B,03,00,00,00,
-1762630422437033,1C000342,true,Rx,0,8,02,FD,11,00,04,01,28,80,
-1762630422436905,1C000342,true,Rx,0,8,01,CD,01,CD,C6,14,03,00,
-1762630422436777,1C000342,true,Rx,0,5,00,00,00,14,03,00,00,00,
-1762630422431828,040A2012,true,Rx,0,8,BE,FF,25,FF,CE,01,3E,87,
-1762630422431657,04056412,true,Rx,0,8,01,00,00,00,6B,FF,3E,87,
-1762630422431486,0401E412,true,Rx,0,7,00,05,31,00,28,FE,01,00,
-1762630422431358,0401E412,true,Rx,0,7,01,05,FD,FF,7D,FF,01,00,
-1762630422431230,0401E452,true,Rx,0,8,01,3F,95,01,00,00,B8,FD,
-1762630422431060,0401E452,true,Rx,0,8,00,3F,3F,FF,FF,FF,B2,F5,
-1762630422430164,040A2011,true,Rx,0,8,3D,00,12,00,44,02,41,87,
-1762630422429993,04056411,true,Rx,0,8,FE,FF,06,00,5D,FD,41,87,
-1762630422423892,0401E411,true,Rx,0,7,00,05,8F,01,0E,FF,01,00,
-1762630422423764,0401E411,true,Rx,0,7,01,05,BB,FF,9B,FE,01,00,
-1762630422423636,0401E451,true,Rx,0,8,00,48,39,01,00,00,38,F9,
-1762630422423465,0401E451,true,Rx,0,8,01,48,21,00,00,00,8C,FB,
-1762630422420180,0401E481,true,Rx,0,4,11,01,B3,FE,00,00,00,00,
-1762630422420095,0401E481,true,Rx,0,4,11,00,24,FF,00,00,00,00,
-1762630422419967,0401E481,true,Rx,0,4,12,00,2F,FE,00,00,00,00,
-1762630422419881,0401E481,true,Rx,0,4,12,01,79,FF,00,00,00,00,
-1762630422411818,040A2012,true,Rx,0,8,0F,00,C2,00,AD,05,52,87,
-1762630422411647,04056412,true,Rx,0,8,01,00,00,00,5F,FF,52,87,
-1762630422411476,0401E412,true,Rx,0,7,00,05,37,00,2B,FE,01,00,
-1762630422411348,0401E412,true,Rx,0,7,01,05,F9,FF,85,FF,01,00,
-1762630422411220,0401E452,true,Rx,0,8,01,53,94,01,00,00,AF,FD,
-1762630422411092,0401E452,true,Rx,0,8,00,53,3A,FF,FF,FF,B5,F5,
-1762630422410154,040A2011,true,Rx,0,8,53,00,FC,FF,3F,05,55,87,
-1762630422410026,04056411,true,Rx,0,8,FD,FF,05,00,5A,FD,55,87,
-1762630422409898,040D6863,true,Rx,0,6,00,C7,01,00,00,00,00,00,
-1762630422409812,040D6843,true,Rx,0,3,00,00,00,00,00,00,00,00,
-1762630422407978,0405200C,true,Rx,0,2,00,00,00,00,00,00,00,00,
-1762630422407850,040D6863,true,Rx,0,6,01,EB,03,00,00,02,00,00,
-1762630422407764,0405240A,true,Rx,0,3,03,FF,00,00,00,00,00,00,
-1762630422405845,040D6843,true,Rx,0,3,01,00,00,00,00,00,00,00,
-1762630422404565,0405200B,true,Rx,0,2,00,00,00,00,00,00,00,00,
-1762630422403882,0401E411,true,Rx,0,7,00,05,8B,01,17,FF,01,00,
-1762630422403754,0401E411,true,Rx,0,7,01,05,C0,FF,C3,FE,01,00,
-1762630422403626,0401E451,true,Rx,0,8,00,5C,37,01,00,00,41,F9,
-1762630422403455,0401E451,true,Rx,0,8,01,5C,1E,00,00,00,80,FB,
-1762630422400255,04072001,true,Rx,0,4,01,01,01,01,00,00,00,00,
-1762630422400042,0401E481,true,Rx,0,4,11,01,B3,FE,00,00,00,00,
-1762630422399914,0401E481,true,Rx,0,4,11,00,2F,FF,00,00,00,00,
-1762630422399829,0401E481,true,Rx,0,4,12,00,37,FE,00,00,00,00,
-1762630422399701,0401E481,true,Rx,0,4,12,01,71,FF,00,00,00,00,
-1762630422396800,0405C40F,true,Rx,0,8,00,01,37,3D,A3,1F,44,F7,
-1762630422396672,0405C42F,true,Rx,0,8,00,64,DB,DA,F2,FF,B2,FF,
-1762630422396544,0405C40F,true,Rx,0,8,01,01,31,3C,4C,1F,D8,F5,
-1762630422396416,0405C42F,true,Rx,0,8,01,64,0D,DB,17,FF,C6,00,
-1762630422396288,0405C52F,true,Rx,0,5,00,41,FF,D1,FF,00,00,00,
-1762630422396160,0405C40F,true,Rx,0,8,02,01,0C,3D,19,20,72,F4,
-1762630422395989,0405C42F,true,Rx,0,8,02,64,FF,DA,98,FF,49,00,
-1762630422395904,0405C52F,true,Rx,0,5,02,99,FF,1C,00,00,00,00,
-1762630422395776,0405C52F,true,Rx,0,5,01,FD,FE,A4,FF,00,00,00,
-1762630422395093,0405C410,true,Rx,0,8,00,01,64,38,91,13,BB,08,
-1762630422394922,0405C430,true,Rx,0,8,00,64,09,24,EA,FF,63,FF,
-1762630422394794,0405C410,true,Rx,0,8,01,01,43,38,AA,0F,33,0A,
-1762630422394666,0405C430,true,Rx,0,8,01,64,95,24,D8,04,B3,FC,
-1762630422394538,0405C530,true,Rx,0,5,00,68,FA,9C,02,00,00,00,
-1762630422394410,0405C410,true,Rx,0,8,02,01,0C,38,63,13,2C,09,
-1762630422394282,0405C430,true,Rx,0,8,02,64,5E,24,75,00,B2,01,
-1762630422394154,0405C530,true,Rx,0,5,02,09,FC,E7,03,00,00,00,
-1762630422394026,0405C530,true,Rx,0,5,01,A0,FD,56,FE,00,00,00,
-1762630422391808,040A2012,true,Rx,0,8,83,00,EA,FF,B5,01,66,87,
-1762630422391680,04056412,true,Rx,0,8,FF,FF,00,00,52,FF,66,87,
-1762630422391509,0401E412,true,Rx,0,7,00,05,2E,00,25,FE,01,00,
-1762630422391381,0401E412,true,Rx,0,7,01,05,01,00,82,FF,01,00,
-1762630422391210,0401E452,true,Rx,0,8,01,67,92,01,00,00,A3,FD,
-1762630422391082,0401E452,true,Rx,0,8,00,67,35,FF,FF,FF,C2,F5,
-1762630422390187,040A2011,true,Rx,0,8,93,FF,60,00,80,03,69,87,
-1762630422390059,04056411,true,Rx,0,8,FE,FF,05,00,57,FD,69,87,
-1762630422383915,0401E411,true,Rx,0,7,00,05,AA,01,28,FF,01,00,
-1762630422383787,0401E411,true,Rx,0,7,01,05,CC,FF,B8,FE,01,00,
-1762630422383616,0401E451,true,Rx,0,8,00,70,35,01,00,00,46,F9,
-1762630422383488,0401E451,true,Rx,0,8,01,70,1B,00,00,00,7D,FB,
-1762630422382507,04030C82,true,Rx,0,4,00,01,00,00,00,00,00,00,
-1762630422382336,04030CE2,true,Rx,0,8,8D,00,00,00,C2,64,1E,67,
-1762630422381739,0405200D,true,Rx,0,2,00,00,00,00,00,00,00,00,
-1762630422380587,0405200E,true,Rx,0,2,00,00,00,00,00,00,00,00,
-1762630422380118,0401E481,true,Rx,0,4,11,01,B3,FE,00,00,00,00,
-1762630422380032,0401E481,true,Rx,0,4,11,00,2F,FF,00,00,00,00,
-1762630422379904,0401E481,true,Rx,0,4,12,00,39,FE,00,00,00,00,
-1762630422379819,0401E481,true,Rx,0,4,12,01,6F,FF,00,00,00,00,
-1762630422371798,040A2012,true,Rx,0,8,C6,00,CD,FF,A3,05,7A,87,
-1762630422371670,04056412,true,Rx,0,8,01,00,00,00,45,FF,7A,87,
-1762630422371499,0401E412,true,Rx,0,7,00,05,34,00,33,FE,01,00,
-1762630422371371,0401E412,true,Rx,0,7,01,05,FC,FF,94,FF,01,00,
-1762630422371243,0401E452,true,Rx,0,8,01,7B,91,01,00,00,88,FD,
-1762630422371073,0401E452,true,Rx,0,8,00,7B,30,FF,FF,FF,C6,F5,
-1762630422370177,040A2011,true,Rx,0,8,C0,FF,F3,FF,AC,03,7D,87,
-1762630422370049,04056411,true,Rx,0,8,FE,FF,03,00,54,FD,7D,87,
-1762630422363905,0401E411,true,Rx,0,7,00,05,BE,01,2C,FF,01,00,
-1762630422363777,0401E411,true,Rx,0,7,01,05,E3,FF,DA,FE,01,00,
-1762630422363606,0401E451,true,Rx,0,8,00,84,33,01,00,00,48,F9,
-1762630422363478,0401E451,true,Rx,0,8,01,84,18,00,00,00,60,FB,
-1762630422362284,0405280B,true,Rx,0,2,00,00,00,00,00,00,00,00,
-1762630422361430,0405280C,true,Rx,0,2,00,00,00,00,00,00,00,00,
-1762630422360278,0401E481,true,Rx,0,4,11,01,B3,FE,00,00,00,00,
-1762630422360150,0401E481,true,Rx,0,4,11,00,2F,FF,00,00,00,00,
-1762630422360065,0401E481,true,Rx,0,4,12,00,39,FE,00,00,00,00,
-1762630422359937,0401E481,true,Rx,0,4,12,01,6F,FF,00,00,00,00,
-1762630422359681,0405240A,true,Rx,0,3,EB,FE,00,00,00,00,00,00,
-1762630422351831,040A2012,true,Rx,0,8,A6,FF,A7,00,17,02,8E,87,
-1762630422351703,04056412,true,Rx,0,8,02,00,FF,FF,38,FF,8E,87,
-1762630422351404,0401E412,true,Rx,0,7,00,05,37,00,36,FE,01,00,
-1762630422351276,0401E412,true,Rx,0,7,01,05,00,00,8D,FF,01,00,
-1762630422351105,0401E452,true,Rx,0,8,01,8F,90,01,00,00,72,FD,
-1762630422350977,0401E432,true,Rx,0,6,00,00,00,00,00,00,00,00,
-1762630422350849,0401E432,true,Rx,0,6,01,00,00,00,00,00,00,00,
-1762630422350721,0401E452,true,Rx,0,8,00,8F,2A,FF,FF,FF,C8,F5,
-1762630422350167,040A2011,true,Rx,0,8,5D,FE,0D,00,E3,03,91,87,
-1762630422349996,04056411,true,Rx,0,8,FD,FF,03,00,51,FD,91,87,
-1762630422349911,04072001,true,Rx,0,4,01,01,01,01,00,00,00,00,
-1762630422346839,0405C40F,true,Rx,0,8,00,01,B0,3C,E9,1F,AD,F7,
-1762630422346711,0405C42F,true,Rx,0,8,00,64,8B,DA,73,FF,7B,00,
-1762630422346583,0405C40F,true,Rx,0,8,01,01,CB,3B,69,1F,E3,F6,
-1762630422346412,0405C42F,true,Rx,0,8,01,64,A6,DA,00,FF,34,01,
-1762630422346327,0405C52F,true,Rx,0,5,00,1D,FF,8C,FF,00,00,00,
-1762630422346199,0405C40F,true,Rx,0,8,02,01,AE,3C,6D,20,8D,F4,
-1762630422346028,0405C42F,true,Rx,0,8,02,64,CB,DA,A3,FF,56,00,
-1762630422345943,0405C52F,true,Rx,0,5,02,9D,FF,E7,FF,00,00,00,
-1762630422345815,0405C52F,true,Rx,0,5,01,49,00,C6,00,00,00,00,
-1762630422345090,0405C410,true,Rx,0,8,00,01,A7,38,A7,12,32,08,
-1762630422344919,0405C430,true,Rx,0,8,00,64,27,24,13,02,DF,FE,
-1762630422344791,0405C410,true,Rx,0,8,01,01,80,38,2A,10,44,0C,
-1762630422344663,0405C430,true,Rx,0,8,01,64,22,24,4A,05,C5,FA,
-1762630422344535,0405C530,true,Rx,0,5,00,2B,FC,5E,FF,00,00,00,
-1762630422344407,0405C410,true,Rx,0,8,02,01,4A,38,65,13,46,0A,
-1762630422344279,0405C430,true,Rx,0,8,02,64,FF,23,FE,FC,0D,FE,
-1762630422344151,0405C530,true,Rx,0,5,02,70,FB,66,03,00,00,00,
-1762630422344023,0405C530,true,Rx,0,5,01,38,FB,25,04,00,00,00,
-1762630422343852,0401E411,true,Rx,0,7,00,05,CE,01,30,FF,01,00,
-1762630422343724,0401E411,true,Rx,0,7,01,05,CE,FF,98,FE,01,00,
-1762630422343596,0401E451,true,Rx,0,8,00,98,32,01,00,00,48,F9,
-1762630422343468,0401E431,true,Rx,0,6,00,00,00,00,00,00,00,00,
-1762630422343340,0401E431,true,Rx,0,6,01,00,00,00,00,00,00,00,
-1762630422343212,0401E451,true,Rx,0,8,01,98,15,00,00,00,74,FB,
-1762630422341634,04098C31,true,Rx,0,3,00,8C,09,00,00,00,00,00,
-1762630422341548,04098C51,true,Rx,0,3,00,1F,01,00,00,00,00,00,
-1762630422339970,0401E481,true,Rx,0,4,11,01,B3,FE,00,00,00,00,
-1762630422339884,0401E481,true,Rx,0,4,11,00,3A,FF,00,00,00,00,
-1762630422339756,0401E481,true,Rx,0,4,12,00,40,FE,00,00,00,00,
-1762630422339671,0401E481,true,Rx,0,4,12,01,68,FF,00,00,00,00,
-1762630422331821,040A2012,true,Rx,0,8,43,00,F4,FF,40,05,A2,87,
-1762630422331650,04056412,true,Rx,0,8,01,00,FE,FF,2B,FF,A2,87,
-1762630422331437,0401E412,true,Rx,0,7,00,05,3F,00,44,FE,01,00,
-1762630422331309,0401E412,true,Rx,0,7,01,05,02,00,9F,FF,01,00,
-1762630422331181,0401E452,true,Rx,0,8,01,A3,8F,01,00,00,49,FD,
-1762630422331053,0401E452,true,Rx,0,8,00,A3,25,FF,FF,FF,C5,F5,
-1762630422330157,040A2011,true,Rx,0,8,14,00,20,00,3A,04,A5,87,
-1762630422330029,04056411,true,Rx,0,8,FF,FF,04,00,4D,FD,A5,87,
-1762630422328962,0405200C,true,Rx,0,2,00,00,00,00,00,00,00,00,
-1762630422325506,0405200B,true,Rx,0,2,00,00,00,00,00,00,00,00,
-1762630422323885,0401E411,true,Rx,0,7,00,05,C5,01,38,FF,01,00,
-1762630422323800,0401E411,true,Rx,0,7,01,05,DC,FF,C5,FE,01,00,
-1762630422323629,0401E451,true,Rx,0,8,00,AC,30,01,00,00,49,F9,
-1762630422323501,0401E451,true,Rx,0,8,01,AC,12,00,00,00,67,FB,
-1762630422320259,0401E481,true,Rx,0,4,11,01,B3,FE,00,00,00,00,
-1762630422320173,0401E481,true,Rx,0,4,11,00,3A,FF,00,00,00,00,
-1762630422320045,0401E481,true,Rx,0,4,12,00,42,FE,00,00,00,00,
-1762630422319960,0401E481,true,Rx,0,4,12,01,66,FF,00,00,00,00,
-1762630422313859,040D6863,true,Rx,0,6,00,DF,01,00,00,00,00,00,
-1762630422311768,040A2012,true,Rx,0,8,0B,00,25,00,F3,02,B6,87,
-1762630422311640,04056412,true,Rx,0,8,02,00,FE,FF,1F,FF,B6,87,
-1762630422311427,0401E412,true,Rx,0,7,00,05,44,00,2F,FE,01,00,
-1762630422311299,0401E412,true,Rx,0,7,01,05,02,00,8C,FF,01,00,
-1762630422311171,0401E452,true,Rx,0,8,01,B7,8D,01,00,00,2D,FD,
-1762630422311043,0401E452,true,Rx,0,8,00,B7,20,FF,FF,FF,D3,F5,
-1762630422310190,040A2011,true,Rx,0,8,FD,FF,D3,FF,E0,02,B9,87,
-1762630422310019,04056411,true,Rx,0,8,FF,FF,04,00,4A,FD,B9,87,
-1762630422309934,040D6843,true,Rx,0,3,00,00,00,00,00,00,00,00,
-1762630422309848,0405240A,true,Rx,0,3,D6,FE,00,00,00,00,00,00,
-1762630422309720,040D6863,true,Rx,0,6,01,0C,04,00,00,02,00,00,
-1762630422307886,040D6843,true,Rx,0,3,01,00,00,00,00,00,00,00,
-1762630422303918,0401E411,true,Rx,0,7,00,05,B1,01,33,FF,01,00,
-1762630422303790,0401E411,true,Rx,0,7,01,05,DC,FF,B1,FE,01,00,
-1762630422303619,0401E451,true,Rx,0,8,01,C0,0F,00,00,00,68,FB,
-1762630422303491,0401E451,true,Rx,0,8,00,C0,2E,01,00,00,4E,F9,
-1762630422302723,0405200D,true,Rx,0,2,00,00,00,00,00,00,00,00,
-1762630422302553,0405200E,true,Rx,0,2,00,00,00,00,00,00,00,00,
-1762630422300291,04072001,true,Rx,0,4,01,01,01,01,00,00,00,00,
-1762630422299993,0401E481,true,Rx,0,4,11,01,B4,FE,00,00,00,00,
-1762630422299865,0401E481,true,Rx,0,4,11,00,44,FF,00,00,00,00,
-1762630422299779,0401E481,true,Rx,0,4,12,00,4A,FE,00,00,00,00,
-1762630422299651,0401E481,true,Rx,0,4,12,01,5E,FF,00,00,00,00,
-1762630422296835,0405C40F,true,Rx,0,8,00,01,72,3C,1A,20,9F,F7,
-1762630422296707,0405C42F,true,Rx,0,8,00,64,44,DA,5E,FF,9C,00,
-1762630422296580,0405C40F,true,Rx,0,8,01,01,78,3B,F1,1E,EB,F6,
-1762630422296452,0405C42F,true,Rx,0,8,01,64,2D,DA,22,FF,AD,01,
-1762630422296324,0405C52F,true,Rx,0,5,00,ED,FF,2C,00,00,00,00,
-1762630422296196,0405C40F,true,Rx,0,8,02,01,5F,3C,AE,20,C4,F4,
-1762630422296025,0405C42F,true,Rx,0,8,02,64,64,DA,AF,FF,5C,00,
-1762630422295940,0405C52F,true,Rx,0,5,02,F9,FF,22,00,00,00,00,
-1762630422295812,0405C52F,true,Rx,0,5,01,31,01,36,01,00,00,00,
-1762630422295044,0405C410,true,Rx,0,8,00,01,FB,38,59,12,88,09,
-1762630422294916,0405C430,true,Rx,0,8,00,64,9B,24,49,02,9A,FD,
-1762630422294788,0405C410,true,Rx,0,8,01,01,B5,38,81,12,AF,0B,
-1762630422294660,0405C430,true,Rx,0,8,01,64,AD,23,D1,05,58,FA,
-1762630422294532,0405C530,true,Rx,0,5,00,E1,FC,24,02,00,00,00,
-1762630422294361,0405C410,true,Rx,0,8,02,01,75,38,F4,12,DA,0A,
-1762630422294276,0405C430,true,Rx,0,8,02,64,E9,23,D9,FB,98,FC,
-1762630422294148,0405C530,true,Rx,0,5,02,68,FB,47,07,00,00,00,
-1762630422294020,0405C530,true,Rx,0,5,01,8D,FA,36,00,00,00,00,
-1762630422293508,04030C82,true,Rx,0,4,00,01,00,00,00,00,00,00,
-1762630422293337,04030CE2,true,Rx,0,8,8D,00,00,00,C2,64,1E,67,
-1762630422291844,040A2012,true,Rx,0,8,76,00,74,00,CB,02,CA,87,
-1762630422291673,04056412,true,Rx,0,8,00,00,FF,FF,13,FF,CA,87,
-1762630422291417,0401E412,true,Rx,0,7,00,05,38,00,35,FE,01,00,
-1762630422291289,0401E412,true,Rx,0,7,01,05,00,00,7A,FF,01,00,
-1762630422291161,0401E452,true,Rx,0,8,01,CB,8C,01,00,00,18,FD,
-1762630422290990,0401E452,true,Rx,0,8,00,CB,1B,FF,FF,FF,E2,F5,
-1762630422290180,040A2011,true,Rx,0,8,70,00,0B,00,31,05,CD,87,
-1762630422290052,04056411,true,Rx,0,8,FF,FF,04,00,47,FD,CD,87,
-1762630422283908,0401E411,true,Rx,0,7,00,05,BA,01,2E,FF,01,00,
-1762630422283780,0401E411,true,Rx,0,7,01,05,E5,FF,C9,FE,01,00,
-1762630422283652,0401E451,true,Rx,0,8,00,D4,2C,01,00,00,5E,F9,
-1762630422283481,0401E451,true,Rx,0,8,01,D4,0C,00,00,00,59,FB,
-1762630422280281,0401E481,true,Rx,0,4,11,01,B4,FE,00,00,00,00,
-1762630422280153,0401E481,true,Rx,0,4,11,00,44,FF,00,00,00,00,
-1762630422280068,0401E481,true,Rx,0,4,12,00,4B,FE,00,00,00,00,
-1762630422279940,0401E481,true,Rx,0,4,12,01,5D,FF,00,00,00,00,
-1762630422271834,040A2012,true,Rx,0,8,01,00,6C,00,CA,04,DE,87,
-1762630422271663,04056412,true,Rx,0,8,01,00,FE,FF,07,FF,DE,87,
-1762630422271492,0401E412,true,Rx,0,7,00,05,41,00,37,FE,01,00,
-1762630422271364,0401E412,true,Rx,0,7,01,05,FF,FF,71,FF,01,00,
-1762630422271236,0401E452,true,Rx,0,8,01,DF,8A,01,00,00,09,FD,
-1762630422271066,0401E452,true,Rx,0,8,00,DF,16,FF,FF,FF,F1,F5,
-1762630422270170,040A2011,true,Rx,0,8,BE,FF,1A,00,FE,02,E1,87,
-1762630422270042,04056411,true,Rx,0,8,FE,FF,03,00,43,FD,E1,87,
-1762630422265263,0405280B,true,Rx,0,2,00,00,00,00,00,00,00,00,
-1762630422264325,0405280C,true,Rx,0,2,00,00,00,00,00,00,00,00,
-1762630422263898,0401E411,true,Rx,0,7,00,05,CC,01,37,FF,01,00,
-1762630422263770,0401E411,true,Rx,0,7,01,05,DF,FF,9D,FE,01,00,
-1762630422263599,0401E451,true,Rx,0,8,01,E8,09,00,00,00,6A,FB,
-1762630422263471,0401E451,true,Rx,0,8,00,E8,2A,01,00,00,67,F9,
-1762630422260186,0401E481,true,Rx,0,4,11,01,B4,FE,00,00,00,00,
-1762630422260101,0401E481,true,Rx,0,4,11,00,44,FF,00,00,00,00,
-1762630422259973,0401E481,true,Rx,0,4,12,00,4B,FE,00,00,00,00,
-1762630422259888,0401E481,true,Rx,0,4,12,01,5D,FF,00,00,00,00,
-1762630422257882,0405240A,true,Rx,0,3,C3,FE,00,00,00,00,00,00,
-1762630422251824,040A2012,true,Rx,0,8,7A,00,70,00,0A,04,F2,87,
-1762630422251696,04056412,true,Rx,0,8,01,00,FD,FF,FD,FE,F2,87,
-1762630422251397,0401E412,true,Rx,0,7,00,05,46,00,3E,FE,01,00,
-1762630422251269,0401E412,true,Rx,0,7,01,05,02,00,83,FF,01,00,
-1762630422251141,0401E452,true,Rx,0,8,01,F3,89,01,00,00,ED,FC,
-1762630422251013,0401E432,true,Rx,0,6,00,00,00,00,00,00,00,00,
-1762630422250885,0401E432,true,Rx,0,6,01,00,00,00,00,00,00,00,
-1762630422250757,0401E452,true,Rx,0,8,00,F3,11,FF,FF,FF,FA,F5,
-1762630422250160,040A2011,true,Rx,0,8,4F,FF,FF,FF,73,03,F5,87,
-1762630422250075,04048421,true,Rx,0,0,00,00,00,00,00,00,00,00,
-1762630422249989,0405200C,true,Rx,0,2,00,00,00,00,00,00,00,00,
-1762630422249861,04056411,true,Rx,0,8,FD,FF,02,00,3F,FD,F5,87,
-1762630422249733,04072001,true,Rx,0,4,01,01,01,01,00,00,00,00,
-1762630422246875,0405C40F,true,Rx,0,8,00,01,F4,3B,4B,20,89,F7,
-1762630422246704,0405C42F,true,Rx,0,8,00,64,C6,D9,06,00,C0,00,
-1762630422246619,0405200B,true,Rx,0,2,00,00,00,00,00,00,00,00,
-1762630422246491,0405C40F,true,Rx,0,8,01,01,06,3B,9F,20,D9,F6,
-1762630422246320,0405C42F,true,Rx,0,8,01,64,CE,D9,E7,FF,FB,00,
-1762630422246235,0405C52F,true,Rx,0,5,00,A3,00,04,00,00,00,00,
-1762630422246107,0405C40F,true,Rx,0,8,02,01,14,3C,CE,20,DF,F4,
-1762630422245936,0405C42F,true,Rx,0,8,02,64,2C,DA,B5,FF,8A,00,
-1762630422245851,0405C52F,true,Rx,0,5,02,27,00,3F,00,00,00,00,
-1762630422245723,0405C52F,true,Rx,0,5,01,82,01,37,01,00,00,00,
-1762630422245083,0405C410,true,Rx,0,8,00,01,6C,39,D7,11,A0,08,
-1762630422244912,0405C430,true,Rx,0,8,00,64,C0,24,52,02,A4,01,
-1762630422244827,0405C530,true,Rx,0,5,00,4C,FF,39,01,00,00,00,
-1762630422244656,0405C410,true,Rx,0,8,01,01,0F,39,BB,13,A6,09,
-1762630422244528,0405C430,true,Rx,0,8,01,64,62,24,F1,FC,5D,FA,
-1762630422244400,0405C410,true,Rx,0,8,02,01,A1,38,2B,12,C2,08,
-1762630422244272,0405C430,true,Rx,0,8,02,64,6E,24,B7,FC,E2,FC,
-1762630422244144,0405C530,true,Rx,0,5,02,10,01,47,03,00,00,00,
-1762630422244059,0405C530,true,Rx,0,5,01,4B,02,3C,FC,00,00,00,
-1762630422243888,0401E411,true,Rx,0,7,00,05,AA,01,2C,FF,01,00,
-1762630422243718,0401E411,true,Rx,0,7,01,05,D2,FF,BA,FE,01,00,
-1762630422243590,0401E451,true,Rx,0,8,00,FC,28,01,00,00,79,F9,
-1762630422243462,0401E431,true,Rx,0,6,00,00,00,00,00,00,00,00,
-1762630422243334,0401E431,true,Rx,0,6,01,00,00,00,00,00,00,00,
-1762630422243206,0401E451,true,Rx,0,8,01,FC,06,00,00,00,66,FB,
-1762630422241670,04098C31,true,Rx,0,3,00,8F,09,00,00,00,00,00,
-1762630422241542,04098C51,true,Rx,0,3,00,60,01,00,00,00,00,00,
-1762630422240219,0401E481,true,Rx,0,4,11,01,B5,FE,00,00,00,00,
-1762630422240134,0401E481,true,Rx,0,4,11,00,4D,FF,00,00,00,00,
-1762630422240006,0401E481,true,Rx,0,4,12,00,53,FE,00,00,00,00,
-1762630422239920,0401E481,true,Rx,0,4,12,01,55,FF,00,00,00,00,
-1762630422236123,1C0000CA,true,Rx,0,8,02,FD,09,00,00,10,2B,80,
-1762630422235995,1C0000CA,true,Rx,0,5,00,D5,16,40,03,00,00,00,
-1762630422234459,1C000146,true,Rx,0,8,02,FD,09,00,00,10,2B,80,
-1762630422234331,1C000146,true,Rx,0,5,00,D5,17,1E,03,00,00,00,
-1762630422231771,040A2012,true,Rx,0,8,5D,FF,00,00,DB,03,06,88,
-1762630422231643,04056412,true,Rx,0,8,02,00,FC,FF,F2,FE,06,88,
-1762630422231430,0401E412,true,Rx,0,7,00,05,4B,00,46,FE,01,00,
-1762630422231302,0401E412,true,Rx,0,7,01,05,03,00,7E,FF,01,00,
-1762630422231174,0401E452,true,Rx,0,8,01,07,87,01,00,00,CF,FC,
-1762630422231046,0401E452,true,Rx,0,8,00,07,0C,FF,FF,FF,03,F6,
-1762630422230150,040A2011,true,Rx,0,8,13,00,26,00,C7,03,09,88,
-1762630422230022,04056411,true,Rx,0,8,FE,FF,02,00,3C,FD,09,88,
-1762630422223878,1C0000D5,true,Rx,0,8,02,FD,09,00,00,0F,2B,80,
-1762630422223750,0401E411,true,Rx,0,7,00,05,A2,01,2E,FF,01,00,
-1762630422223622,0401E411,true,Rx,0,7,01,05,B4,FF,9E,FE,01,00,
-1762630422223494,0401E451,true,Rx,0,8,01,10,03,00,00,00,77,FB,
-1762630422223324,0401E451,true,Rx,0,8,00,10,26,01,00,00,90,F9,
-1762630422223238,0405200D,true,Rx,0,2,00,00,00,00,00,00,00,00,
-1762630422223153,0405200E,true,Rx,0,2,00,00,00,00,00,00,00,00,
-1762630422223068,1C0000D5,true,Rx,0,5,00,77,16,40,03,00,00,00,
-1762630422221532,1C0002A6,true,Rx,0,8,02,FD,09,00,00,0F,2B,80,
-1762630422221404,1C0002A6,true,Rx,0,5,00,77,17,1E,03,00,00,00,
-1762630422220209,0401E481,true,Rx,0,4,11,01,B5,FE,00,00,00,00,
-1762630422220124,0401E481,true,Rx,0,4,11,00,4D,FF,00,00,00,00,
-1762630422219996,0401E481,true,Rx,0,4,12,00,53,FE,00,00,00,00,
-1762630422219868,0401E481,true,Rx,0,4,12,01,55,FF,00,00,00,00,
-1762630422217564,1C0000C1,true,Rx,0,8,02,FD,09,00,00,12,27,80,
-1762630422217436,1C0000C1,true,Rx,0,5,00,69,16,40,03,00,00,00,
-1762630422215857,040D6863,true,Rx,0,6,00,F3,01,00,00,00,00,00,
-1762630422215388,1C000026,true,Rx,0,8,02,FD,09,00,00,12,27,80,
-1762630422215260,1C000026,true,Rx,0,5,00,69,17,1E,03,00,00,00,
-1762630422213895,040D6843,true,Rx,0,3,00,00,00,00,00,00,00,00,
-1762630422211804,040A2012,true,Rx,0,8,71,00,9F,00,C6,01,1A,88,
-1762630422211676,04056412,true,Rx,0,8,FF,FF,FA,FF,E8,FE,1A,88,
-1762630422211463,0401E412,true,Rx,0,7,00,05,4A,00,3F,FE,01,00,
-1762630422211335,0401E412,true,Rx,0,7,01,05,01,00,77,FF,01,00,
-1762630422211207,0401E452,true,Rx,0,8,01,1B,86,01,00,00,B6,FC,
-1762630422211079,0401E452,true,Rx,0,8,00,1B,07,FF,FF,FF,12,F6,
-1762630422210183,040A2011,true,Rx,0,8,34,00,64,00,C8,03,1D,88,
-1762630422210055,04056411,true,Rx,0,8,FE,FF,04,00,38,FD,1D,88,
-1762630422209927,040D6863,true,Rx,0,6,01,24,04,00,00,02,00,00,
-1762630422209842,040D6843,true,Rx,0,3,01,00,00,00,00,00,00,00,
-1762630422209714,0405240A,true,Rx,0,3,AE,FE,00,00,00,00,00,00,
-1762630422204978,1C0000C2,true,Rx,0,8,02,FD,09,00,00,11,27,80,
-1762630422204850,1C0000C2,true,Rx,0,5,00,E1,16,40,03,00,00,00,
-1762630422203868,0401E411,true,Rx,0,7,00,05,A0,01,3F,FF,01,00,
-1762630422203740,0401E411,true,Rx,0,7,01,05,D2,FF,C0,FE,01,00,
-1762630422203612,0401E451,true,Rx,0,8,01,24,FF,FF,FF,FF,6F,FB,
-1762630422203484,0401E451,true,Rx,0,8,00,24,24,01,00,00,9A,F9,
-1762630422203186,1C000046,true,Rx,0,8,02,FD,09,00,00,11,27,80,
-1762630422203058,1C000046,true,Rx,0,5,00,E1,17,1E,03,00,00,00,
-1762630422202631,04030C82,true,Rx,0,4,00,01,00,00,00,00,00,00,
-1762630422202461,04030CE2,true,Rx,0,8,8D,00,00,00,C2,64,1E,67,
-1762630422200285,04072001,true,Rx,0,4,01,01,01,01,00,00,00,00,
-1762630422200071,0401E481,true,Rx,0,4,11,01,B6,FE,00,00,00,00,
-1762630422199943,0401E481,true,Rx,0,4,11,00,57,FF,00,00,00,00,
-1762630422199858,0401E481,true,Rx,0,4,12,00,5B,FE,00,00,00,00,
-1762630422199730,0401E481,true,Rx,0,4,12,01,4D,FF,00,00,00,00,
-1762630422196743,0405C40F,true,Rx,0,8,00,01,BC,3B,A9,20,E5,F7,
-1762630422196573,0405C42F,true,Rx,0,8,00,64,A2,D9,7B,00,BA,00,
-1762630422196445,0405C40F,true,Rx,0,8,01,01,B0,3A,96,20,6A,F7,
-1762630422196317,0405C42F,true,Rx,0,8,01,64,CB,D9,D6,FE,0A,01,
-1762630422196189,0405C52F,true,Rx,0,5,00,B8,00,A6,FF,00,00,00,
-1762630422196061,0405C40F,true,Rx,0,8,02,01,42,3B,8E,21,68,F5,
-1762630422195933,0405C42F,true,Rx,0,8,02,64,69,D9,FC,FF,C1,00,
-1762630422195805,0405C52F,true,Rx,0,5,02,49,00,6B,00,00,00,00,
-1762630422195719,0405C52F,true,Rx,0,5,01,FE,FE,23,01,00,00,00,
-1762630422195079,0405C410,true,Rx,0,8,00,01,D2,39,A0,0F,54,08,
-1762630422194951,0405C430,true,Rx,0,8,00,64,A9,24,6A,00,80,02,
-1762630422194823,0405C410,true,Rx,0,8,01,01,30,39,E6,10,7A,08,
-1762630422194653,0405C430,true,Rx,0,8,01,64,1B,24,64,FB,3B,FB,
-1762630422194567,0405C530,true,Rx,0,5,00,6F,FF,33,FE,00,00,00,
-1762630422194397,0405C410,true,Rx,0,8,02,01,DE,38,AC,13,A4,08,
-1762630422194269,0405C430,true,Rx,0,8,02,64,5D,24,92,03,0A,FF,
-1762630422194184,0405C530,true,Rx,0,5,02,24,03,0C,FF,00,00,00,
-1762630422194056,0405C530,true,Rx,0,5,01,3F,FD,2B,00,00,00,00,
-1762630422191794,040A2012,true,Rx,0,8,9E,00,0A,00,69,05,2E,88,
-1762630422191666,04056412,true,Rx,0,8,FF,FF,FE,FF,DD,FE,2E,88,
-1762630422191496,0401E412,true,Rx,0,7,00,05,46,00,4C,FE,01,00,
-1762630422191368,0401E412,true,Rx,0,7,01,05,02,00,6D,FF,01,00,
-1762630422191240,0401E452,true,Rx,0,8,01,2F,84,01,00,00,9E,FC,
-1762630422191069,0401E452,true,Rx,0,8,00,2F,03,FF,FF,FF,1D,F6,
-1762630422190173,040A2011,true,Rx,0,8,1D,00,D0,FF,86,03,31,88,
-1762630422190045,04056411,true,Rx,0,8,FF,FF,03,00,35,FD,31,88,
-1762630422188253,1C00005A,true,Rx,0,8,02,FD,11,00,04,01,28,80,
-1762630422188125,1C00005A,true,Rx,0,8,01,CD,00,CE,C6,14,03,00,
-1762630422188040,1C00005A,true,Rx,0,5,01,00,00,DE,03,00,00,00,
-1762630422187101,1C000342,true,Rx,0,8,02,FD,11,00,04,01,28,80,
-1762630422186973,1C000342,true,Rx,0,8,01,CD,01,CE,C6,14,03,00,
-1762630422186845,1C000342,true,Rx,0,5,00,00,00,D1,03,00,00,00,
-1762630422183901,0401E411,true,Rx,0,7,00,05,A4,01,44,FF,01,00,
-1762630422183773,0401E411,true,Rx,0,7,01,05,E8,FF,C5,FE,01,00,
-1762630422183603,0401E451,true,Rx,0,8,00,38,22,01,00,00,A8,F9,
-1762630422183475,0401E451,true,Rx,0,8,01,38,FD,FF,FF,FF,64,FB,
-1762630422180232,0401E481,true,Rx,0,4,11,01,B6,FE,00,00,00,00,
-1762630422180104,0401E481,true,Rx,0,4,11,00,57,FF,00,00,00,00,
-1762630422180019,0401E481,true,Rx,0,4,12,00,5B,FE,00,00,00,00,
-1762630422179891,0401E481,true,Rx,0,4,12,01,4D,FF,00,00,00,00,
-1762630422171827,040A2012,true,Rx,0,8,3E,00,19,00,FC,01,42,88,
-1762630422171656,04056412,true,Rx,0,8,02,00,FD,FF,D2,FE,42,88,
-1762630422171486,0401E412,true,Rx,0,7,00,05,4A,00,4A,FE,01,00,
-1762630422171358,0401E412,true,Rx,0,7,01,05,06,00,81,FF,01,00,
-1762630422171230,0401E452,true,Rx,0,8,01,43,83,01,00,00,77,FC,
-1762630422171102,0401E452,true,Rx,0,8,00,43,FE,FE,FF,FF,29,F6,
-1762630422170163,040A2011,true,Rx,0,8,21,FF,EB,FF,9B,03,45,88,
-1762630422170035,04056411,true,Rx,0,8,01,00,02,00,31,FD,45,88,
-1762630422168968,0405200C,true,Rx,0,2,00,00,00,00,00,00,00,00,
-1762630422167731,0405200B,true,Rx,0,2,00,00,00,00,00,00,00,00,
-1762630422167475,0405280C,true,Rx,0,2,00,00,00,00,00,00,00,00,
