Time Stamp,ID,Extended,Dir,Bus,LEN,D1,D2,D3,D4,D5,D6,D7,D8
-1762630070346979,04098C31,true,Rx,0,3,00,00,00,00,00,00,00,00,
-1762630070346893,04098C51,true,Rx,0,3,00,F3,FF,00,00,00,00,00,
-1762630070345101,0405240A,true,Rx,0,3,2F,01,00,00,00,00,00,00,
-1762630070344077,1C0002BA,true,Rx,0,8,02,FD,09,00,06,01,28,80,
-1762630070343949,1C0002BA,true,Rx,0,5,00,1A,16,40,03,00,00,00,
-1762630070343821,1C00015A,true,Rx,0,8,02,FD,09,00,07,01,28,80,
-1762630070343693,1C00015A,true,Rx,0,5,00,D7,16,40,03,00,00,00,
-1762630070342541,1C000355,true,Rx,0,8,02,FD,09,00,06,01,28,80,
-1762630070342456,1C000355,true,Rx,0,5,00,1A,17,1E,03,00,00,00,
-1762630070342285,1C00034A,true,Rx,0,8,02,FD,09,00,07,01,28,80,
-1762630070342200,1C00034A,true,Rx,0,5,00,D7,17,1E,03,00,00,00,
-1762630070338574,0401E412,true,Rx,0,7,00,05,14,00,96,FF,01,00,
-1762630070338446,0401E412,true,Rx,0,7,01,05,19,00,64,FF,01,00,
-1762630070338318,0401E452,true,Rx,0,8,01,B4,F9,F6,FF,FF,AF,FB,
-1762630070338147,0401E452,true,Rx,0,8,00,B4,9E,F6,FF,FF,C1,FC,
-1762630070337080,1C00003A,true,Rx,0,8,02,FD,09,00,0C,01,28,80,
-1762630070336952,1C00003A,true,Rx,0,5,00,A7,16,40,03,00,00,00,
-1762630070336312,0405200E,true,Rx,0,2,00,00,00,00,00,00,00,00,
-1762630070335502,040A2011,true,Rx,0,8,13,00,F5,FF,7F,03,B7,D7,
-1762630070335374,04056411,true,Rx,0,8,FC,FF,09,00,48,FC,B7,D7,
-1762630070334776,040A2012,true,Rx,0,8,5A,00,69,00,DC,03,B7,D7,
-1762630070334648,04056412,true,Rx,0,8,05,00,0E,00,C0,04,B7,D7,
-1762630070334392,0405200D,true,Rx,0,2,00,00,00,00,00,00,00,00,
-1762630070334008,1C000341,true,Rx,0,8,02,FD,09,00,0C,01,28,80,
-1762630070333923,1C000341,true,Rx,0,5,00,A7,17,1E,03,00,00,00,
-1762630070332771,1C00017A,true,Rx,0,8,02,FD,09,00,09,01,28,80,
-1762630070332643,0405C40F,true,Rx,0,8,00,01,D1,38,79,37,10,1B,
-1762630070332472,0405C42F,true,Rx,0,8,00,64,38,27,D2,FF,41,00,
-1762630070332344,0405C40F,true,Rx,0,8,01,01,43,3A,91,38,E2,0A,
-1762630070332216,0405C42F,true,Rx,0,8,01,64,13,29,16,00,AD,00,
-1762630070332088,0405C52F,true,Rx,0,5,01,CF,FF,CD,FF,00,00,00,
-1762630070331960,0405C40F,true,Rx,0,8,02,01,13,3D,2F,39,AF,E7,
-1762630070331832,0405C42F,true,Rx,0,8,02,64,DD,21,F8,FF,41,00,
-1762630070331704,0405C52F,true,Rx,0,5,02,1E,00,EC,FF,00,00,00,
-1762630070331619,0405C52F,true,Rx,0,5,00,FE,FF,13,00,00,00,00,
-1762630070331491,1C00017A,true,Rx,0,5,00,75,16,40,03,00,00,00,
-1762630070331150,0401E411,true,Rx,0,7,00,05,12,00,65,FF,01,00,
-1762630070331022,0401E411,true,Rx,0,7,01,05,00,00,B0,FF,01,00,
-1762630070330851,0401E451,true,Rx,0,8,00,BC,71,00,00,00,71,FC,
-1762630070330766,0401E431,true,Rx,0,6,00,00,00,00,00,00,00,00,
-1762630070330638,0401E431,true,Rx,0,6,01,00,00,00,00,00,00,00,
-1762630070330467,0401E451,true,Rx,0,8,01,BC,56,FF,FF,FF,CB,FE,
-1762630070330382,0401E481,true,Rx,0,4,11,01,B3,FF,00,00,00,00,
-1762630070330297,0401E481,true,Rx,0,4,11,00,76,FF,00,00,00,00,
-1762630070330169,0401E481,true,Rx,0,4,12,01,71,FF,00,00,00,00,
-1762630070330083,0401E481,true,Rx,0,4,12,00,95,FF,00,00,00,00,
-1762630070329913,0405C410,true,Rx,0,8,00,01,5F,42,E7,59,1A,21,
-1762630070329785,0405C430,true,Rx,0,8,00,64,9A,2B,9F,00,B6,00,
-1762630070329657,0405C410,true,Rx,0,8,01,01,87,42,EA,59,5E,35,
-1762630070329529,0405C430,true,Rx,0,8,01,64,60,2B,CF,FF,4A,01,
-1762630070329401,0405C530,true,Rx,0,5,01,A5,FF,E1,FE,00,00,00,
-1762630070329273,0405C410,true,Rx,0,8,02,01,9C,3C,28,59,0E,3A,
-1762630070329145,0405C430,true,Rx,0,8,02,64,9C,27,1B,00,2C,00,
-1762630070329017,0405C530,true,Rx,0,5,02,7F,FF,B6,FF,00,00,00,
-1762630070328889,0405C530,true,Rx,0,5,00,29,00,5A,00,00,00,00,
-1762630070328761,1C00034B,true,Rx,0,8,02,FD,09,00,09,01,28,80,
-1762630070328633,1C00034B,true,Rx,0,5,00,75,17,1E,03,00,00,00,
-1762630070324067,04072001,true,Rx,0,4,01,00,01,00,00,00,00,00,
-1762630070323086,1C00029A,true,Rx,0,8,02,FD,09,00,08,01,28,80,
-1762630070322958,1C00029A,true,Rx,0,5,00,B8,16,40,03,00,00,00,
-1762630070322830,1C00023A,true,Rx,0,8,02,FD,09,00,0A,01,28,80,
-1762630070322660,1C00023A,true,Rx,0,5,00,3B,16,40,03,00,00,00,
-1762630070321465,1C000354,true,Rx,0,8,02,FD,09,00,08,01,28,80,
-1762630070321337,1C000354,true,Rx,0,5,00,B8,17,1E,03,00,00,00,
-1762630070321166,1C000351,true,Rx,0,8,02,FD,09,00,0A,01,28,80,
-1762630070321038,1C000351,true,Rx,0,5,00,3B,17,1E,03,00,00,00,
-1762630070319502,0405280C,true,Rx,0,2,00,00,00,00,00,00,00,00,
-1762630070318564,0401E412,true,Rx,0,7,00,05,15,00,96,FF,01,00,
-1762630070318436,0401E412,true,Rx,0,7,01,05,1A,00,61,FF,01,00,
-1762630070318265,0401E452,true,Rx,0,8,01,C8,F8,F6,FF,FF,BB,FB,
-1762630070318137,0401E452,true,Rx,0,8,00,C8,9D,F6,FF,FF,C1,FC,
-1762630070315492,040A2011,true,Rx,0,8,0F,00,C8,FF,14,04,CB,D7,
-1762630070315364,04056411,true,Rx,0,8,FC,FF,09,00,4A,FC,CB,D7,
-1762630070314894,040A2012,true,Rx,0,8,70,00,5C,00,F5,03,CB,D7,
-1762630070314724,04056412,true,Rx,0,8,05,00,0C,00,C2,04,CB,D7,
-1762630070312420,0405280B,true,Rx,0,2,00,00,00,00,00,00,00,00,
-1762630070311993,1C00037A,true,Rx,0,8,02,FD,09,00,0B,01,28,80,
-1762630070311865,1C00037A,true,Rx,0,5,00,F6,16,40,03,00,00,00,
-1762630070311183,0401E411,true,Rx,0,7,00,05,14,00,6E,FF,01,00,
-1762630070311055,0401E411,true,Rx,0,7,01,05,00,00,B0,FF,01,00,
-1762630070310927,0401E451,true,Rx,0,8,01,D0,56,FF,FF,FF,CD,FE,
-1762630070310756,0401E451,true,Rx,0,8,00,D0,70,00,00,00,77,FC,
-1762630070310671,0401E481,true,Rx,0,4,11,01,B3,FF,00,00,00,00,
-1762630070310585,0401E481,true,Rx,0,4,11,00,76,FF,00,00,00,00,
-1762630070310457,0401E481,true,Rx,0,4,12,01,71,FF,00,00,00,00,
-1762630070310329,0401E481,true,Rx,0,4,12,00,95,FF,00,00,00,00,
-1762630070307684,1C00035B,true,Rx,0,8,02,FD,09,00,0B,01,28,80,
-1762630070307556,1C00035B,true,Rx,0,5,00,F6,17,1E,03,00,00,00,
-1762630423131071,1C0000BA,true,Rx,0,8,02,FD,09,00,0D,01,28,80,
-1762630423130943,1C0000BA,true,Rx,0,5,00,6A,16,40,03,00,00,00,
-1762630423130132,040D6863,true,Rx,0,6,00,00,00,00,00,01,00,00,
-1762630423129407,1C000345,true,Rx,0,8,02,FD,09,00,0D,01,28,80,
-1762630423129279,1C000345,true,Rx,0,5,00,6A,17,1E,03,00,00,00,
-1762630423128554,0401E412,true,Rx,0,7,00,05,21,00,94,FF,01,00,
-1762630423128426,0401E412,true,Rx,0,7,01,05,1F,00,60,FF,01,00,
-1762630423128298,0401E452,true,Rx,0,8,01,DC,F6,F6,FF,FF,C7,FB,
-1762630423128127,0401E452,true,Rx,0,8,00,DC,9C,F6,FF,FF,C1,FC,
-1762630423128042,040D6843,true,Rx,0,3,00,00,00,00,00,00,00,00,
-1762630423125525,040A2011,true,Rx,0,8,8C,FF,05,00,D4,03,DF,D7,
-1762630423125354,04056411,true,Rx,0,8,FC,FF,09,00,4B,FC,DF,D7,
-1762630423125226,040D6863,true,Rx,0,6,01,00,00,00,00,01,00,00,
-1762630423125098,0405240A,true,Rx,0,3,2C,01,00,00,00,00,00,00,
-1762630423124885,040A2012,true,Rx,0,8,5F,FF,A5,FF,60,04,DF,D7,
-1762630423124714,04056412,true,Rx,0,8,05,00,06,00,C5,04,DF,D7,
-1762630423124159,040D6843,true,Rx,0,3,01,00,00,00,00,00,00,00,
-1762630423121173,0401E411,true,Rx,0,7,00,05,16,00,6B,FF,01,00,
-1762630423121045,0401E411,true,Rx,0,7,01,05,FF,FF,B6,FF,01,00,
-1762630423120874,0401E451,true,Rx,0,8,01,E4,55,FF,FF,FF,CB,FE,
-1762630423120746,0401E451,true,Rx,0,8,00,E4,6F,00,00,00,7F,FC,
-1762630423120661,0401E481,true,Rx,0,4,11,01,B2,FF,00,00,00,00,
-1762630423120533,0401E481,true,Rx,0,4,11,00,76,FF,00,00,00,00,
-1762630423120447,0401E481,true,Rx,0,4,12,01,6F,FF,00,00,00,00,
-1762630423120319,0401E481,true,Rx,0,4,12,00,97,FF,00,00,00,00,
-1762630423112725,0405C40F,true,Rx,0,8,00,01,D6,38,B0,37,49,1B,
-1762630423112640,0405200C,true,Rx,0,2,00,00,00,00,00,00,00,00,
-1762630423112512,0405C42F,true,Rx,0,8,00,64,17,27,2A,00,3E,00,
-1762630423112341,0405C40F,true,Rx,0,8,01,01,33,3A,88,38,FD,0B,
-1762630423112213,0405C42F,true,Rx,0,8,01,64,F5,28,E8,FF,46,00,
-1762630423112128,0405C52F,true,Rx,0,5,00,1F,00,24,00,00,00,00,
-1762630423111957,0405C40F,true,Rx,0,8,02,01,16,3D,52,39,CC,E7,
-1762630423111829,0405C42F,true,Rx,0,8,02,64,F8,22,F5,FF,3F,00,
-1762630423111744,0405C52F,true,Rx,0,5,02,28,00,EC,FF,00,00,00,
-1762630423111616,0405C52F,true,Rx,0,5,01,AD,FF,6C,00,00,00,00,
-1762630423110890,0405C410,true,Rx,0,8,00,01,9B,42,63,5A,01,1F,
-1762630423110762,0405C430,true,Rx,0,8,00,64,A9,2B,36,00,85,00,
-1762630423110634,0405C530,true,Rx,0,5,00,04,00,63,00,00,00,00,
-1762630423110506,0405C410,true,Rx,0,8,01,01,A5,42,BD,5A,66,35,
-1762630423110379,0405C430,true,Rx,0,8,01,64,6C,2B,69,01,50,01,
-1762630423110208,0405C410,true,Rx,0,8,02,01,E2,3C,0A,59,05,3B,
-1762630423110080,0405C430,true,Rx,0,8,02,64,C0,27,54,00,B6,FF,
-1762630423109952,0405C530,true,Rx,0,5,02,39,00,B2,FF,00,00,00,
-1762630423109867,0405200B,true,Rx,0,2,00,00,00,00,00,00,00,00,
-1762630423109781,0405C530,true,Rx,0,5,01,3A,00,FC,FE,00,00,00,
-1762630423108544,0401E412,true,Rx,0,7,00,05,26,00,A0,FF,01,00,
-1762630423108416,0401E412,true,Rx,0,7,01,05,1F,00,60,FF,01,00,
-1762630423108288,0401E452,true,Rx,0,8,01,F0,F4,F6,FF,FF,D2,FB,
-1762630423108160,0401E432,true,Rx,0,6,00,00,00,00,00,00,00,00,
-1762630423108032,0401E432,true,Rx,0,6,01,00,00,00,00,00,00,00,
-1762630423107861,0401E452,true,Rx,0,8,00,F0,9B,F6,FF,FF,BB,FC,
-1762630423105515,040A2011,true,Rx,0,8,73,00,FB,FF,B6,03,F3,D7,
-1762630423105387,04056411,true,Rx,0,8,FC,FF,08,00,4C,FC,F3,D7,
-1762630423104875,040A2012,true,Rx,0,8,AD,FF,FB,FF,AA,03,F3,D7,
-1762630423104747,04056412,true,Rx,0,8,04,00,08,00,C6,04,F3,D7,
-1762630423104064,04072001,true,Rx,0,4,01,00,01,00,00,00,00,00,
-1762630423101846,04030C82,true,Rx,0,4,00,01,00,00,00,00,00,00,
-1762630423101675,04030CE2,true,Rx,0,8,8D,00,00,00,C2,64,1E,67,
-1762630423101206,0401E411,true,Rx,0,7,00,05,22,00,71,FF,01,00,
-1762630423101078,0401E411,true,Rx,0,7,01,05,FC,FF,B0,FF,01,00,
-1762630423100907,0401E451,true,Rx,0,8,01,F8,54,FF,FF,FF,CC,FE,
-1762630423100779,0401E451,true,Rx,0,8,00,F8,6E,00,00,00,82,FC,
-1762630423100694,0401E481,true,Rx,0,4,11,01,B2,FF,00,00,00,00,
-1762630423100566,0401E481,true,Rx,0,4,11,00,76,FF,00,00,00,00,
-1762630423100438,0401E481,true,Rx,0,4,12,01,6F,FF,00,00,00,00,
-1762630423100352,0401E481,true,Rx,0,4,12,00,97,FF,00,00,00,00,
-1762630423088577,0401E412,true,Rx,0,7,00,05,15,00,9D,FF,01,00,
-1762630423088449,0401E412,true,Rx,0,7,01,05,1C,00,64,FF,01,00,
-1762630423088278,0401E452,true,Rx,0,8,00,04,99,F6,FF,FF,B7,FC,
-1762630423088150,0401E452,true,Rx,0,8,01,04,F2,F6,FF,FF,DA,FB,
-1762630423086614,0405200D,true,Rx,0,2,00,00,00,00,00,00,00,00,
-1762630423085505,040A2011,true,Rx,0,8,B8,FF,02,00,B5,03,07,D8,
-1762630423085377,04056411,true,Rx,0,8,FC,FF,08,00,4E,FC,07,D8,
-1762630423085249,0405200E,true,Rx,0,2,00,00,00,00,00,00,00,00,
-1762630423084566,040A2012,true,Rx,0,8,E7,FF,38,00,FF,03,07,D8,
-1762630423084438,04056412,true,Rx,0,8,05,00,0B,00,C8,04,07,D8,
-1762630423081196,0401E411,true,Rx,0,7,00,05,1F,00,7A,FF,01,00,
-1762630423081068,0401E411,true,Rx,0,7,01,05,02,00,B0,FF,01,00,
-1762630423080940,0401E451,true,Rx,0,8,01,0C,54,FF,FF,FF,CD,FE,
-1762630423080769,0401E451,true,Rx,0,8,00,0C,6C,00,00,00,7F,FC,
-1762630423080684,0401E481,true,Rx,0,4,11,01,B2,FF,00,00,00,00,
-1762630423080556,0401E481,true,Rx,0,4,11,00,76,FF,00,00,00,00,
-1762630423080470,0401E481,true,Rx,0,4,12,01,6F,FF,00,00,00,00,
-1762630423080342,0401E481,true,Rx,0,4,12,00,97,FF,00,00,00,00,
-1762630423076972,04098C31,true,Rx,0,3,00,00,00,00,00,00,00,00,
-1762630423076886,04098C51,true,Rx,0,3,00,F2,FF,00,00,00,00,00,
-1762630423073985,0405240A,true,Rx,0,3,2E,01,00,00,00,00,00,00,
-1762630423068567,0401E412,true,Rx,0,7,00,05,1B,00,97,FF,01,00,
-1762630423068439,0401E412,true,Rx,0,7,01,05,17,00,70,FF,01,00,
-1762630423068311,0401E452,true,Rx,0,8,01,18,F1,F6,FF,FF,DA,FB,
-1762630423068183,0401E452,true,Rx,0,8,00,18,98,F6,FF,FF,B7,FC,
-1762630423065495,040A2011,true,Rx,0,8,42,FF,D8,FF,02,04,1B,D8,
-1762630423065367,04056411,true,Rx,0,8,FC,FF,09,00,50,FC,1B,D8,
-1762630423064855,040A2012,true,Rx,0,8,84,FF,97,FF,33,04,1B,D8,
-1762630423064684,04056412,true,Rx,0,8,03,00,0B,00,CA,04,1B,D8,
-1762630423062594,0405C40F,true,Rx,0,8,00,01,D6,38,C0,37,7A,1B,
-1762630423062466,0405C42F,true,Rx,0,8,00,64,0C,27,35,00,F5,FF,
-1762630423062295,0405C40F,true,Rx,0,8,01,01,3A,3A,94,38,C4,0C,
-1762630423062167,0405C42F,true,Rx,0,8,01,64,D8,28,41,00,B9,FF,
-1762630423062082,0405C52F,true,Rx,0,5,00,FA,FF,2B,00,00,00,00,
-1762630423061911,0405C40F,true,Rx,0,8,02,01,14,3D,6C,39,16,E8,
-1762630423061783,0405C42F,true,Rx,0,8,02,64,30,24,ED,FF,3E,00,
-1762630423061655,0405C52F,true,Rx,0,5,02,40,00,DD,FF,00,00,00,
-1762630423061570,0405C52F,true,Rx,0,5,01,39,00,16,00,00,00,00,
-1762630423061186,0401E411,true,Rx,0,7,00,05,22,00,79,FF,01,00,
-1762630423061058,0401E411,true,Rx,0,7,01,05,03,00,BD,FF,01,00,
-1762630423060930,0401E451,true,Rx,0,8,01,20,53,FF,FF,FF,C5,FE,
-1762630423060802,0401E431,true,Rx,0,6,00,00,00,00,00,00,00,00,
-1762630423060631,0401E431,true,Rx,0,6,01,00,00,00,00,00,00,00,
-1762630423060503,0401E451,true,Rx,0,8,00,20,6B,00,00,00,7D,FC,
-1762630423060418,0401E481,true,Rx,0,4,11,01,B2,FF,00,00,00,00,
-1762630423060290,0401E481,true,Rx,0,4,11,00,76,FF,00,00,00,00,
-1762630423060204,0401E481,true,Rx,0,4,12,01,70,FF,00,00,00,00,
-1762630423060119,0401E481,true,Rx,0,4,12,00,96,FF,00,00,00,00,
-1762630423059948,0405C410,true,Rx,0,8,00,01,BF,42,96,5A,07,1C,
-1762630423059820,0405C430,true,Rx,0,8,00,64,A7,2B,D4,FF,B8,00,
-1762630423059692,0405C410,true,Rx,0,8,01,01,C4,42,BE,5A,CE,35,
-1762630423059564,0405C430,true,Rx,0,8,01,64,8F,2B,8A,00,62,01,
-1762630423059394,0405C530,true,Rx,0,5,01,A2,00,63,FF,00,00,00,
-1762630423059308,0405C410,true,Rx,0,8,02,01,17,3D,C5,58,22,3B,
-1762630423059138,0405C430,true,Rx,0,8,02,64,0C,28,31,00,00,00,
-1762630423059010,0405C530,true,Rx,0,5,02,5C,FF,6A,FF,00,00,00,
-1762630423058925,0405C530,true,Rx,0,5,00,C5,FF,3B,00,00,00,00,
-1762630423054061,04072001,true,Rx,0,4,01,00,01,00,00,00,00,00,
-1762630423052482,0405280C,true,Rx,0,2,00,00,00,00,00,00,00,00,
-1762630423048557,0401E412,true,Rx,0,7,00,05,1C,00,9E,FF,01,00,
-1762630423048429,0401E412,true,Rx,0,7,01,05,15,00,73,FF,01,00,
-1762630423048301,0401E452,true,Rx,0,8,01,2C,EF,F6,FF,FF,D8,FB,
-1762630423048130,0401E452,true,Rx,0,8,00,2C,97,F6,FF,FF,B1,FC,
-1762630423045528,040A2011,true,Rx,0,8,C8,00,13,00,26,04,2F,D8,
-1762630423045357,04056411,true,Rx,0,8,FC,FF,09,00,51,FC,2F,D8,
-1762630423045272,0405280B,true,Rx,0,2,00,00,00,00,00,00,00,00,
-1762630423044888,040A2012,true,Rx,0,8,6C,FF,52,00,DE,03,2F,D8,
-1762630423044717,04056412,true,Rx,0,8,02,00,0C,00,CC,04,2F,D8,
-1762630423041176,0401E411,true,Rx,0,7,00,05,1E,00,79,FF,01,00,
-1762630423041048,0401E411,true,Rx,0,7,01,05,02,00,BD,FF,01,00,
-1762630423040920,0401E451,true,Rx,0,8,01,34,53,FF,FF,FF,BD,FE,
-1762630423040792,0401E451,true,Rx,0,8,00,34,6A,00,00,00,7B,FC,
-1762630423040664,0401E481,true,Rx,0,4,11,01,B2,FF,00,00,00,00,
-1762630423040579,0401E481,true,Rx,0,4,11,00,76,FF,00,00,00,00,
-1762630423040451,0401E481,true,Rx,0,4,12,01,70,FF,00,00,00,00,
-1762630423040365,0401E481,true,Rx,0,4,12,00,96,FF,00,00,00,00,
-1762630423033880,0405200C,true,Rx,0,2,00,00,00,00,00,00,00,00,
-1762630423030979,0405200B,true,Rx,0,2,00,00,00,00,00,00,00,00,
-1762630423028590,0401E412,true,Rx,0,7,00,05,1C,00,97,FF,01,00,
-1762630423028419,0401E412,true,Rx,0,7,01,05,18,00,68,FF,01,00,
-1762630423028291,0401E452,true,Rx,0,8,01,40,EE,F6,FF,FF,DE,FB,
-1762630423028163,0401E452,true,Rx,0,8,00,40,96,F6,FF,FF,B1,FC,
-1762630423025518,040A2011,true,Rx,0,8,77,FF,A9,FF,62,03,43,D8,
-1762630423025347,04056411,true,Rx,0,8,FC,FF,08,00,53,FC,43,D8,
-1762630423025134,0405240A,true,Rx,0,3,31,01,00,00,00,00,00,00,
-1762630423024878,040A2012,true,Rx,0,8,25,00,8E,00,0C,04,43,D8,
-1762630423024750,04056412,true,Rx,0,8,03,00,0C,00,CD,04,43,D8,
-1762630423021209,0401E411,true,Rx,0,7,00,05,21,00,78,FF,01,00,
-1762630423021081,0401E411,true,Rx,0,7,01,05,00,00,BD,FF,01,00,
-1762630423020910,0401E451,true,Rx,0,8,00,48,69,00,00,00,7A,FC,
-1762630423020782,0401E451,true,Rx,0,8,01,48,52,FF,FF,FF,B5,FE,
-1762630423020697,0401E481,true,Rx,0,4,11,01,B3,FF,00,00,00,00,
-1762630423020569,0401E481,true,Rx,0,4,11,00,76,FF,00,00,00,00,
-1762630423020483,0401E481,true,Rx,0,4,12,01,72,FF,00,00,00,00,
-1762630423020355,0401E481,true,Rx,0,4,12,00,94,FF,00,00,00,00,
-1762630423012804,04030C82,true,Rx,0,4,00,01,00,00,00,00,00,00,
-1762630423012676,0405C40F,true,Rx,0,8,00,01,D2,38,93,37,88,1B,
-1762630423012548,04030CE2,true,Rx,0,8,8D,00,00,00,C2,64,1E,67,
-1762630423012420,0405C42F,true,Rx,0,8,00,64,FB,26,05,00,DB,FF,
-1762630423012249,0405C40F,true,Rx,0,8,01,01,3E,3A,7C,38,5D,0D,
-1762630423012121,0405C42F,true,Rx,0,8,01,64,D7,28,46,00,FD,FF,
-1762630423012036,0405C52F,true,Rx,0,5,00,E8,FF,00,00,00,00,00,
-1762630423011865,0405C40F,true,Rx,0,8,02,01,0B,3D,7A,39,08,E8,
-1762630423011737,0405C42F,true,Rx,0,8,02,64,9D,24,DE,FF,36,00,
-1762630423011609,0405C52F,true,Rx,0,5,02,37,00,D9,FF,00,00,00,
-1762630423011524,0405C52F,true,Rx,0,5,01,38,00,A8,FF,00,00,00,
-1762630423010884,0405C410,true,Rx,0,8,00,01,C8,42,7D,5A,1F,19,
-1762630423010756,0405C430,true,Rx,0,8,00,64,B6,2B,D7,FF,C9,00,
-1762630423010628,0405C410,true,Rx,0,8,01,01,FD,42,99,5A,6E,35,
-1762630423010500,0405C430,true,Rx,0,8,01,64,97,2B,42,00,98,FF,
-1762630423010372,0405C530,true,Rx,0,5,00,1E,00,5A,00,00,00,00,
-1762630423010244,0405C410,true,Rx,0,8,02,01,5F,3D,67,58,36,3B,
-1762630423010116,0405C430,true,Rx,0,8,02,64,19,28,63,00,A0,FF,
-1762630423009988,0405C530,true,Rx,0,5,02,2F,FF,5D,FF,00,00,00,
-1762630423009860,0405C530,true,Rx,0,5,01,9F,00,7D,FF,00,00,00,
-1762630423008537,0401E412,true,Rx,0,7,00,05,1D,00,94,FF,01,00,
-1762630423008409,0401E412,true,Rx,0,7,01,05,27,00,72,FF,01,00,
-1762630423008281,0401E452,true,Rx,0,8,01,54,EC,F6,FF,FF,DE,FB,
-1762630423008153,0401E432,true,Rx,0,6,00,00,00,00,00,00,00,00,
-1762630423008025,0401E432,true,Rx,0,6,01,00,00,00,00,00,00,00,
-1762630423007897,0401E452,true,Rx,0,8,00,54,95,F6,FF,FF,B1,FC,
-1762630423007599,0405200D,true,Rx,0,2,00,00,00,00,00,00,00,00,
-1762630423006063,0405200E,true,Rx,0,2,00,00,00,00,00,00,00,00,
-1762630423005508,040A2011,true,Rx,0,8,F9,FF,09,00,28,04,57,D8,
-1762630423005380,04056411,true,Rx,0,8,FB,FF,09,00,54,FC,57,D8,
-1762630423004868,040A2012,true,Rx,0,8,E4,FF,57,FF,C8,03,57,D8,
-1762630423004740,04056412,true,Rx,0,8,04,00,0C,00,CE,04,57,D8,
-1762630423004100,04072001,true,Rx,0,4,01,00,01,00,00,00,00,00,
-1762630423001199,0401E411,true,Rx,0,7,00,05,23,00,7A,FF,01,00,
-1762630423001071,0401E411,true,Rx,0,7,01,05,FF,FF,BE,FF,01,00,
-1762630423000900,0401E451,true,Rx,0,8,00,5C,67,00,00,00,77,FC,
-1762630423000772,0401E451,true,Rx,0,8,01,5C,51,FF,FF,FF,AD,FE,
-1762630423000687,0401E481,true,Rx,0,4,11,01,B3,FF,00,00,00,00,
-1762630423000559,0401E481,true,Rx,0,4,11,00,76,FF,00,00,00,00,
-1762630423000473,0401E481,true,Rx,0,4,12,01,72,FF,00,00,00,00,
-1762630423000345,0401E481,true,Rx,0,4,12,00,94,FF,00,00,00,00,
-1762630422988570,0401E412,true,Rx,0,7,00,05,16,00,96,FF,01,00,
-1762630422988442,0401E412,true,Rx,0,7,01,05,38,00,7C,FF,01,00,
-1762630422988314,0401E452,true,Rx,0,8,01,68,EB,F6,FF,FF,D7,FB,
-1762630422988143,0401E452,true,Rx,0,8,00,68,94,F6,FF,FF,B0,FC,
-1762630422985498,040A2011,true,Rx,0,8,D4,FF,19,00,97,03,6B,D8,
-1762630422985370,04056411,true,Rx,0,8,FB,FF,08,00,56,FC,6B,D8,
-1762630422984858,040A2012,true,Rx,0,8,EC,FF,EE,00,E1,03,6B,D8,
-1762630422984730,04056412,true,Rx,0,8,04,00,0D,00,CE,04,6B,D8,
-1762630422981189,0401E411,true,Rx,0,7,00,05,29,00,84,FF,01,00,
-1762630422981061,0401E411,true,Rx,0,7,01,05,02,00,BE,FF,01,00,
-1762630422980933,0401E451,true,Rx,0,8,00,70,66,00,00,00,6D,FC,
-1762630422980762,0401E451,true,Rx,0,8,01,70,51,FF,FF,FF,A5,FE,
-1762630422980677,0401E481,true,Rx,0,4,11,01,B3,FF,00,00,00,00,
-1762630422980592,0401E481,true,Rx,0,4,11,00,76,FF,00,00,00,00,
-1762630422980464,0401E481,true,Rx,0,4,12,01,72,FF,00,00,00,00,
-1762630422980378,0401E481,true,Rx,0,4,12,00,94,FF,00,00,00,00,
-1762630422976965,04098C31,true,Rx,0,3,00,00,00,00,00,00,00,00,
-1762630422976880,04098C51,true,Rx,0,3,00,F4,FF,00,00,00,00,00,
-1762630422975088,0405240A,true,Rx,0,3,2F,01,00,00,00,00,00,00,
-1762630422968560,0401E412,true,Rx,0,7,00,05,15,00,93,FF,01,00,
-1762630422968432,0401E412,true,Rx,0,7,01,05,35,00,80,FF,01,00,
-1762630422968304,0401E452,true,Rx,0,8,01,7C,E9,F6,FF,FF,CD,FB,
-1762630422968133,0401E452,true,Rx,0,8,00,7C,92,F6,FF,FF,B0,FC,
-1762630422965488,040A2011,true,Rx,0,8,88,FF,2F,00,98,03,7F,D8,
-1762630422965360,04056411,true,Rx,0,8,FA,FF,09,00,57,FC,7F,D8,
-1762630422964891,040A2012,true,Rx,0,8,A7,00,BE,FF,D4,03,7F,D8,
-1762630422964763,04056412,true,Rx,0,8,05,00,0D,00,CF,04,7F,D8,
-1762630422962715,0405C40F,true,Rx,0,8,00,01,E3,38,97,37,BE,1B,
-1762630422962587,0405C42F,true,Rx,0,8,00,64,F8,26,21,00,D0,FF,
-1762630422962459,0405C40F,true,Rx,0,8,01,01,43,3A,7A,38,9A,0D,
-1762630422962288,0405C42F,true,Rx,0,8,01,64,CF,28,3E,00,3E,00,
-1762630422962203,0405C52F,true,Rx,0,5,00,3D,00,E6,FF,00,00,00,
-1762630422962032,0405C40F,true,Rx,0,8,02,01,03,3D,91,39,4A,E8,
-1762630422961904,0405C42F,true,Rx,0,8,02,64,27,25,DA,FF,32,00,
-1762630422961819,0405C52F,true,Rx,0,5,02,28,00,D7,FF,00,00,00,
-1762630422961691,0405C52F,true,Rx,0,5,01,74,00,0F,00,00,00,00,
-1762630422961179,0401E411,true,Rx,0,7,00,05,32,00,7C,FF,01,00,
-1762630422961051,0401E411,true,Rx,0,7,01,05,FE,FF,B6,FF,01,00,
-1762630422960923,0401E451,true,Rx,0,8,01,84,50,FF,FF,FF,A3,FE,
-1762630422960795,0401E431,true,Rx,0,6,00,00,00,00,00,00,00,00,
-1762630422960667,0401E431,true,Rx,0,6,01,00,00,00,00,00,00,00,
-1762630422960496,0401E451,true,Rx,0,8,00,84,65,00,00,00,69,FC,
-1762630422960368,0401E481,true,Rx,0,4,11,01,B3,FF,00,00,00,00,
-1762630422960283,0401E481,true,Rx,0,4,11,00,76,FF,00,00,00,00,
-1762630422960198,0401E481,true,Rx,0,4,12,01,71,FF,00,00,00,00,
-1762630422960112,0401E481,true,Rx,0,4,12,00,95,FF,00,00,00,00,
-1762630422959942,0405C410,true,Rx,0,8,00,01,EE,42,A5,5A,BD,0E,
-1762630422959814,0405C430,true,Rx,0,8,00,64,AA,2B,22,00,7D,00,
-1762630422959686,0405C410,true,Rx,0,8,01,01,18,43,5C,5A,58,35,
-1762630422959558,0405C430,true,Rx,0,8,01,64,71,2B,9D,00,50,FE,
-1762630422959387,0405C530,true,Rx,0,5,01,24,01,F7,00,00,00,00,
-1762630422959302,0405C410,true,Rx,0,8,02,01,BC,3D,F2,57,7C,3B,
-1762630422959131,0405C430,true,Rx,0,8,02,64,48,28,00,00,58,FF,
-1762630422959003,0405C530,true,Rx,0,5,02,0F,00,2B,FF,00,00,00,
-1762630422958918,0405C530,true,Rx,0,5,00,6C,00,86,00,00,00,00,
-1762630422954865,0405200C,true,Rx,0,2,00,00,00,00,00,00,00,00,
-1762630422954481,0405280C,true,Rx,0,2,00,00,00,00,00,00,00,00,
-1762630422954097,04072001,true,Rx,0,4,01,00,01,00,00,00,00,00,
-1762630422952859,04001442,true,Rx,0,1,00,00,00,00,00,00,00,00,
-1762630422952731,04001462,true,Rx,0,1,41,00,00,00,00,00,00,00,
-1762630422952646,040014A2,true,Rx,0,2,D0,4A,00,00,00,00,00,00,
-1762630422952475,04001482,true,Rx,0,1,00,00,00,00,00,00,00,00,
-1762630422952390,040014C2,true,Rx,0,4,00,00,00,00,00,00,00,00,
-1762630422952305,04001542,true,Rx,0,2,AE,FD,00,00,00,00,00,00,
-1762630422952177,04001562,true,Rx,0,2,15,00,00,00,00,00,00,00,
-1762630422952049,04001522,true,Rx,0,2,93,00,00,00,00,00,00,00,
-1762630422951963,040015A2,true,Rx,0,1,00,00,00,00,00,00,00,00,
-1762630422951835,04001722,true,Rx,0,1,5E,00,00,00,00,00,00,00,
-1762630422951665,04001682,true,Rx,0,6,6B,CC,90,00,11,00,00,00,
-1762630422951579,040015E2,true,Rx,0,2,00,00,00,00,00,00,00,00,
-1762630422951451,04001602,true,Rx,0,1,00,00,00,00,00,00,00,00,
-1762630422951323,04001622,true,Rx,0,1,00,00,00,00,00,00,00,00,
-1762630422951195,04001642,true,Rx,0,1,00,00,00,00,00,00,00,00,
-1762630422951025,04001662,true,Rx,0,3,00,00,00,00,00,00,00,00,
-1762630422950897,040016C2,true,Rx,0,5,00,00,00,00,00,00,00,00,
-1762630422950641,1C0003E6,true,Rx,0,8,02,FC,23,00,0A,10,02,B1,
-1762630422950470,1C0003E6,true,Rx,0,8,01,E2,02,0A,10,1B,00,14,
-1762630422950342,1C0003E6,true,Rx,0,8,00,F4,0E,F8,0E,F6,0E,F8,
-1762630422950171,1C0003E6,true,Rx,0,8,0E,F6,0E,00,00,00,00,00,
-1762630422950001,1C0003E6,true,Rx,0,7,00,00,00,00,00,95,03,00,
-1762630422949873,1C0003E6,true,Rx,0,8,02,FC,19,00,0A,10,02,B1,
-1762630422949702,1C0003E6,true,Rx,0,8,01,7D,02,0A,10,1C,00,0A,
-1762630422949617,0405200B,true,Rx,0,2,00,00,00,00,00,00,00,00,
-1762630422949489,1C0003E6,true,Rx,0,8,00,00,00,00,00,00,00,00,
-1762630422949361,1C0003E6,true,Rx,0,5,00,00,00,13,03,00,00,00,
-1762630422948507,0401E412,true,Rx,0,7,00,05,18,00,94,FF,01,00,
-1762630422948379,0401E412,true,Rx,0,7,01,05,32,00,6E,FF,01,00,
-1762630422948252,0401E452,true,Rx,0,8,01,90,E8,F6,FF,FF,CF,FB,
-1762630422948124,0401E452,true,Rx,0,8,00,90,91,F6,FF,FF,B0,FC,
-1762630422946758,0405280B,true,Rx,0,2,00,00,00,00,00,00,00,00,
-1762630422945521,040A2011,true,Rx,0,8,E5,FF,3B,00,29,04,93,D8,
-1762630422945350,04056411,true,Rx,0,8,FC,FF,09,00,59,FC,93,D8,
-1762630422944881,040A2012,true,Rx,0,8,31,FF,EF,FF,0A,04,93,D8,
-1762630422944710,04056412,true,Rx,0,8,05,00,0C,00,D2,04,93,D8,
-1762630422941169,0401E411,true,Rx,0,7,00,05,2B,00,80,FF,01,00,
-1762630422941041,0401E411,true,Rx,0,7,01,05,00,00,B9,FF,01,00,
-1762630422940913,0401E451,true,Rx,0,8,00,98,64,00,00,00,62,FC,
-1762630422940785,0401E451,true,Rx,0,8,01,98,4F,FF,FF,FF,9F,FE,
-1762630422940657,0401E481,true,Rx,0,4,11,01,B3,FF,00,00,00,00,
-1762630422940572,0401E481,true,Rx,0,4,11,00,76,FF,00,00,00,00,
-1762630422940444,0401E481,true,Rx,0,4,12,01,71,FF,00,00,00,00,
-1762630422940358,0401E481,true,Rx,0,4,12,00,95,FF,00,00,00,00,
-1762630422928540,0401E412,true,Rx,0,7,00,05,2B,00,9D,FF,01,00,
-1762630422928412,0401E412,true,Rx,0,7,01,05,2E,00,6E,FF,01,00,
-1762630422928284,0401E452,true,Rx,0,8,01,A4,E6,F6,FF,FF,D1,FB,
-1762630422928156,0401E452,true,Rx,0,8,00,A4,90,F6,FF,FF,AA,FC,
-1762630422928071,0405200D,true,Rx,0,2,00,00,00,00,00,00,00,00,
-1762630422927986,0405200E,true,Rx,0,2,00,00,00,00,00,00,00,00,
-1762630422925511,040A2011,true,Rx,0,8,91,00,F0,FF,81,03,A7,D8,
-1762630422925383,04056411,true,Rx,0,8,FC,FF,08,00,5A,FC,A7,D8,
-1762630422924999,040A2012,true,Rx,0,8,23,00,50,00,E0,03,A7,D8,
-1762630422924871,04056412,true,Rx,0,8,05,00,0B,00,D4,04,A7,D8,
-1762630422923847,0405240A,true,Rx,0,3,2D,01,00,00,00,00,00,00,
-1762630422923762,04030C82,true,Rx,0,4,00,01,00,00,00,00,00,00,
-1762630422923591,04030CE2,true,Rx,0,8,8D,00,00,00,C2,64,1E,67,
-1762630422921202,0401E411,true,Rx,0,7,00,05,28,00,7C,FF,01,00,
-1762630422921074,0401E411,true,Rx,0,7,01,05,FA,FF,B1,FF,01,00,
-1762630422920903,0401E451,true,Rx,0,8,01,AC,4E,FF,FF,FF,A0,FE,
-1762630422920775,0401E451,true,Rx,0,8,00,AC,63,00,00,00,5E,FC,
-1762630422920690,0401E481,true,Rx,0,4,11,01,B2,FF,00,00,00,00,
-1762630422920562,0401E481,true,Rx,0,4,11,00,76,FF,00,00,00,00,
-1762630422920477,0401E481,true,Rx,0,4,12,01,70,FF,00,00,00,00,
-1762630422920349,0401E481,true,Rx,0,4,12,00,96,FF,00,00,00,00,
-1762630422912712,0405C40F,true,Rx,0,8,00,01,E8,38,AE,37,F7,1B,
-1762630422912584,0405C42F,true,Rx,0,8,00,64,FA,26,2D,00,16,00,
-1762630422912456,0405C40F,true,Rx,0,8,01,01,3D,3A,8D,38,F9,0D,
-1762630422912285,0405C42F,true,Rx,0,8,01,64,B4,28,EE,FF,A9,FF,
-1762630422912200,0405C52F,true,Rx,0,5,00,4D,00,0C,00,00,00,00,
-1762630422912072,0405C40F,true,Rx,0,8,02,01,FD,3C,A9,39,9B,E8,
-1762630422911901,0405C42F,true,Rx,0,8,02,64,4B,26,D7,FF,2A,00,
-1762630422911816,0405C52F,true,Rx,0,5,02,FE,FF,0F,00,00,00,00,
-1762630422911688,0405C52F,true,Rx,0,5,01,41,00,8F,FF,00,00,00,
-1762630422910920,0405C410,true,Rx,0,8,00,01,00,43,92,5A,B8,F7,
-1762630422910792,0405C430,true,Rx,0,8,00,64,C7,2B,E5,00,C3,00,
-1762630422910664,0405C410,true,Rx,0,8,01,01,34,43,1C,5A,84,35,
-1762630422910493,0405C430,true,Rx,0,8,01,64,96,2B,1F,00,69,00,
-1762630422910408,0405C530,true,Rx,0,5,00,F7,FF,1D,00,00,00,00,
-1762630422910237,0405C410,true,Rx,0,8,02,01,F3,3D,BB,56,60,3C,
-1762630422910109,0405C430,true,Rx,0,8,02,64,90,28,A3,FF,C6,00,
-1762630422909981,0405C530,true,Rx,0,5,02,C1,00,F1,FF,00,00,00,
-1762630422909896,0405C530,true,Rx,0,5,01,C9,00,42,01,00,00,00,
-1762630422908530,0401E412,true,Rx,0,7,00,05,31,00,A7,FF,01,00,
-1762630422908402,0401E412,true,Rx,0,7,01,05,2A,00,69,FF,01,00,
-1762630422908274,0401E452,true,Rx,0,8,01,B8,E4,F6,FF,FF,D6,FB,
-1762630422908146,0401E432,true,Rx,0,6,00,00,00,00,00,00,00,00,
-1762630422908018,0401E432,true,Rx,0,6,01,00,00,00,00,00,00,00,
-1762630422907890,0401E452,true,Rx,0,8,00,B8,8F,F6,FF,FF,9E,FC,
-1762630422905501,040A2011,true,Rx,0,8,EE,FF,7E,FF,DA,03,BB,D8,
-1762630422905331,04056411,true,Rx,0,8,FC,FF,08,00,5C,FC,BB,D8,
-1762630422904904,040A2012,true,Rx,0,8,96,FF,11,00,5F,03,BB,D8,
-1762630422904776,04056412,true,Rx,0,8,05,00,0C,00,D6,04,BB,D8,
-1762630422904093,04072001,true,Rx,0,4,01,00,01,00,00,00,00,00,
-1762630422901192,0401E411,true,Rx,0,7,00,05,2F,00,7D,FF,01,00,
-1762630422901064,0401E411,true,Rx,0,7,01,05,02,00,B1,FF,01,00,
-1762630422900936,0401E451,true,Rx,0,8,01,C0,4E,FF,FF,FF,A0,FE,
-1762630422900765,0401E451,true,Rx,0,8,00,C0,61,00,00,00,59,FC,
-1762630422900680,0401E481,true,Rx,0,4,11,01,B2,FF,00,00,00,00,
-1762630422900552,0401E481,true,Rx,0,4,11,00,76,FF,00,00,00,00,
-1762630422900467,0401E481,true,Rx,0,4,12,01,70,FF,00,00,00,00,
-1762630422900339,0401E481,true,Rx,0,4,12,00,96,FF,00,00,00,00,
-1762630422888563,0401E412,true,Rx,0,7,00,05,40,00,A9,FF,01,00,
-1762630422888435,0401E412,true,Rx,0,7,01,05,37,00,7C,FF,01,00,
-1762630422888307,0401E452,true,Rx,0,8,01,CC,E3,F6,FF,FF,CD,FB,
-1762630422888137,0401E452,true,Rx,0,8,00,CC,8E,F6,FF,FF,90,FC,
-1762630422885491,040A2011,true,Rx,0,8,48,FF,CD,FF,E7,03,CF,D8,
-1762630422885363,04056411,true,Rx,0,8,FC,FF,07,00,5D,FC,CF,D8,
-1762630422885065,040A2012,true,Rx,0,8,C6,FF,AE,FF,65,04,CF,D8,
-1762630422884937,04056412,true,Rx,0,8,05,00,0B,00,D7,04,CF,D8,
-1762630422881182,0401E411,true,Rx,0,7,00,05,34,00,7D,FF,01,00,
-1762630422881054,0401E411,true,Rx,0,7,01,05,00,00,B8,FF,01,00,
-1762630422880926,0401E451,true,Rx,0,8,01,D4,4D,FF,FF,FF,9C,FE,
-1762630422880798,0401E451,true,Rx,0,8,00,D4,60,00,00,00,54,FC,
-1762630422880670,0401E481,true,Rx,0,4,11,01,B2,FF,00,00,00,00,
-1762630422880585,0401E481,true,Rx,0,4,11,00,76,FF,00,00,00,00,
-1762630422880457,0401E481,true,Rx,0,4,12,01,70,FF,00,00,00,00,
-1762630422880371,0401E481,true,Rx,0,4,12,00,96,FF,00,00,00,00,
-1762630422876958,04098C31,true,Rx,0,3,00,00,00,00,00,00,00,00,
-1762630422876873,04098C51,true,Rx,0,3,00,F1,FF,00,00,00,00,00,
-1762630422875124,0405240A,true,Rx,0,3,31,01,00,00,00,00,00,00,
-1762630422873801,0405200C,true,Rx,0,2,00,00,00,00,00,00,00,00,
-1762630422871838,0405200B,true,Rx,0,2,00,00,00,00,00,00,00,00,
-1762630422868553,0401E412,true,Rx,0,7,00,05,3F,00,AC,FF,01,00,
-1762630422868425,0401E412,true,Rx,0,7,01,05,47,00,7E,FF,01,00,
-1762630422868297,0401E452,true,Rx,0,8,01,E0,E1,F6,FF,FF,C3,FB,
-1762630422868169,0401E452,true,Rx,0,8,00,E0,8D,F6,FF,FF,80,FC,
-1762630422865481,040A2011,true,Rx,0,8,6B,00,21,00,D0,03,E3,D8,
-1762630422865353,04056411,true,Rx,0,8,FB,FF,07,00,5E,FC,E3,D8,
-1762630422864841,040A2012,true,Rx,0,8,B7,FF,75,00,D5,03,E3,D8,
-1762630422864756,04056412,true,Rx,0,8,02,00,0B,00,DA,04,E3,D8,
-1762630422862751,0405C40F,true,Rx,0,8,00,01,EB,38,E7,37,21,1C,
-1762630422862623,0405C42F,true,Rx,0,8,00,64,EE,26,3B,00,4C,00,
-1762630422862452,0405C40F,true,Rx,0,8,01,01,2F,3A,8E,38,DB,0E,
-1762630422862324,0405C42F,true,Rx,0,8,01,64,D1,28,2D,00,1A,00,
-1762630422862239,0405C52F,true,Rx,0,5,00,D3,FF,1E,00,00,00,00,
-1762630422862068,0405C40F,true,Rx,0,8,02,01,EE,3C,9C,39,C7,E8,
-1762630422861940,0405C42F,true,Rx,0,8,02,64,C0,26,01,00,29,00,
-1762630422861812,0405C52F,true,Rx,0,5,02,ED,FF,20,00,00,00,00,
-1762630422861727,0405C52F,true,Rx,0,5,01,61,00,D5,FF,00,00,00,
-1762630422861172,0401E411,true,Rx,0,7,00,05,3D,00,80,FF,01,00,
-1762630422861044,0401E411,true,Rx,0,7,01,05,FF,FF,B5,FF,01,00,
-1762630422860916,0401E451,true,Rx,0,8,01,E8,4C,FF,FF,FF,9A,FE,
-1762630422860788,0401E431,true,Rx,0,6,00,00,00,00,00,00,00,00,
-1762630422860660,0401E431,true,Rx,0,6,01,00,00,00,00,00,00,00,
-1762630422860532,0401E451,true,Rx,0,8,00,E8,5F,00,00,00,4D,FC,
-1762630422860404,0401E481,true,Rx,0,4,11,01,B3,FF,00,00,00,00,
-1762630422860319,0401E481,true,Rx,0,4,11,00,76,FF,00,00,00,00,
-1762630422860191,0401E481,true,Rx,0,4,12,01,72,FF,00,00,00,00,
-1762630422860063,0401E481,true,Rx,0,4,12,00,94,FF,00,00,00,00,
-1762630422859935,0405C410,true,Rx,0,8,00,01,1B,43,4A,5A,FC,EA,
-1762630422859807,0405C430,true,Rx,0,8,00,64,D8,2B,39,00,C4,00,
-1762630422859679,0405C410,true,Rx,0,8,01,01,7A,43,C2,58,56,35,
-1762630422859551,0405C430,true,Rx,0,8,01,64,F0,2B,81,FE,F0,01,
-1762630422859423,0405C530,true,Rx,0,5,01,B2,00,3C,FF,00,00,00,
-1762630422859295,0405C410,true,Rx,0,8,02,01,6A,3E,0E,55,C2,3C,
-1762630422859124,0405C430,true,Rx,0,8,02,64,A2,28,CA,FF,E4,00,
-1762630422858996,0405C530,true,Rx,0,5,02,83,00,C4,00,00,00,00,
-1762630422858911,0405C530,true,Rx,0,5,00,7B,FF,8C,00,00,00,00,
-1762630422855327,0405280C,true,Rx,0,2,00,00,00,00,00,00,00,00,
-1762630422853834,04072001,true,Rx,0,4,01,00,01,00,00,00,00,00,
-1762630422852938,1C0000DA,true,Rx,0,8,02,FD,09,00,13,49,B4,39,
-1762630422852810,1C0000DA,true,Rx,0,5,00,6B,16,40,03,00,00,00,
-1762630422852554,0405280B,true,Rx,0,2,00,00,00,00,00,00,00,00,
-1762630422850847,1C000346,true,Rx,0,8,02,FD,09,00,13,49,B4,39,
-1762630422850719,1C000346,true,Rx,0,5,00,6B,17,1E,03,00,00,00,
-1762630422850335,0405200E,true,Rx,0,2,00,00,00,00,00,00,00,00,
-1762630422848543,0401E412,true,Rx,0,7,00,05,57,00,AC,FF,01,00,
-1762630422848415,0401E412,true,Rx,0,7,01,05,31,00,77,FF,01,00,
-1762630422848287,0401E452,true,Rx,0,8,01,F4,E0,F6,FF,FF,C0,FB,
-1762630422848159,0401E452,true,Rx,0,8,00,F4,8D,F6,FF,FF,6E,FC,
-1762630422847519,0405200D,true,Rx,0,2,00,00,00,00,00,00,00,00,
-1762630422845514,040A2011,true,Rx,0,8,C1,FF,23,00,BA,03,F7,D8,
-1762630422845386,04056411,true,Rx,0,8,FA,FF,07,00,5F,FC,F7,D8,
-1762630422844874,040A2012,true,Rx,0,8,3A,FF,CF,00,01,04,F7,D8,
-1762630422844746,04056412,true,Rx,0,8,02,00,0A,00,DD,04,F7,D8,
-1762630422844021,1C00003A,true,Rx,0,8,02,FD,09,00,36,40,FD,74,
-1762630422843893,1C00003A,true,Rx,0,5,00,7F,16,40,03,00,00,00,
-1762630422842954,1C000341,true,Rx,0,8,02,FD,09,00,36,40,FD,74,
-1762630422842826,1C000341,true,Rx,0,5,00,7F,17,1E,03,00,00,00,
-1762630422841162,0401E411,true,Rx,0,7,00,05,42,00,81,FF,01,00,
-1762630422841034,0401E411,true,Rx,0,7,01,05,FD,FF,B5,FF,01,00,
-1762630422840906,0401E451,true,Rx,0,8,01,FC,4C,FF,FF,FF,99,FE,
-1762630422840736,0401E451,true,Rx,0,8,00,FC,5E,00,00,00,45,FC,
-1762630422840650,0401E481,true,Rx,0,4,11,01,B3,FF,00,00,00,00,
-1762630422840565,0401E481,true,Rx,0,4,11,00,76,FF,00,00,00,00,
-1762630422840437,0401E481,true,Rx,0,4,12,01,72,FF,00,00,00,00,
-1762630422840309,0401E481,true,Rx,0,4,12,00,94,FF,00,00,00,00,
-1762630422834848,04030C82,true,Rx,0,4,00,01,00,00,00,00,00,00,
-1762630422834677,04030CE2,true,Rx,0,8,8D,00,00,00,C2,64,1E,67,
-1762630422828576,0401E412,true,Rx,0,7,00,05,6C,00,AF,FF,01,00,
-1762630422828448,0401E412,true,Rx,0,7,01,05,2C,00,68,FF,01,00,
-1762630422828278,0401E452,true,Rx,0,8,01,08,DE,F6,FF,FF,C7,FB,
-1762630422828150,0401E452,true,Rx,0,8,00,08,8C,F6,FF,FF,5A,FC,
-1762630422827126,1C00005A,true,Rx,0,8,02,FD,09,00,E2,71,1C,50,
-1762630422826998,1C00005A,true,Rx,0,5,00,6F,16,40,03,00,00,00,
-1762630422825504,040A2011,true,Rx,0,8,31,00,1B,00,F2,03,0B,D9,
-1762630422825376,04056411,true,Rx,0,8,FA,FF,08,00,60,FC,0B,D9,
-1762630422825120,0405240A,true,Rx,0,3,32,01,00,00,00,00,00,00,
-1762630422824907,040A2012,true,Rx,0,8,5B,00,DF,FF,D4,03,0B,D9,
-1762630422824736,04056412,true,Rx,0,8,04,00,0B,00,E0,04,0B,D9,
-1762630422824608,1C000342,true,Rx,0,8,02,FD,09,00,E2,71,1C,50,
-1762630422824480,1C000342,true,Rx,0,5,00,6F,17,1E,03,00,00,00,
-1762630422821195,0401E411,true,Rx,0,7,00,05,4A,00,84,FF,01,00,
-1762630422821067,0401E411,true,Rx,0,7,01,05,01,00,AE,FF,01,00,
-1762630422820939,0401E451,true,Rx,0,8,00,10,5D,00,00,00,3B,FC,
-1762630422820768,0401E451,true,Rx,0,8,01,10,4B,FF,FF,FF,9C,FE,
-1762630422820683,0401E481,true,Rx,0,4,11,01,B3,FF,00,00,00,00,
-1762630422820555,0401E481,true,Rx,0,4,11,00,76,FF,00,00,00,00,
-1762630422820470,0401E481,true,Rx,0,4,12,01,72,FF,00,00,00,00,
-1762630422820342,0401E481,true,Rx,0,4,12,00,94,FF,00,00,00,00,
-1762630422812577,0405C40F,true,Rx,0,8,00,01,F0,38,0A,38,47,1C,
-1762630422812449,0405C42F,true,Rx,0,8,00,64,F5,26,3D,00,57,00,
-1762630422812321,0405C40F,true,Rx,0,8,01,01,2F,3A,00,39,BB,0E,
-1762630422812150,0405C42F,true,Rx,0,8,01,64,C3,28,D2,FF,66,00,
-1762630422812065,0405C52F,true,Rx,0,5,00,B4,FF,E5,FF,00,00,00,
-1762630422811937,0405C40F,true,Rx,0,8,02,01,E8,3C,E8,39,26,E9,
-1762630422811766,0405C42F,true,Rx,0,8,02,64,1B,27,0B,00,3A,00,
-1762630422811681,0405C52F,true,Rx,0,5,02,FD,FF,2D,00,00,00,00,
-1762630422811553,0405C52F,true,Rx,0,5,01,C2,FF,6B,00,00,00,00,
-1762630422810913,0405C410,true,Rx,0,8,00,01,46,43,EA,59,2F,E4,
-1762630422810785,0405C430,true,Rx,0,8,00,64,96,2B,75,00,5A,01,
-1762630422810614,0405C410,true,Rx,0,8,01,01,A5,43,3E,58,98,35,
-1762630422810486,0405C430,true,Rx,0,8,01,64,04,2C,5C,00,0C,02,
-1762630422810358,0405C530,true,Rx,0,5,00,F0,FE,1C,01,00,00,00,
-1762630422810230,0405C410,true,Rx,0,8,02,01,E2,3E,E3,52,9E,3C,
-1762630422810102,0405C430,true,Rx,0,8,02,64,FC,28,F5,00,1E,01,
-1762630422809974,0405C530,true,Rx,0,5,02,E1,00,4C,01,00,00,00,
-1762630422809889,0405C530,true,Rx,0,5,01,55,00,CF,00,00,00,00,
-1762630422808566,0401E412,true,Rx,0,7,00,05,76,00,B8,FF,01,00,
-1762630422808438,0401E412,true,Rx,0,7,01,05,27,00,62,FF,01,00,
-1762630422808268,0401E452,true,Rx,0,8,01,1C,DC,F6,FF,FF,D3,FB,
-1762630422808140,0401E432,true,Rx,0,6,00,00,00,00,00,00,00,00,
-1762630422808012,0401E432,true,Rx,0,6,01,00,00,00,00,00,00,00,
-1762630422807884,0401E452,true,Rx,0,8,00,1C,8B,F6,FF,FF,3F,FC,
-1762630422805494,040A2011,true,Rx,0,8,D4,FF,F4,FF,BE,03,1F,D9,
-1762630422805366,04056411,true,Rx,0,8,FB,FF,08,00,60,FC,1F,D9,
-1762630422804897,040A2012,true,Rx,0,8,06,00,F5,FF,AA,03,1F,D9,
-1762630422804726,04056412,true,Rx,0,8,03,00,0B,00,E3,04,1F,D9,
-1762630422804086,04072001,true,Rx,0,4,01,00,01,00,00,00,00,00,
-1762630422801185,0401E411,true,Rx,0,7,00,05,46,00,8B,FF,01,00,
-1762630422801057,0401E411,true,Rx,0,7,01,05,FE,FF,A0,FF,01,00,
-1762630422800929,0401E451,true,Rx,0,8,00,24,5C,00,00,00,2C,FC,
-1762630422800759,0401E451,true,Rx,0,8,01,24,4A,FF,FF,FF,AA,FE,
-1762630422800673,0401E481,true,Rx,0,4,11,01,B3,FF,00,00,00,00,
-1762630422800545,0401E481,true,Rx,0,4,11,00,76,FF,00,00,00,00,
-1762630422800460,0401E481,true,Rx,0,4,12,01,72,FF,00,00,00,00,
-1762630422800332,0401E481,true,Rx,0,4,12,00,94,FF,00,00,00,00,
-1762630422794658,0405200C,true,Rx,0,2,00,00,00,00,00,00,00,00,
-1762630422792780,0405200B,true,Rx,0,2,00,00,00,00,00,00,00,00,
-1762630422788556,0401E412,true,Rx,0,7,00,05,75,00,B2,FF,01,00,
-1762630422788428,0401E412,true,Rx,0,7,01,05,2F,00,77,FF,01,00,
-1762630422788300,0401E452,true,Rx,0,8,01,30,DB,F6,FF,FF,D0,FB,
-1762630422788172,0401E452,true,Rx,0,8,00,30,8A,F6,FF,FF,29,FC,
-1762630422785527,040A2011,true,Rx,0,8,8F,FF,DA,FF,87,03,33,D9,
-1762630422785399,04056411,true,Rx,0,8,FC,FF,09,00,61,FC,33,D9,
-1762630422784845,040A2012,true,Rx,0,8,1F,00,77,FF,86,04,33,D9,
-1762630422784717,04056412,true,Rx,0,8,02,00,0C,00,E5,04,33,D9,
-1762630422781175,0401E411,true,Rx,0,7,00,05,3F,00,82,FF,01,00,
-1762630422781047,0401E411,true,Rx,0,7,01,05,FB,FF,AB,FF,01,00,
-1762630422780919,0401E451,true,Rx,0,8,01,38,49,FF,FF,FF,B0,FE,
-1762630422780749,0401E451,true,Rx,0,8,00,38,5A,00,00,00,23,FC,
-1762630422780663,0401E481,true,Rx,0,4,11,01,B3,FF,00,00,00,00,
-1762630422780535,0401E481,true,Rx,0,4,11,00,76,FF,00,00,00,00,
-1762630422780450,0401E481,true,Rx,0,4,12,01,72,FF,00,00,00,00,
-1762630422780322,0401E481,true,Rx,0,4,12,00,94,FF,00,00,00,00,
-1762630422776952,04098C31,true,Rx,0,3,00,00,00,00,00,00,00,00,
-1762630422776866,04098C51,true,Rx,0,3,00,F3,FF,00,00,00,00,00,
-1762630422774008,0405240A,true,Rx,0,3,36,01,00,00,00,00,00,00,
-1762630422771362,0405200E,true,Rx,0,2,00,00,00,00,00,00,00,00,
-1762630422768589,0401E412,true,Rx,0,7,00,05,6B,00,AB,FF,01,00,
-1762630422768461,0401E412,true,Rx,0,7,01,05,2E,00,7B,FF,01,00,
-1762630422768291,0401E452,true,Rx,0,8,01,44,D9,F6,FF,FF,CA,FB,
-1762630422768163,0401E452,true,Rx,0,8,00,44,89,F6,FF,FF,18,FC,
-1762630422768077,0405200D,true,Rx,0,2,00,00,00,00,00,00,00,00,
-1762630422765517,040A2011,true,Rx,0,8,B0,FF,BD,FF,2F,04,47,D9,
-1762630422765389,04056411,true,Rx,0,8,FC,FF,09,00,63,FC,47,D9,
-1762630422764835,040A2012,true,Rx,0,8,BA,FF,DB,FF,B2,03,47,D9,
-1762630422764707,04056412,true,Rx,0,8,01,00,0C,00,E7,04,47,D9,
-1762630422762744,0405C40F,true,Rx,0,8,00,01,F2,38,25,38,5A,1C,
-1762630422762573,0405C42F,true,Rx,0,8,00,64,F9,26,57,00,5A,00,
-1762630422762488,0405C52F,true,Rx,0,5,00,A9,FF,C8,FF,00,00,00,
-1762630422762317,0405C40F,true,Rx,0,8,01,01,3E,3A,F4,38,EE,0E,
-1762630422762189,0405C42F,true,Rx,0,8,01,64,D1,28,B7,FF,3C,00,
-1762630422762061,0405C40F,true,Rx,0,8,02,01,EC,3C,15,3A,0B,E9,
-1762630422761933,0405C42F,true,Rx,0,8,02,64,40,27,1B,00,3D,00,
-1762630422761805,0405C52F,true,Rx,0,5,02,E6,FF,3A,00,00,00,00,
-1762630422761677,0405C52F,true,Rx,0,5,01,96,FF,6C,00,00,00,00,
-1762630422761165,0401E411,true,Rx,0,7,00,05,46,00,77,FF,01,00,
-1762630422761037,0401E411,true,Rx,0,7,01,05,FE,FF,A5,FF,01,00,
-1762630422760909,0401E451,true,Rx,0,8,01,4C,48,FF,FF,FF,BA,FE,
-1762630422760781,0401E431,true,Rx,0,6,00,00,00,00,00,00,00,00,
-1762630422760653,0401E431,true,Rx,0,6,01,00,00,00,00,00,00,00,
-1762630422760483,0401E451,true,Rx,0,8,00,4C,59,00,00,00,23,FC,
-1762630422760355,0401E481,true,Rx,0,4,11,01,B4,FF,00,00,00,00,
-1762630422760270,0401E481,true,Rx,0,4,11,00,76,FF,00,00,00,00,
-1762630422760184,0401E481,true,Rx,0,4,12,01,74,FF,00,00,00,00,
-1762630422760099,0401E481,true,Rx,0,4,12,00,92,FF,00,00,00,00,
-1762630422759971,0405280C,true,Rx,0,2,00,00,00,00,00,00,00,00,
-1762630422759843,0405C410,true,Rx,0,8,00,01,50,43,2B,59,25,E0,
-1762630422759715,0405C430,true,Rx,0,8,00,64,79,2B,DA,00,43,01,
-1762630422759587,0405C410,true,Rx,0,8,01,01,B2,43,04,58,A1,35,
-1762630422759416,0405C430,true,Rx,0,8,01,64,FF,2B,29,01,FB,01,
-1762630422759331,0405C530,true,Rx,0,5,01,31,FF,C7,01,00,00,00,
-1762630422759203,0405C410,true,Rx,0,8,02,01,15,3F,C2,50,7E,3C,
-1762630422759032,0405C430,true,Rx,0,8,02,64,2B,29,35,01,69,01,
-1762630422758947,0405C530,true,Rx,0,5,02,A1,FF,E6,01,00,00,00,
-1762630422758819,0405C530,true,Rx,0,5,00,33,01,5B,01,00,00,00,
-1762630422755534,0405280B,true,Rx,0,2,00,00,00,00,00,00,00,00,
-1762630422754126,04072001,true,Rx,0,4,01,00,01,00,00,00,00,00,
-1762630422748579,0401E412,true,Rx,0,7,00,05,60,00,A7,FF,01,00,
-1762630422748451,0401E412,true,Rx,0,7,01,05,30,00,6B,FF,01,00,
-1762630422748281,0401E452,true,Rx,0,8,01,58,D8,F6,FF,FF,D0,FB,
-1762630422748153,0401E452,true,Rx,0,8,00,58,88,F6,FF,FF,09,FC,
-1762630422745763,04030C82,true,Rx,0,4,00,01,00,00,00,00,00,00,
-1762630422745593,04030CE2,true,Rx,0,8,8D,00,00,00,C2,64,1E,67,
-1762630422745465,040A2011,true,Rx,0,8,34,00,FB,FF,97,03,5B,D9,
-1762630422745337,04056411,true,Rx,0,8,FB,FF,0A,00,64,FC,5B,D9,
-1762630422744867,040A2012,true,Rx,0,8,42,00,2C,00,D5,03,5B,D9,
-1762630422744739,04056412,true,Rx,0,8,FF,FF,0D,00,E8,04,5B,D9,
-1762630422741198,0401E411,true,Rx,0,7,00,05,45,00,7B,FF,01,00,
-1762630422741028,0401E411,true,Rx,0,7,01,05,FE,FF,A5,FF,01,00,
-1762630422740900,0401E451,true,Rx,0,8,00,60,58,00,00,00,20,FC,
-1762630422740772,0401E451,true,Rx,0,8,01,60,47,FF,FF,FF,C5,FE,
-1762630422740644,0401E481,true,Rx,0,4,11,01,B4,FF,00,00,00,00,
-1762630422740558,0401E481,true,Rx,0,4,11,00,76,FF,00,00,00,00,
-1762630422740430,0401E481,true,Rx,0,4,12,01,74,FF,00,00,00,00,
-1762630422740345,0401E481,true,Rx,0,4,12,00,92,FF,00,00,00,00,
-1762630422728569,0401E412,true,Rx,0,7,00,05,5E,00,9D,FF,01,00,
-1762630422728441,0401E412,true,Rx,0,7,01,05,31,00,6D,FF,01,00,
-1762630422728313,0401E452,true,Rx,0,8,01,6C,D6,F6,FF,FF,D5,FB,
-1762630422728185,0401E452,true,Rx,0,8,00,6C,87,F6,FF,FF,01,FC,
-1762630422725498,040A2011,true,Rx,0,8,A9,FF,EC,FF,96,03,6F,D9,
-1762630422725370,04056411,true,Rx,0,8,FB,FF,0A,00,65,FC,6F,D9,
-1762630422725114,0405240A,true,Rx,0,3,3E,01,00,00,00,00,00,00,
-1762630422724858,040A2012,true,Rx,0,8,0B,00,13,00,BD,03,6F,D9,
-1762630422724730,04056412,true,Rx,0,8,FF,FF,0E,00,EA,04,6F,D9,
-1762630422721188,0401E411,true,Rx,0,7,00,05,4D,00,7A,FF,01,00,
-1762630422721060,0401E411,true,Rx,0,7,01,05,02,00,B0,FF,01,00,
-1762630422720932,0401E451,true,Rx,0,8,00,74,57,00,00,00,1D,FC,
-1762630422720762,0401E451,true,Rx,0,8,01,74,47,FF,FF,FF,C8,FE,
-1762630422720676,0401E481,true,Rx,0,4,11,01,B6,FF,00,00,00,00,
-1762630422720591,0401E481,true,Rx,0,4,11,00,76,FF,00,00,00,00,
-1762630422720463,0401E481,true,Rx,0,4,12,01,78,FF,00,00,00,00,
-1762630422720378,0401E481,true,Rx,0,4,12,00,8E,FF,00,00,00,00,
-1762630422716709,0405200C,true,Rx,0,2,00,00,00,00,00,00,00,00,
-1762630422714746,0405200B,true,Rx,0,2,00,00,00,00,00,00,00,00,
-1762630422712741,0405C40F,true,Rx,0,8,00,01,FE,38,4D,38,B5,1C,
-1762630422712570,0405C42F,true,Rx,0,8,00,64,06,27,5F,00,53,00,
-1762630422712442,0405C40F,true,Rx,0,8,01,01,44,3A,87,39,7A,0F,
-1762630422712314,0405C42F,true,Rx,0,8,01,64,03,29,0D,00,40,00,
-1762630422712186,0405C52F,true,Rx,0,5,00,AF,FF,F9,FF,00,00,00,
-1762630422712058,0405C40F,true,Rx,0,8,02,01,EE,3C,4A,3A,08,E9,
-1762630422711930,0405C42F,true,Rx,0,8,02,64,76,27,23,00,36,00,
-1762630422711802,0405C52F,true,Rx,0,5,02,D6,FF,41,00,00,00,00,
-1762630422711674,0405C52F,true,Rx,0,5,01,51,FF,F8,FF,00,00,00,
-1762630422710906,0405C410,true,Rx,0,8,00,01,5C,43,1F,58,43,DD,
-1762630422710778,0405C430,true,Rx,0,8,00,64,60,2B,40,00,E9,00,
-1762630422710650,0405C410,true,Rx,0,8,01,01,9B,43,30,56,2A,35,
-1762630422710479,0405C430,true,Rx,0,8,01,64,E1,2B,58,01,A6,01,
-1762630422710394,0405C530,true,Rx,0,5,00,B9,FF,E0,00,00,00,00,
-1762630422710266,0405C410,true,Rx,0,8,02,01,56,3F,5F,4A,55,3C,
-1762630422710095,0405C430,true,Rx,0,8,02,64,0A,29,10,01,5E,01,
-1762630422710010,0405C530,true,Rx,0,5,02,CF,FE,20,02,00,00,00,
-1762630422709882,0405C530,true,Rx,0,5,01,56,FE,5B,00,00,00,00,
-1762630422708560,0401E412,true,Rx,0,7,00,05,62,00,9A,FF,01,00,
-1762630422708432,0401E412,true,Rx,0,7,01,05,2A,00,74,FF,01,00,
-1762630422708261,0401E452,true,Rx,0,8,01,80,D5,F6,FF,FF,D8,FB,
-1762630422708133,0401E432,true,Rx,0,6,00,00,00,00,00,00,00,00,
-1762630422708005,0401E432,true,Rx,0,6,01,00,00,00,00,00,00,00,
-1762630422707877,0401E452,true,Rx,0,8,00,80,85,F6,FF,FF,F8,FB,
-1762630422705488,040A2011,true,Rx,0,8,96,FF,0C,00,47,04,83,D9,
-1762630422705360,04056411,true,Rx,0,8,FA,FF,0B,00,66,FC,83,D9,
-1762630422704848,040A2012,true,Rx,0,8,AC,FF,22,00,0F,04,83,D9,
-1762630422704720,04056412,true,Rx,0,8,FF,FF,0E,00,EB,04,83,D9,
-1762630422704080,04072001,true,Rx,0,4,01,00,01,00,00,00,00,00,
-1762630422701178,0401E411,true,Rx,0,7,00,05,52,00,81,FF,01,00,
-1762630422701050,0401E411,true,Rx,0,7,01,05,F8,FF,AF,FF,01,00,
-1762630422700922,0401E451,true,Rx,0,8,01,88,46,FF,FF,FF,CD,FE,
-1762630422700795,0401E451,true,Rx,0,8,00,88,55,00,00,00,15,FC,
-1762630422700667,0401E481,true,Rx,0,4,11,01,B6,FF,00,00,00,00,
-1762630422700581,0401E481,true,Rx,0,4,11,00,76,FF,00,00,00,00,
-1762630422700453,0401E481,true,Rx,0,4,12,01,78,FF,00,00,00,00,
-1762630422700368,0401E481,true,Rx,0,4,12,00,8E,FF,00,00,00,00,
-1762630422692304,0405200E,true,Rx,0,2,00,00,00,00,00,00,00,00,
-1762630422692048,1C0003FA,true,Rx,0,8,02,FD,1F,00,00,00,00,00,
-1762630422691920,1C0003FA,true,Rx,0,8,00,E2,14,02,01,28,80,33,
-1762630422691750,1C0003FA,true,Rx,0,8,00,00,00,57,69,66,69,42,
-1762630422691622,1C0003FA,true,Rx,0,8,6C,65,44,6F,6E,67,6C,65,
-1762630422691536,1C0003FA,true,Rx,0,3,00,3C,03,00,00,00,00,00,
-1762630422690256,0405200D,true,Rx,0,2,00,00,00,00,00,00,00,00,
-1762630422688550,0401E412,true,Rx,0,7,00,05,6B,00,99,FF,01,00,
-1762630422688422,0401E412,true,Rx,0,7,01,05,2D,00,78,FF,01,00,
-1762630422688294,0401E452,true,Rx,0,8,01,94,D3,F6,FF,FF,D8,FB,
-1762630422688123,0401E452,true,Rx,0,8,00,94,84,F6,FF,FF,F0,FB,
-1762630422685478,040A2011,true,Rx,0,8,81,FF,44,00,71,03,97,D9,
-1762630422685350,04056411,true,Rx,0,8,FA,FF,0B,00,67,FC,97,D9,
-1762630422684880,040A2012,true,Rx,0,8,86,FF,DB,FF,12,04,97,D9,
-1762630422684752,04056412,true,Rx,0,8,FE,FF,0F,00,ED,04,97,D9,
-1762630422681169,0401E411,true,Rx,0,7,00,05,4B,00,7E,FF,01,00,
-1762630422681041,0401E411,true,Rx,0,7,01,05,F9,FF,AE,FF,01,00,
-1762630422680913,0401E451,true,Rx,0,8,01,9C,45,FF,FF,FF,D3,FE,
-1762630422680742,0401E451,true,Rx,0,8,00,9C,54,00,00,00,0F,FC,
-1762630422680657,0401E481,true,Rx,0,4,11,01,B6,FF,00,00,00,00,
-1762630422680529,0401E481,true,Rx,0,4,11,00,76,FF,00,00,00,00,
-1762630422680443,0401E481,true,Rx,0,4,12,01,78,FF,00,00,00,00,
-1762630422680315,0401E481,true,Rx,0,4,12,00,8E,FF,00,00,00,00,
-1762630422677158,1C0000DA,true,Rx,0,8,02,FD,09,00,00,01,28,80,
-1762630422677030,1C0000DA,true,Rx,0,5,00,86,16,40,03,00,00,00,
-1762630422676945,04098C31,true,Rx,0,3,00,00,00,00,00,00,00,00,
-1762630422676817,04098C51,true,Rx,0,3,00,E6,FF,00,00,00,00,00,
-1762630422675068,0405240A,true,Rx,0,3,3B,01,00,00,00,00,00,00,
-1762630422674940,1C000346,true,Rx,0,8,02,FD,09,00,00,01,28,80,
-1762630422674812,1C000346,true,Rx,0,5,00,86,17,1E,03,00,00,00,
-1762630422668540,0401E412,true,Rx,0,7,00,05,6E,00,9B,FF,01,00,
-1762630422668412,0401E412,true,Rx,0,7,01,05,2D,00,70,FF,01,00,
-1762630422668284,0401E452,true,Rx,0,8,01,A8,D2,F6,FF,FF,DE,FB,
-1762630422668156,0401E452,true,Rx,0,8,00,A8,83,F6,FF,FF,E7,FB,
-1762630422665511,040A2011,true,Rx,0,8,DC,FF,4C,00,DE,03,AB,D9,
-1762630422665383,04056411,true,Rx,0,8,FB,FF,0C,00,69,FC,AB,D9,
-1762630422664871,040A2012,true,Rx,0,8,8C,FF,10,00,F6,03,AB,D9,
-1762630422664743,04056412,true,Rx,0,8,FE,FF,0F,00,EE,04,AB,D9,
-1762630422663249,0405280C,true,Rx,0,2,00,00,00,00,00,00,00,00,
-1762630422662695,0405C40F,true,Rx,0,8,00,01,03,39,70,38,D9,1C,
-1762630422662567,0405C42F,true,Rx,0,8,00,64,0C,27,55,00,4F,00,
-1762630422662396,0405C40F,true,Rx,0,8,01,01,48,3A,86,39,65,10,
-1762630422662268,0405C42F,true,Rx,0,8,01,64,D8,28,F7,FF,8D,00,
-1762630422662183,0405C52F,true,Rx,0,5,00,F7,FF,1C,00,00,00,00,
-1762630422662012,0405C40F,true,Rx,0,8,02,01,04,3D,71,3A,02,E9,
-1762630422661884,0405C42F,true,Rx,0,8,02,64,B4,27,ED,FF,36,00,
-1762630422661799,0405C52F,true,Rx,0,5,02,C3,FF,23,00,00,00,00,
-1762630422661671,0405C52F,true,Rx,0,5,01,D5,FF,05,00,00,00,00,
-1762630422661159,0401E411,true,Rx,0,7,00,05,49,00,79,FF,01,00,
-1762630422661031,0401E411,true,Rx,0,7,01,05,FD,FF,AB,FF,01,00,
-1762630422660903,0401E451,true,Rx,0,8,00,B0,53,00,00,00,0D,FC,
-1762630422660775,0401E431,true,Rx,0,6,00,00,00,00,00,00,00,00,
-1762630422660647,0401E431,true,Rx,0,6,01,00,00,00,00,00,00,00,
-1762630422660519,0401E451,true,Rx,0,8,01,B0,44,FF,FF,FF,DB,FE,
-1762630422660391,0401E481,true,Rx,0,4,11,01,B5,FF,00,00,00,00,
-1762630422660305,0401E481,true,Rx,0,4,11,00,76,FF,00,00,00,00,
-1762630422660177,0401E481,true,Rx,0,4,12,01,77,FF,00,00,00,00,
-1762630422660092,0401E481,true,Rx,0,4,12,00,8F,FF,00,00,00,00,
-1762630422659921,0405C410,true,Rx,0,8,00,01,50,43,CA,56,90,DA,
-1762630422659793,0405C430,true,Rx,0,8,00,64,43,2B,9C,FF,CE,00,
-1762630422659665,0405C410,true,Rx,0,8,01,01,B3,43,6F,52,D5,34,
-1762630422659537,0405C430,true,Rx,0,8,01,64,D1,2B,9D,01,8A,01,
-1762630422659409,0405C530,true,Rx,0,5,01,E5,FF,D8,FF,00,00,00,
-1762630422659281,0405C410,true,Rx,0,8,02,01,8F,3F,44,30,14,3C,
-1762630422659153,0405C430,true,Rx,0,8,02,64,44,29,B0,01,EA,01,
-1762630422659025,0405C530,true,Rx,0,5,02,13,FF,18,01,00,00,00,
-1762630422658897,0405C530,true,Rx,0,5,00,C5,00,AD,00,00,00,00,
-1762630422656807,04030C82,true,Rx,0,4,00,01,00,00,00,00,00,00,
-1762630422656679,04030CE2,true,Rx,0,8,8D,00,00,00,C2,64,1E,67,
-1762630422655399,0405280B,true,Rx,0,2,00,00,00,00,00,00,00,00,
-1762630422654119,04072001,true,Rx,0,4,01,00,01,00,00,00,00,00,
-1762630422653138,1C00005A,true,Rx,0,8,02,FD,09,00,0E,01,28,80,
-1762630422653010,1C00005A,true,Rx,0,5,00,24,16,40,03,00,00,00,
-1762630422649085,1C000342,true,Rx,0,8,02,FD,09,00,0E,01,28,80,
-1762630422648999,1C000342,true,Rx,0,5,00,24,17,1E,03,00,00,00,
-1762630422648573,0401E412,true,Rx,0,7,00,05,6D,00,96,FF,01,00,
-1762630422648445,0401E412,true,Rx,0,7,01,05,2D,00,6A,FF,01,00,
-1762630422648317,0401E452,true,Rx,0,8,01,BC,D0,F6,FF,FF,E7,FB,
-1762630422648146,0401E452,true,Rx,0,8,00,BC,82,F6,FF,FF,E2,FB,
-1762630422645501,040A2011,true,Rx,0,8,03,00,13,00,C3,03,BF,D9,
-1762630422645373,04056411,true,Rx,0,8,FC,FF,0C,00,6A,FC,BF,D9,
-1762630422644903,040A2012,true,Rx,0,8,1A,00,E8,FF,33,04,BF,D9,
-1762630422644733,04056412,true,Rx,0,8,FD,FF,10,00,EF,04,BF,D9,
-1762630422641149,0401E411,true,Rx,0,7,00,05,3C,00,71,FF,01,00,
-1762630422641064,0401E411,true,Rx,0,7,01,05,FD,FF,AB,FF,01,00,
-1762630422640893,0401E451,true,Rx,0,8,00,C4,51,00,00,00,10,FC,
-1762630422640765,0401E451,true,Rx,0,8,01,C4,44,FF,FF,FF,E2,FE,
-1762630422640637,0401E481,true,Rx,0,4,11,01,B5,FF,00,00,00,00,
-1762630422640552,0401E481,true,Rx,0,4,11,00,76,FF,00,00,00,00,
-1762630422640466,0401E481,true,Rx,0,4,12,01,77,FF,00,00,00,00,
-1762630422640338,0401E481,true,Rx,0,4,12,00,8F,FF,00,00,00,00,
-1762630422638888,0405200C,true,Rx,0,2,00,00,00,00,00,00,00,00,
-1762630422635986,0405200B,true,Rx,0,2,00,00,00,00,00,00,00,00,
-1762630422628563,0401E412,true,Rx,0,7,00,05,65,00,95,FF,01,00,
-1762630422628435,0401E412,true,Rx,0,7,01,05,28,00,70,FF,01,00,
-1762630422628307,0401E452,true,Rx,0,8,01,D0,CE,F6,FF,FF,EC,FB,
-1762630422628136,0401E452,true,Rx,0,8,00,D0,81,F6,FF,FF,DE,FB,
-1762630422625491,040A2011,true,Rx,0,8,7D,FF,74,FF,1B,04,D3,D9,
-1762630422625363,04056411,true,Rx,0,8,FC,FF,0D,00,6C,FC,D3,D9,
-1762630422624851,040A2012,true,Rx,0,8,10,00,00,00,DC,03,D3,D9,
-1762630422624723,04056412,true,Rx,0,8,FC,FF,11,00,F0,04,D3,D9,
-1762630422623870,0405240A,true,Rx,0,3,3E,01,00,00,00,00,00,00,
-1762630422621182,0401E411,true,Rx,0,7,00,05,38,00,73,FF,01,00,
-1762630422621054,0401E411,true,Rx,0,7,01,05,FA,FF,B7,FF,01,00,
-1762630422620926,0401E451,true,Rx,0,8,01,D8,43,FF,FF,FF,E1,FE,
-1762630422620755,0401E451,true,Rx,0,8,00,D8,50,00,00,00,12,FC,
-1762630422620670,0401E481,true,Rx,0,4,11,01,B6,FF,00,00,00,00,
-1762630422620584,0401E481,true,Rx,0,4,11,00,76,FF,00,00,00,00,
-1762630422620456,0401E481,true,Rx,0,4,12,01,78,FF,00,00,00,00,
-1762630422620328,0401E481,true,Rx,0,4,12,00,8E,FF,00,00,00,00,
-1762630422612734,0405C40F,true,Rx,0,8,00,01,07,39,AE,38,F4,1C,
-1762630422612606,0405C42F,true,Rx,0,8,00,64,03,27,5B,00,88,00,
-1762630422612478,0405C40F,true,Rx,0,8,01,01,56,3A,7E,39,0A,11,
-1762630422612393,0405200D,true,Rx,0,2,00,00,00,00,00,00,00,00,
-1762630422612222,0405C42F,true,Rx,0,8,01,64,DA,28,0B,00,B8,00,
-1762630422612137,0405C52F,true,Rx,0,5,00,CC,FF,41,00,00,00,00,
-1762630422611966,0405C40F,true,Rx,0,8,02,01,16,3D,61,3A,29,E9,
-1762630422611838,0405C42F,true,Rx,0,8,02,64,DE,27,05,00,38,00,
-1762630422611753,0405C52F,true,Rx,0,5,02,C2,FF,07,00,00,00,00,
-1762630422611625,0405C52F,true,Rx,0,5,01,6A,FF,09,00,00,00,00,
-1762630422611283,0405200E,true,Rx,0,2,00,00,00,00,00,00,00,00,
-1762630422610857,0405C410,true,Rx,0,8,00,01,69,43,A6,54,67,D9,
-1762630422610729,0405C430,true,Rx,0,8,00,64,1B,2B,1E,FF,F1,00,
-1762630422610601,0405C530,true,Rx,0,5,00,36,01,E0,FF,00,00,00,
-1762630422610430,0405C410,true,Rx,0,8,01,01,B7,43,1D,4D,C3,34,
-1762630422610345,0405C430,true,Rx,0,8,01,64,C8,2B,E3,FD,7F,01,
-1762630422610174,0405C410,true,Rx,0,8,02,01,DA,3F,28,DB,CC,3B,
-1762630422610046,0405C430,true,Rx,0,8,02,64,74,29,99,01,C9,01,
-1762630422609961,0405C530,true,Rx,0,5,01,C9,00,68,FF,00,00,00,
-1762630422609833,0405C530,true,Rx,0,5,02,E7,FF,69,01,00,00,00,
-1762630422608553,0401E412,true,Rx,0,7,00,05,5D,00,92,FF,01,00,
-1762630422608425,0401E412,true,Rx,0,7,01,05,2D,00,7C,FF,01,00,
-1762630422608297,0401E452,true,Rx,0,8,01,E4,CD,F6,FF,FF,E9,FB,
-1762630422608126,0401E432,true,Rx,0,6,00,00,00,00,00,00,00,00,
-1762630422608041,0401E432,true,Rx,0,6,01,00,00,00,00,00,00,00,
-1762630422607913,0401E452,true,Rx,0,8,00,E4,7F,F6,FF,FF,DB,FB,
-1762630422605481,040A2011,true,Rx,0,8,F7,FF,D3,FF,E4,03,E7,D9,
-1762630422605353,04056411,true,Rx,0,8,FD,FF,0C,00,6E,FC,E7,D9,
-1762630422604884,040A2012,true,Rx,0,8,B3,FF,11,00,96,03,E7,D9,
-1762630422604713,04056412,true,Rx,0,8,FA,FF,11,00,F1,04,E7,D9,
-1762630422604116,04072001,true,Rx,0,4,01,00,01,00,00,00,00,00,
-1762630422601172,0401E411,true,Rx,0,7,00,05,3C,00,6A,FF,01,00,
-1762630422601044,0401E411,true,Rx,0,7,01,05,F7,FF,B1,FF,01,00,
-1762630422600916,0401E451,true,Rx,0,8,00,EC,4F,00,00,00,1B,FC,
-1762630422600788,0401E451,true,Rx,0,8,01,EC,42,FF,FF,FF,E4,FE,
-1762630422600660,0401E481,true,Rx,0,4,11,01,B6,FF,00,00,00,00,
-1762630422600574,0401E481,true,Rx,0,4,11,00,76,FF,00,00,00,00,
-1762630422600446,0401E481,true,Rx,0,4,12,01,78,FF,00,00,00,00,
-1762630422600361,0401E481,true,Rx,0,4,12,00,8E,FF,00,00,00,00,
-1762630422588543,0401E412,true,Rx,0,7,00,05,5B,00,88,FF,01,00,
-1762630422588458,0401E412,true,Rx,0,7,01,05,36,00,72,FF,01,00,
-1762630422588287,0401E452,true,Rx,0,8,01,F8,CC,F6,FF,FF,ED,FB,
-1762630422588159,0401E452,true,Rx,0,8,00,F8,7E,F6,FF,FF,DF,FB,
-1762630422585514,040A2011,true,Rx,0,8,2F,00,D0,FF,6F,03,FB,D9,
-1762630422585386,04056411,true,Rx,0,8,FC,FF,0D,00,6F,FC,FB,D9,
-1762630422584874,040A2012,true,Rx,0,8,68,FF,65,00,E5,03,FB,D9,
-1762630422584746,04056412,true,Rx,0,8,F9,FF,11,00,F1,04,FB,D9,
-1762630422581205,0401E411,true,Rx,0,7,00,05,41,00,71,FF,01,00,
-1762630422581077,0401E411,true,Rx,0,7,01,05,FB,FF,B1,FF,01,00,
-1762630422580906,0401E451,true,Rx,0,8,00,00,4D,00,00,00,1E,FC,
-1762630422580778,0401E451,true,Rx,0,8,01,00,42,FF,FF,FF,E7,FE,
-1762630422580650,0401E481,true,Rx,0,4,11,01,B6,FF,00,00,00,00,
-1762630422580565,0401E481,true,Rx,0,4,11,00,76,FF,00,00,00,00,
-1762630422580479,0401E481,true,Rx,0,4,12,01,78,FF,00,00,00,00,
-1762630422580351,0401E481,true,Rx,0,4,12,00,8E,FF,00,00,00,00,
-1762630422576981,04098C31,true,Rx,0,3,00,00,00,00,00,00,00,00,
-1762630422576895,04098C51,true,Rx,0,3,00,EF,FF,00,00,00,00,00,
-1762630422575103,0405240A,true,Rx,0,3,3A,01,00,00,00,00,00,00,
-1762630422568533,0401E412,true,Rx,0,7,00,05,56,00,87,FF,01,00,
-1762630422568405,0401E412,true,Rx,0,7,01,05,3E,00,7E,FF,01,00,
-1762630422568277,0401E452,true,Rx,0,8,01,0C,CA,F6,FF,FF,E9,FB,
-1762630422568149,0401E452,true,Rx,0,8,00,0C,7D,F6,FF,FF,E4,FB,
-1762630422567808,04030C82,true,Rx,0,4,00,01,00,00,00,00,00,00,
-1762630422567637,04030CE2,true,Rx,0,8,8D,00,00,00,C2,64,1E,67,
-1762630422567509,0405280C,true,Rx,0,2,00,00,00,00,00,00,00,00,
-1762630422565504,040A2011,true,Rx,0,8,B7,FF,F1,FF,1D,04,0F,DA,
-1762630422565376,04056411,true,Rx,0,8,FB,FF,0D,00,71,FC,0F,DA,
-1762630422564864,040A2012,true,Rx,0,8,43,00,EC,FF,1B,04,0F,DA,
-1762630422564736,04056412,true,Rx,0,8,F9,FF,10,00,F1,04,0F,DA,
-1762630422562603,0405C40F,true,Rx,0,8,00,01,0F,39,B5,38,F8,1C,
-1762630422562475,0405C42F,true,Rx,0,8,00,64,F0,26,5B,00,91,00,
-1762630422562304,0405C40F,true,Rx,0,8,01,01,59,3A,8B,39,9F,11,
-1762630422562176,0405C42F,true,Rx,0,8,01,64,0B,29,DA,FF,57,00,
-1762630422562091,0405C52F,true,Rx,0,5,00,C6,FF,47,00,00,00,00,
-1762630422561920,0405C40F,true,Rx,0,8,02,01,1B,3D,7B,3A,65,E9,
-1762630422561792,0405C42F,true,Rx,0,8,02,64,48,28,1D,00,38,00,
-1762630422561664,0405C52F,true,Rx,0,5,02,D0,FF,E6,FF,00,00,00,
-1762630422561579,0405C52F,true,Rx,0,5,01,AB,FF,6D,00,00,00,00,
-1762630422561195,0401E411,true,Rx,0,7,00,05,46,00,79,FF,01,00,
-1762630422561067,0401E411,true,Rx,0,7,01,05,FD,FF,B6,FF,01,00,
-1762630422560939,0401E451,true,Rx,0,8,01,14,41,FF,FF,FF,E7,FE,
-1762630422560811,0401E431,true,Rx,0,6,00,00,00,00,00,00,00,00,
-1762630422560683,0401E431,true,Rx,0,6,01,00,00,00,00,00,00,00,
-1762630422560512,0401E451,true,Rx,0,8,00,14,4C,00,00,00,1C,FC,
-1762630422560427,0401E481,true,Rx,0,4,11,01,B5,FF,00,00,00,00,
-1762630422560299,0401E481,true,Rx,0,4,11,00,76,FF,00,00,00,00,
-1762630422560213,0401E481,true,Rx,0,4,12,01,76,FF,00,00,00,00,
-1762630422560128,0401E481,true,Rx,0,4,12,00,90,FF,00,00,00,00,
-1762630422560000,0405280B,true,Rx,0,2,00,00,00,00,00,00,00,00,
-1762630422559872,0405C410,true,Rx,0,8,00,01,7C,43,06,52,C2,D7,
-1762630422559787,0405200C,true,Rx,0,2,00,00,00,00,00,00,00,00,
-1762630422559659,0405C410,true,Rx,0,8,01,01,EC,43,3E,43,CA,34,
-1762630422559531,0405C430,true,Rx,0,8,00,64,DB,2A,A0,FF,C7,00,
-1762630422559360,0405C430,true,Rx,0,8,01,64,E5,2B,F1,FD,CD,01,
-1762630422559232,0405C530,true,Rx,0,5,01,4A,01,A8,00,00,00,00,
-1762630422559104,0405C410,true,Rx,0,8,02,01,2A,40,C1,BA,15,3C,
-1762630422558976,0405C430,true,Rx,0,8,02,64,D8,29,78,FF,78,01,
-1762630422558848,0405C530,true,Rx,0,5,02,5D,00,C9,00,00,00,00,
-1762630422558763,0405C530,true,Rx,0,5,00,E4,00,7A,00,00,00,00,
-1762630422556971,0405200B,true,Rx,0,2,00,00,00,00,00,00,00,00,
-1762630422554155,04072001,true,Rx,0,4,01,00,01,00,00,00,00,00,
-1762630422548566,0401E412,true,Rx,0,7,00,05,4E,00,84,FF,01,00,
-1762630422548438,0401E412,true,Rx,0,7,01,05,3C,00,83,FF,01,00,
-1762630422548310,0401E452,true,Rx,0,8,01,20,C9,F6,FF,FF,E0,FB,
-1762630422548139,0401E452,true,Rx,0,8,00,20,7B,F6,FF,FF,ED,FB,
-1762630422545494,040A2011,true,Rx,0,8,16,FF,3F,00,CC,03,23,DA,
-1762630422545366,04056411,true,Rx,0,8,FA,FF,0D,00,72,FC,23,DA,
-1762630422544897,040A2012,true,Rx,0,8,AE,FF,ED,FF,FC,03,23,DA,
-1762630422544726,04056412,true,Rx,0,8,F9,FF,11,00,F2,04,23,DA,
-1762630422541185,0401E411,true,Rx,0,7,00,05,47,00,75,FF,01,00,
-1762630422541057,0401E411,true,Rx,0,7,01,05,02,00,A9,FF,01,00,
-1762630422540929,0401E451,true,Rx,0,8,00,28,4B,00,00,00,1C,FC,
-1762630422540801,0401E451,true,Rx,0,8,01,28,40,FF,FF,FF,F0,FE,
-1762630422540673,0401E481,true,Rx,0,4,11,01,B5,FF,00,00,00,00,
-1762630422540587,0401E481,true,Rx,0,4,11,00,76,FF,00,00,00,00,
-1762630422540459,0401E481,true,Rx,0,4,12,01,76,FF,00,00,00,00,
-1762630422540374,0401E481,true,Rx,0,4,12,00,90,FF,00,00,00,00,
-1762630422533590,0405200D,true,Rx,0,2,00,00,00,00,00,00,00,00,
-1762630422533206,0405200E,true,Rx,0,2,00,00,00,00,00,00,00,00,
-1762630422528556,0401E412,true,Rx,0,7,00,05,45,00,84,FF,01,00,
-1762630422528428,0401E412,true,Rx,0,7,01,05,3A,00,83,FF,01,00,
-1762630422528300,0401E452,true,Rx,0,8,01,34,C7,F6,FF,FF,D7,FB,
-1762630422528172,0401E452,true,Rx,0,8,00,34,7A,F6,FF,FF,F6,FB,
-1762630422525484,040A2011,true,Rx,0,8,F9,FF,05,00,84,03,37,DA,
-1762630422525356,04056411,true,Rx,0,8,FB,FF,0E,00,73,FC,37,DA,
-1762630422525185,040D6863,true,Rx,0,6,00,00,00,00,00,01,00,00,
-1762630422525100,0405240A,true,Rx,0,3,32,01,00,00,00,00,00,00,
-1762630422524887,040A2012,true,Rx,0,8,0B,00,46,FF,1D,04,37,DA,
-1762630422524716,04056412,true,Rx,0,8,F9,FF,12,00,F2,04,37,DA,
-1762630422523180,040D6843,true,Rx,0,3,00,00,00,00,00,00,00,00,
-1762630422521218,0401E411,true,Rx,0,7,00,05,3E,00,75,FF,01,00,
-1762630422521090,0401E411,true,Rx,0,7,01,05,F9,FF,B2,FF,01,00,
-1762630422520919,0401E451,true,Rx,0,8,01,3C,3F,FF,FF,FF,F2,FE,
-1762630422520791,0401E451,true,Rx,0,8,00,3C,4A,00,00,00,1C,FC,
-1762630422520706,0401E481,true,Rx,0,4,11,01,B3,FF,00,00,00,00,
-1762630422520578,0401E481,true,Rx,0,4,11,00,76,FF,00,00,00,00,
-1762630422520450,0401E481,true,Rx,0,4,12,01,72,FF,00,00,00,00,
-1762630422520364,0401E481,true,Rx,0,4,12,00,94,FF,00,00,00,00,
-1762630422520236,040D6863,true,Rx,0,6,01,00,00,00,00,01,00,00,
-1762630422519170,040D6843,true,Rx,0,3,01,00,00,00,00,00,00,00,
-1762630422512727,0405C40F,true,Rx,0,8,00,01,1A,39,E6,38,FA,1C,
-1762630422512557,0405C42F,true,Rx,0,8,00,64,CA,26,18,00,80,00,
-1762630422512429,0405C40F,true,Rx,0,8,01,01,63,3A,9F,39,DE,11,
-1762630422512301,0405C42F,true,Rx,0,8,01,64,FC,28,18,00,4B,00,
-1762630422512173,0405C52F,true,Rx,0,5,00,00,00,42,00,00,00,00,
-1762630422512045,0405C40F,true,Rx,0,8,02,01,0E,3D,9B,3A,83,E9,
-1762630422511917,0405C42F,true,Rx,0,8,02,64,63,28,21,00,38,00,
-1762630422511789,0405C52F,true,Rx,0,5,02,DB,FF,0C,00,00,00,00,
-1762630422511703,0405C52F,true,Rx,0,5,01,1B,00,80,00,00,00,00,
-1762630422510935,0405C410,true,Rx,0,8,00,01,78,43,D8,50,B9,D6,
-1762630422510765,0405C430,true,Rx,0,8,00,64,A3,2A,F4,FF,AF,00,
-1762630422510637,0405C410,true,Rx,0,8,01,01,07,44,B3,30,50,34,
-1762630422510509,0405C430,true,Rx,0,8,01,64,EA,2B,12,FE,E4,01,
-1762630422510381,0405C530,true,Rx,0,5,00,C2,00,9F,00,00,00,00,
-1762630422510253,0405C410,true,Rx,0,8,02,01,78,40,62,AE,83,3B,
-1762630422510125,0405C430,true,Rx,0,8,02,64,EB,29,D8,FE,03,01,
-1762630422509997,0405C530,true,Rx,0,5,02,55,00,D2,00,00,00,00,
-1762630422509869,0405C530,true,Rx,0,5,01,34,01,2E,01,00,00,00,
-1762630422508546,0401E412,true,Rx,0,7,00,05,39,00,7F,FF,01,00,
-1762630422508418,0401E412,true,Rx,0,7,01,05,41,00,7A,FF,01,00,
-1762630422508290,0401E452,true,Rx,0,8,01,48,C6,F6,FF,FF,D1,FB,
-1762630422508162,0401E432,true,Rx,0,6,00,00,00,00,00,00,00,00,
-1762630422508034,0401E432,true,Rx,0,6,01,00,00,00,00,00,00,00,
-1762630422507906,0401E452,true,Rx,0,8,00,48,78,F6,FF,FF,05,FC,
-1762630422505474,040A2011,true,Rx,0,8,96,00,48,00,A6,03,4B,DA,
-1762630422505346,04056411,true,Rx,0,8,FB,FF,0E,00,75,FC,4B,DA,
-1762630422504877,040A2012,true,Rx,0,8,55,FF,85,00,DC,03,4B,DA,
-1762630422504749,04056412,true,Rx,0,8,F9,FF,12,00,F1,04,4B,DA,
-1762630422504152,04072001,true,Rx,0,4,01,00,01,00,00,00,00,00,
-1762630422501165,0401E411,true,Rx,0,7,00,05,2C,00,6C,FF,01,00,
-1762630422501037,0401E411,true,Rx,0,7,01,05,FC,FF,B2,FF,01,00,
-1762630422500909,0401E451,true,Rx,0,8,01,50,3E,FF,FF,FF,F2,FE,
-1762630422500781,0401E451,true,Rx,0,8,00,50,48,00,00,00,23,FC,
-1762630422500653,0401E481,true,Rx,0,4,11,01,B3,FF,00,00,00,00,
-1762630422500568,0401E481,true,Rx,0,4,11,00,76,FF,00,00,00,00,
-1762630422500440,0401E481,true,Rx,0,4,12,01,72,FF,00,00,00,00,
-1762630422500354,0401E481,true,Rx,0,4,12,00,94,FF,00,00,00,00,
-1762630422488579,0401E412,true,Rx,0,7,00,05,30,00,82,FF,01,00,
-1762630422488451,0401E412,true,Rx,0,7,01,05,3E,00,74,FF,01,00,
-1762630422488323,0401E452,true,Rx,0,8,01,5C,C4,F6,FF,FF,D0,FB,
-1762630422488152,0401E452,true,Rx,0,8,00,5C,77,F6,FF,FF,12,FC,
-1762630422485507,040A2011,true,Rx,0,8,73,FF,D3,FF,30,04,5F,DA,
-1762630422485379,04056411,true,Rx,0,8,FC,FF,0E,00,77,FC,5F,DA,
-1762630422484867,040A2012,true,Rx,0,8,77,00,ED,FF,EF,03,5F,DA,
-1762630422484739,04056412,true,Rx,0,8,F9,FF,12,00,F1,04,5F,DA,
-1762630422481198,0401E411,true,Rx,0,7,00,05,29,00,66,FF,01,00,
-1762630422481070,0401E411,true,Rx,0,7,01,05,FD,FF,AE,FF,01,00,
-1762630422480899,0401E451,true,Rx,0,8,00,64,47,00,00,00,2F,FC,
-1762630422480771,0401E451,true,Rx,0,8,01,64,3E,FF,FF,FF,F5,FE,
-1762630422480686,0401E481,true,Rx,0,4,11,01,B3,FF,00,00,00,00,
-1762630422480558,0401E481,true,Rx,0,4,11,00,76,FF,00,00,00,00,
-1762630422480472,0401E481,true,Rx,0,4,12,01,72,FF,00,00,00,00,
-1762630422480344,0401E481,true,Rx,0,4,12,00,94,FF,00,00,00,00,
-1762630422480259,0405200C,true,Rx,0,2,00,00,00,00,00,00,00,00,
-1762630422478851,04030C82,true,Rx,0,4,00,01,00,00,00,00,00,00,
-1762630422478681,04030CE2,true,Rx,0,8,8D,00,00,00,C2,64,1E,67,
-1762630422476974,04098C31,true,Rx,0,3,00,00,00,00,00,00,00,00,
-1762630422476889,04098C51,true,Rx,0,3,00,F4,FF,00,00,00,00,00,
-1762630422475907,0405200B,true,Rx,0,2,00,00,00,00,00,00,00,00,
-1762630422473987,0405240A,true,Rx,0,3,2E,01,00,00,00,00,00,00,
-1762630422470489,0405280C,true,Rx,0,2,00,00,00,00,00,00,00,00,
-1762630422468569,0401E412,true,Rx,0,7,00,05,2E,00,83,FF,01,00,
-1762630422468441,0401E412,true,Rx,0,7,01,05,3C,00,80,FF,01,00,
-1762630422468270,0401E452,true,Rx,0,8,01,70,C3,F6,FF,FF,C6,FB,
-1762630422468142,0401E452,true,Rx,0,8,00,70,75,F6,FF,FF,1E,FC,
-1762630422465924,04057002,true,Rx,0,4,73,E5,15,69,00,00,00,00,
-1762630422465497,040A2011,true,Rx,0,8,CA,FF,CF,FF,92,03,73,DA,
-1762630422465369,04056411,true,Rx,0,8,FC,FF,0E,00,7A,FC,73,DA,
-1762630422464857,040A2012,true,Rx,0,8,EF,FF,95,FF,F4,03,73,DA,
-1762630422464729,04056412,true,Rx,0,8,F9,FF,12,00,F1,04,73,DA,
-1762630422463321,0405280B,true,Rx,0,2,00,00,00,00,00,00,00,00,
-1762630422462724,0405C40F,true,Rx,0,8,00,01,26,39,0E,39,89,1D,
-1762630422462596,0405C42F,true,Rx,0,8,00,64,E9,26,E4,FF,55,00,
-1762630422462468,0405C40F,true,Rx,0,8,01,01,63,3A,B1,39,21,12,
-1762630422462340,0405C42F,true,Rx,0,8,01,64,AC,28,2C,00,4E,00,
-1762630422462212,0405C52F,true,Rx,0,5,00,E0,FF,CF,FF,00,00,00,
-1762630422462084,0405C40F,true,Rx,0,8,02,01,08,3D,EE,3A,6D,E9,
-1762630422461956,0405C42F,true,Rx,0,8,02,64,7F,28,23,00,33,00,
-1762630422461828,0405C52F,true,Rx,0,5,02,E1,FF,26,00,00,00,00,
-1762630422461700,0405C52F,true,Rx,0,5,01,85,FF,9D,FF,00,00,00,
-1762630422461145,0401E411,true,Rx,0,7,00,05,2C,00,6D,FF,01,00,
-1762630422461017,0401E411,true,Rx,0,7,01,05,FC,FF,BD,FF,01,00,
-1762630422460889,0401E451,true,Rx,0,8,01,78,3D,FF,FF,FF,EE,FE,
-1762630422460761,0401E431,true,Rx,0,6,00,00,00,00,00,00,00,00,
-1762630422460633,0401E431,true,Rx,0,6,01,00,00,00,00,00,00,00,
-1762630422460505,0401E451,true,Rx,0,8,00,78,45,00,00,00,35,FC,
-1762630422460377,0401E481,true,Rx,0,4,11,01,B2,FF,00,00,00,00,
-1762630422460292,0401E481,true,Rx,0,4,11,00,76,FF,00,00,00,00,
-1762630422460164,0401E481,true,Rx,0,4,12,01,70,FF,00,00,00,00,
-1762630422460079,0401E481,true,Rx,0,4,12,00,96,FF,00,00,00,00,
-1762630422459908,0405C410,true,Rx,0,8,00,01,94,43,8A,4B,5D,D5,
-1762630422459780,0405C430,true,Rx,0,8,00,64,6A,2A,34,FF,FF,00,
-1762630422459652,0405C410,true,Rx,0,8,01,01,0F,44,96,DC,7A,33,
-1762630422459524,0405C430,true,Rx,0,8,01,64,F5,2B,2A,FE,A3,01,
-1762630422459396,0405C530,true,Rx,0,5,01,23,01,0A,00,00,00,00,
-1762630422459268,0405C410,true,Rx,0,8,02,01,A4,40,C2,A7,6C,3A,
-1762630422459140,0405C430,true,Rx,0,8,02,64,C3,29,A4,FE,A9,00,
-1762630422459012,0405C530,true,Rx,0,5,02,BA,FF,2B,01,00,00,00,
-1762630422458927,0405C530,true,Rx,0,5,00,BE,FF,BA,00,00,00,00,
-1762630422455172,0405200E,true,Rx,0,2,00,00,00,00,00,00,00,00,
-1762630422454617,0405200D,true,Rx,0,2,00,00,00,00,00,00,00,00,
-1762630422454148,04072001,true,Rx,0,4,01,00,01,00,00,00,00,00,
-1762630422448529,0401E412,true,Rx,0,7,00,05,3C,00,82,FF,01,00,
-1762630422448401,0401E412,true,Rx,0,7,01,05,3B,00,80,FF,01,00,
-1762630422448273,0401E452,true,Rx,0,8,01,84,C1,F6,FF,FF,BA,FB,
-1762630422448102,0401E452,true,Rx,0,8,00,84,74,F6,FF,FF,2D,FC,
-1762630422445457,040A2011,true,Rx,0,8,52,00,D0,FF,B0,03,87,DA,
-1762630422445329,04056411,true,Rx,0,8,FB,FF,0D,00,7B,FC,87,DA,
-1762630422444817,040A2012,true,Rx,0,8,96,FF,8A,00,B7,03,87,DA,
-1762630422444732,04056412,true,Rx,0,8,F9,FF,12,00,F2,04,87,DA,
-1762630422441148,0401E411,true,Rx,0,7,00,05,3C,00,7A,FF,01,00,
-1762630422441020,0401E411,true,Rx,0,7,01,05,FD,FF,BD,FF,01,00,
-1762630422440892,0401E451,true,Rx,0,8,01,8C,3D,FF,FF,FF,E6,FE,
-1762630422440721,0401E451,true,Rx,0,8,00,8C,44,00,00,00,32,FC,
-1762630422440636,0401E481,true,Rx,0,4,11,01,B2,FF,00,00,00,00,
-1762630422440508,0401E481,true,Rx,0,4,11,00,76,FF,00,00,00,00,
-1762630422440423,0401E481,true,Rx,0,4,12,01,70,FF,00,00,00,00,
-1762630422440295,0401E481,true,Rx,0,4,12,00,96,FF,00,00,00,00,
-1762630422428562,0401E412,true,Rx,0,7,00,05,3D,00,8F,FF,01,00,
-1762630422428434,0401E412,true,Rx,0,7,01,05,44,00,72,FF,01,00,
-1762630422428263,0401E452,true,Rx,0,8,01,98,C0,F6,FF,FF,B9,FB,
-1762630422428135,0401E452,true,Rx,0,8,00,98,73,F6,FF,FF,32,FC,
-1762630422425447,040A2011,true,Rx,0,8,9E,FE,DA,FF,D2,03,9B,DA,
-1762630422425319,04056411,true,Rx,0,8,FB,FF,0D,00,7D,FC,9B,DA,
-1762630422425106,0405240A,true,Rx,0,3,2B,01,00,00,00,00,00,00,
-1762630422424850,040A2012,true,Rx,0,8,89,00,F6,FF,11,04,9B,DA,
-1762630422424722,04056412,true,Rx,0,8,F9,FF,12,00,F3,04,9B,DA,
-1762630422421181,0401E411,true,Rx,0,7,00,05,49,00,77,FF,01,00,
-1762630422421010,0401E411,true,Rx,0,7,01,05,FD,FF,B9,FF,01,00,
-1762630422420882,0401E451,true,Rx,0,8,00,A0,43,00,00,00,32,FC,
-1762630422420754,0401E451,true,Rx,0,8,01,A0,3C,FF,FF,FF,E1,FE,
-1762630422420626,0401E481,true,Rx,0,4,11,01,B9,FF,00,00,00,00,
-1762630422420541,0401E481,true,Rx,0,4,11,00,83,FF,00,00,00,00,
-1762630422420413,0401E481,true,Rx,0,4,12,01,7D,FF,00,00,00,00,
-1762630422420327,0401E481,true,Rx,0,4,12,00,A1,FF,00,00,00,00,
-1762630422412690,0405C40F,true,Rx,0,8,00,01,29,39,0C,39,CD,1D,
-1762630422412562,0405C42F,true,Rx,0,8,00,64,F3,26,0B,00,49,00,
-1762630422412477,0405C52F,true,Rx,0,5,00,C2,FF,B6,FF,00,00,00,
-1762630422412306,0405C40F,true,Rx,0,8,01,01,64,3A,ED,39,C4,11,
-1762630422412178,0405C42F,true,Rx,0,8,01,64,8A,28,E7,FF,1F,00,
-1762630422412050,0405C40F,true,Rx,0,8,02,01,0A,3D,F7,3A,A7,E9,
-1762630422411922,0405C42F,true,Rx,0,8,02,64,9C,28,FF,FF,2C,00,
-1762630422411794,0405C52F,true,Rx,0,5,01,45,00,5A,FF,00,00,00,
-1762630422411666,0405C52F,true,Rx,0,5,02,0E,00,26,00,00,00,00,
-1762630422410898,0405C410,true,Rx,0,8,00,01,AE,43,51,41,22,D4,
-1762630422410770,0405C430,true,Rx,0,8,00,64,B8,2A,EE,FF,2F,01,
-1762630422410600,0405C410,true,Rx,0,8,01,01,0A,44,59,BA,9B,32,
-1762630422410472,0405C430,true,Rx,0,8,01,64,EA,2B,FA,FF,92,01,
-1762630422410344,0405C530,true,Rx,0,5,00,C2,FE,B6,00,00,00,00,
-1762630422410216,0405C410,true,Rx,0,8,02,01,D7,40,C5,A2,7C,39,
-1762630422410088,0405C430,true,Rx,0,8,02,64,AB,29,88,FE,31,01,
-1762630422409960,0405C530,true,Rx,0,5,02,44,00,DB,FE,00,00,00,
-1762630422409875,0405C530,true,Rx,0,5,01,BF,FF,E5,FD,00,00,00,
-1762630422408552,0401E412,true,Rx,0,7,00,05,4E,00,8C,FF,01,00,
-1762630422408424,0401E412,true,Rx,0,7,01,05,44,00,77,FF,01,00,
-1762630422408253,0401E452,true,Rx,0,8,01,AC,BE,F6,FF,FF,BD,FB,
-1762630422408125,0401E432,true,Rx,0,6,00,00,00,00,00,00,00,00,
-1762630422407997,0401E432,true,Rx,0,6,01,00,00,00,00,00,00,00,
-1762630422407869,0401E452,true,Rx,0,8,00,AC,72,F6,FF,FF,41,FC,
-1762630422405480,040A2011,true,Rx,0,8,E4,FF,2E,00,16,04,AF,DA,
-1762630422405352,04056411,true,Rx,0,8,FA,FF,0E,00,7D,FC,AF,DA,
-1762630422404840,040A2012,true,Rx,0,8,12,00,43,FF,D8,03,AF,DA,
-1762630422404669,04056412,true,Rx,0,8,F9,FF,12,00,F4,04,AF,DA,
-1762630422404115,04072001,true,Rx,0,4,01,00,01,00,00,00,00,00,
-1762630422401171,0401E411,true,Rx,0,7,00,05,4A,00,84,FF,01,00,
-1762630422401043,0401E411,true,Rx,0,7,01,05,FB,FF,B6,FF,01,00,
-1762630422400915,0401E451,true,Rx,0,8,00,B4,42,00,00,00,32,FC,
-1762630422400744,0401E451,true,Rx,0,8,01,B4,3B,FF,FF,FF,E3,FE,
-1762630422400659,0401E481,true,Rx,0,4,11,01,C1,FF,00,00,00,00,
-1762630422400574,0401E481,true,Rx,0,4,11,00,90,FF,00,00,00,00,
-1762630422400446,0401E481,true,Rx,0,4,12,01,8B,FF,00,00,00,00,
-1762630422400360,0401E481,true,Rx,0,4,12,00,AB,FF,00,00,00,00,
-1762630422399806,0405200C,true,Rx,0,2,00,00,00,00,00,00,00,00,
-1762630422396691,0405200B,true,Rx,0,2,00,00,00,00,00,00,00,00,
-1762630422389779,04030C82,true,Rx,0,4,00,01,00,00,00,00,00,00,
-1762630422389609,04030CE2,true,Rx,0,8,8D,00,00,00,C2,64,1E,67,
-1762630422388499,0401E412,true,Rx,0,7,00,05,47,00,91,FF,01,00,
-1762630422388414,0401E412,true,Rx,0,7,01,05,45,00,7C,FF,01,00,
-1762630422388243,0401E452,true,Rx,0,8,01,C0,BD,F6,FF,FF,C8,FB,
-1762630422388115,0401E452,true,Rx,0,8,00,C0,71,F6,FF,FF,54,FC,
-1762630422385470,040A2011,true,Rx,0,8,50,00,48,00,9E,03,C3,DA,
-1762630422385342,04056411,true,Rx,0,8,F9,FF,0F,00,7F,FC,C3,DA,
-1762630422384873,040A2012,true,Rx,0,8,70,FF,C3,00,8A,03,C3,DA,
-1762630422384702,04056412,true,Rx,0,8,F9,FF,13,00,F5,04,C3,DA,
-1762630422381161,0401E411,true,Rx,0,7,00,05,44,00,7C,FF,01,00,
-1762630422381033,0401E411,true,Rx,0,7,01,05,F4,FF,AD,FF,01,00,
-1762630422380905,0401E451,true,Rx,0,8,01,C8,3A,FF,FF,FF,F2,FE,
-1762630422380734,0401E451,true,Rx,0,8,00,C8,41,00,00,00,41,FC,
-1762630422380649,0401E481,true,Rx,0,4,11,01,C1,FF,00,00,00,00,
-1762630422380521,0401E481,true,Rx,0,4,11,00,91,FF,00,00,00,00,
-1762630422380436,0401E481,true,Rx,0,4,12,01,8D,FF,00,00,00,00,
-1762630422380308,0401E481,true,Rx,0,4,12,00,AB,FF,00,00,00,00,
-1762630422376980,04098C31,true,Rx,0,3,00,00,00,00,00,00,00,00,
-1762630422376852,04098C51,true,Rx,0,3,00,F1,FF,00,00,00,00,00,
-1762630422376041,0405200E,true,Rx,0,2,00,00,00,00,00,00,00,00,
-1762630422375060,0405240A,true,Rx,0,3,2C,01,00,00,00,00,00,00,
-1762630422373524,0405200D,true,Rx,0,2,00,00,00,00,00,00,00,00,
-1762630422373439,0405280C,true,Rx,0,2,00,00,00,00,00,00,00,00,
-1762630422368532,0401E412,true,Rx,0,7,00,05,43,00,94,FF,01,00,
-1762630422368404,0401E412,true,Rx,0,7,01,05,38,00,7B,FF,01,00,
-1762630422368276,0401E452,true,Rx,0,8,01,D4,BB,F6,FF,FF,D5,FB,
-1762630422368105,0401E452,true,Rx,0,8,00,D4,6F,F6,FF,FF,65,FC,
-1762630422367295,0405280B,true,Rx,0,2,00,00,00,00,00,00,00,00,
-1762630422365460,040A2011,true,Rx,0,8,46,00,19,00,EF,03,D7,DA,
-1762630422365332,04056411,true,Rx,0,8,FB,FF,10,00,80,FC,D7,DA,
-1762630422364820,040A2012,true,Rx,0,8,3A,FF,1D,00,F4,03,D7,DA,
-1762630422364692,04056412,true,Rx,0,8,FA,FF,13,00,F6,04,D7,DA,
-1762630422362687,0405C40F,true,Rx,0,8,00,01,32,39,5F,39,7C,1D,
-1762630422362559,0405C42F,true,Rx,0,8,00,64,D1,26,EF,FF,58,00,
-1762630422362431,0405C40F,true,Rx,0,8,01,01,74,3A,0D,3A,16,12,
-1762630422362260,0405C42F,true,Rx,0,8,01,64,78,28,9C,FF,AA,00,
-1762630422362175,0405C52F,true,Rx,0,5,00,A4,FF,13,00,00,00,00,
-1762630422362047,0405C40F,true,Rx,0,8,02,01,16,3D,F8,3A,DC,E9,
-1762630422361876,0405C42F,true,Rx,0,8,02,64,9A,28,E3,FF,2F,00,
-1762630422361791,0405C52F,true,Rx,0,5,02,12,00,20,00,00,00,00,
-1762630422361663,0405C52F,true,Rx,0,5,01,20,00,AF,FF,00,00,00,
-1762630422361151,0401E411,true,Rx,0,7,00,05,34,00,77,FF,01,00,
-1762630422361023,0401E411,true,Rx,0,7,01,05,F6,FF,A9,FF,01,00,
-1762630422360852,0401E451,true,Rx,0,8,01,DC,39,FF,FF,FF,04,FF,
-1762630422360724,0401E431,true,Rx,0,6,00,00,00,00,00,00,00,00,
-1762630422360639,0401E431,true,Rx,0,6,01,00,00,00,00,00,00,00,
-1762630422360468,0401E451,true,Rx,0,8,00,DC,3F,00,00,00,54,FC,
-1762630422360383,0401E481,true,Rx,0,4,11,01,C2,FF,00,00,00,00,
-1762630422360255,0401E481,true,Rx,0,4,11,00,91,FF,00,00,00,00,
-1762630422360170,0401E481,true,Rx,0,4,12,01,8D,FF,00,00,00,00,
-1762630422360042,0401E481,true,Rx,0,4,12,00,AB,FF,00,00,00,00,
-1762630422359914,0405C410,true,Rx,0,8,00,01,B0,43,B6,FF,F4,D2,
-1762630422359786,0405C430,true,Rx,0,8,00,64,4E,2A,B0,00,0D,01,
-1762630422359658,0405C410,true,Rx,0,8,01,01,0D,44,8C,AD,D9,31,
-1762630422359487,0405C430,true,Rx,0,8,01,64,DB,2B,5A,FE,3C,02,
-1762630422359402,0405C530,true,Rx,0,5,01,8A,00,DA,FD,00,00,00,
-1762630422359274,0405C410,true,Rx,0,8,02,01,F7,40,57,9F,11,38,
-1762630422359103,0405C430,true,Rx,0,8,02,64,00,2A,B6,FE,9A,01,
-1762630422358975,0405C530,true,Rx,0,5,02,19,01,AA,FE,00,00,00,
-1762630422358890,0405C530,true,Rx,0,5,00,A3,FE,EC,FF,00,00,00,
-1762630422354154,04072001,true,Rx,0,4,01,00,01,00,00,00,00,00,
-1762630422348565,0401E412,true,Rx,0,7,00,05,31,00,94,FF,01,00,
-1762630422348437,0401E412,true,Rx,0,7,01,05,39,00,72,FF,01,00,
-1762630422348266,0401E452,true,Rx,0,8,01,E8,BA,F6,FF,FF,E9,FB,
-1762630422348138,0401E452,true,Rx,0,8,00,E8,6E,F6,FF,FF,76,FC,
-1762630422345493,040A2011,true,Rx,0,8,D0,FF,F2,FF,20,04,EB,DA,
-1762630422345365,04056411,true,Rx,0,8,FC,FF,10,00,81,FC,EB,DA,
-1762630422344853,040A2012,true,Rx,0,8,00,00,52,00,AD,03,EB,DA,
-1762630422344725,04056412,true,Rx,0,8,FA,FF,13,00,F7,04,EB,DA,
-1762630422341184,0401E411,true,Rx,0,7,00,05,2D,00,75,FF,01,00,
-1762630422341056,0401E411,true,Rx,0,7,01,05,FD,FF,A9,FF,01,00,
-1762630422340885,0401E451,true,Rx,0,8,00,F0,3E,00,00,00,69,FC,
-1762630422340757,0401E451,true,Rx,0,8,01,F0,39,FF,FF,FF,16,FF,
-1762630422340629,0401E481,true,Rx,0,4,11,01,C2,FF,00,00,00,00,
-1762630422340544,0401E481,true,Rx,0,4,11,00,91,FF,00,00,00,00,
-1762630422340459,0401E481,true,Rx,0,4,12,01,8D,FF,00,00,00,00,
-1762630422340331,0401E481,true,Rx,0,4,12,00,AB,FF,00,00,00,00,
-1762630422328555,0401E412,true,Rx,0,7,00,05,32,00,94,FF,01,00,
-1762630422328427,0401E412,true,Rx,0,7,01,05,3C,00,73,FF,01,00,
-1762630422328256,0401E452,true,Rx,0,8,01,FC,B8,F6,FF,FF,FC,FB,
-1762630422328128,0401E452,true,Rx,0,8,00,FC,6D,F6,FF,FF,87,FC,
-1762630422325483,040A2011,true,Rx,0,8,8D,FF,BF,FF,90,03,FF,DA,
-1762630422325355,04056411,true,Rx,0,8,FC,FF,10,00,83,FC,FF,DA,
-1762630422324843,040A2012,true,Rx,0,8,53,00,BC,FF,B3,03,FF,DA,
-1762630422324715,04056412,true,Rx,0,8,FA,FF,13,00,F8,04,FF,DA,
-1762630422323862,0405240A,true,Rx,0,3,2C,01,00,00,00,00,00,00,
-1762630422321686,0405200C,true,Rx,0,2,00,00,00,00,00,00,00,00,
-1762630422321174,0401E411,true,Rx,0,7,00,05,26,00,75,FF,01,00,
-1762630422321046,0401E411,true,Rx,0,7,01,05,FB,FF,A7,FF,01,00,
-1762630422320875,0401E451,true,Rx,0,8,01,04,38,FF,FF,FF,2A,FF,
-1762630422320747,0401E451,true,Rx,0,8,00,04,3D,00,00,00,7E,FC,
-1762630422320662,0401E481,true,Rx,0,4,11,01,C2,FF,00,00,00,00,
-1762630422320534,0401E481,true,Rx,0,4,11,00,91,FF,00,00,00,00,
-1762630422320449,0401E481,true,Rx,0,4,12,01,8D,FF,00,00,00,00,
-1762630422320321,0401E481,true,Rx,0,4,12,00,AB,FF,00,00,00,00,
-1762630422319809,0405200B,true,Rx,0,2,00,00,00,00,00,00,00,00,
-1762630422312598,0405C40F,true,Rx,0,8,00,01,3A,39,9D,39,5F,1D,
-1762630422312428,0405C42F,true,Rx,0,8,00,64,BB,26,D8,FF,47,00,
-1762630422312300,0405C40F,true,Rx,0,8,01,01,76,3A,36,3A,5B,12,
-1762630422312172,0405C42F,true,Rx,0,8,01,64,7F,28,3A,00,DC,00,
-1762630422312044,0405C52F,true,Rx,0,5,00,9D,FF,EA,FF,00,00,00,
-1762630422311916,0405C40F,true,Rx,0,8,02,01,14,3D,22,3B,F2,E9,
-1762630422311788,0405C42F,true,Rx,0,8,02,64,CB,28,CE,FF,56,00,
-1762630422311660,0405C52F,true,Rx,0,5,02,DF,FF,28,00,00,00,00,
-1762630422311574,0405C52F,true,Rx,0,5,01,A8,FF,2E,00,00,00,00,
-1762630422310892,0405C410,true,Rx,0,8,00,01,B0,43,BD,C9,A8,D2,
-1762630422310764,0405C430,true,Rx,0,8,00,64,F7,29,0F,00,C0,00,
-1762630422310636,0405C410,true,Rx,0,8,01,01,1A,44,94,A6,4B,30,
-1762630422310508,0405C430,true,Rx,0,8,01,64,E7,2B,77,FD,2B,00,
-1762630422310380,0405C530,true,Rx,0,5,00,B5,FF,6E,FF,00,00,00,
-1762630422310209,0405C410,true,Rx,0,8,02,01,28,41,EF,9B,7E,35,
-1762630422310081,0405C430,true,Rx,0,8,02,64,09,2A,C1,FE,F1,FF,
-1762630422309953,0405C530,true,Rx,0,5,02,16,01,CF,FE,00,00,00,
-1762630422309868,0405C530,true,Rx,0,5,01,B3,00,59,00,00,00,00,
-1762630422308502,0401E412,true,Rx,0,7,00,05,2D,00,93,FF,01,00,
-1762630422308374,0401E412,true,Rx,0,7,01,05,41,00,87,FF,01,00,
-1762630422308247,0401E452,true,Rx,0,8,01,10,B7,F6,FF,FF,00,FC,
-1762630422308119,0401E432,true,Rx,0,6,00,00,00,00,00,00,00,00,
-1762630422307991,0401E432,true,Rx,0,6,01,00,00,00,00,00,00,00,
-1762630422307863,0401E452,true,Rx,0,8,00,10,6C,F6,FF,FF,99,FC,
-1762630422307095,04048421,true,Rx,0,0,00,00,00,00,00,00,00,00,
-1762630422305473,040A2011,true,Rx,0,8,D4,FF,B8,FF,C5,03,13,DB,
-1762630422305345,04056411,true,Rx,0,8,FC,FF,10,00,84,FC,13,DB,
-1762630422304833,040A2012,true,Rx,0,8,0A,00,60,FF,29,04,13,DB,
-1762630422304705,04056412,true,Rx,0,8,F9,FF,13,00,F9,04,13,DB,
-1762630422304151,04072001,true,Rx,0,4,01,00,01,00,00,00,00,00,
-1762630422301164,0401E411,true,Rx,0,7,00,05,23,00,7A,FF,01,00,
-1762630422301036,0401E411,true,Rx,0,7,01,05,F7,FF,B2,FF,01,00,
-1762630422300865,0401E451,true,Rx,0,8,00,18,3B,00,00,00,8F,FC,
-1762630422300737,0401E451,true,Rx,0,8,01,18,37,FF,FF,FF,36,FF,
-1762630422300652,0401E481,true,Rx,0,4,11,01,C2,FF,00,00,00,00,
-1762630422300524,0401E481,true,Rx,0,4,11,00,91,FF,00,00,00,00,
-1762630422300396,0401E481,true,Rx,0,4,12,01,8D,FF,00,00,00,00,
-1762630422300311,0401E481,true,Rx,0,4,12,00,AB,FF,00,00,00,00,
-1762630422300225,04030C82,true,Rx,0,4,00,01,00,00,00,00,00,00,
-1762630422300097,04030CE2,true,Rx,0,8,8D,00,00,00,C2,64,1E,67,
-1762630422297282,0405200E,true,Rx,0,2,00,00,00,00,00,00,00,00,
-1762630422295404,0405200D,true,Rx,0,2,00,00,00,00,00,00,00,00,
-1762630422288535,0401E412,true,Rx,0,7,00,05,1F,00,92,FF,01,00,
-1762630422288407,0401E412,true,Rx,0,7,01,05,3D,00,80,FF,01,00,
-1762630422288279,0401E452,true,Rx,0,8,01,24,B6,F6,FF,FF,09,FC,
-1762630422288109,0401E452,true,Rx,0,8,00,24,6A,F6,FF,FF,AB,FC,
-1762630422285463,040A2011,true,Rx,0,8,18,00,27,00,B9,03,27,DB,
-1762630422285335,04056411,true,Rx,0,8,FB,FF,0F,00,86,FC,27,DB,
-1762630422284823,040A2012,true,Rx,0,8,94,FF,24,00,AA,03,27,DB,
-1762630422284695,04056412,true,Rx,0,8,F9,FF,13,00,F9,04,27,DB,
-1762630422281154,0401E411,true,Rx,0,7,00,05,23,00,7C,FF,01,00,
-1762630422281026,0401E411,true,Rx,0,7,01,05,F7,FF,AB,FF,01,00,
-1762630422280898,0401E451,true,Rx,0,8,01,2C,36,FF,FF,FF,47,FF,
-1762630422280770,0401E451,true,Rx,0,8,00,2C,3A,00,00,00,9E,FC,
-1762630422280642,0401E481,true,Rx,0,4,11,01,C2,FF,00,00,00,00,
-1762630422280557,0401E481,true,Rx,0,4,11,00,91,FF,00,00,00,00,
-1762630422280429,0401E481,true,Rx,0,4,12,01,8D,FF,00,00,00,00,
-1762630422280344,0401E481,true,Rx,0,4,12,00,AB,FF,00,00,00,00,
-1762630422276973,04098C31,true,Rx,0,3,00,00,00,00,00,00,00,00,
-1762630422276845,04098C51,true,Rx,0,3,00,F3,FF,00,00,00,00,00,
-1762630422275096,0405240A,true,Rx,0,3,2B,01,00,00,00,00,00,00,
-1762630422273304,0405280C,true,Rx,0,2,00,00,00,00,00,00,00,00,
-1762630422270488,0405280B,true,Rx,0,2,00,00,00,00,00,00,00,00,
-1762630422268568,0401E412,true,Rx,0,7,00,05,16,00,94,FF,01,00,
-1762630422268397,0401E412,true,Rx,0,7,01,05,36,00,7B,FF,01,00,
-1762630422268269,0401E452,true,Rx,0,8,01,38,B4,F6,FF,FF,16,FC,
-1762630422268141,0401E452,true,Rx,0,8,00,38,69,F6,FF,FF,BC,FC,
-1762630422265496,040A2011,true,Rx,0,8,CF,FF,1B,00,EB,03,3B,DB,
-1762630422265326,04056411,true,Rx,0,8,FA,FF,0F,00,87,FC,3B,DB,
-1762630422264856,040A2012,true,Rx,0,8,D9,FF,12,00,BE,03,3B,DB,
-1762630422264686,04056412,true,Rx,0,8,F9,FF,13,00,F9,04,3B,DB,
-1762630422262680,0405C40F,true,Rx,0,8,00,01,41,39,96,39,50,1D,
-1762630422262552,0405C42F,true,Rx,0,8,00,64,B7,26,C8,FF,1C,00,
-1762630422262424,0405C40F,true,Rx,0,8,01,01,6A,3A,48,3A,86,12,
-1762630422262254,0405C42F,true,Rx,0,8,01,64,7D,28,C7,FF,F8,FF,
-1762630422262168,0405C52F,true,Rx,0,5,00,B0,FF,CE,FF,00,00,00,
-1762630422262040,0405C40F,true,Rx,0,8,02,01,0E,3D,46,3B,D3,E9,
-1762630422261912,0405C42F,true,Rx,0,8,02,64,F2,28,68,FF,67,00,
-1762630422261784,0405C52F,true,Rx,0,5,02,D3,FF,38,00,00,00,00,
-1762630422261656,0405C52F,true,Rx,0,5,01,92,FF,5B,00,00,00,00,
-1762630422261144,0401E411,true,Rx,0,7,00,05,1D,00,7C,FF,01,00,
-1762630422261016,0401E411,true,Rx,0,7,01,05,FD,FF,AB,FF,01,00,
-1762630422260888,0401E451,true,Rx,0,8,00,40,39,00,00,00,AD,FC,
-1762630422260760,0401E431,true,Rx,0,6,00,00,00,00,00,00,00,00,
-1762630422260632,0401E431,true,Rx,0,6,01,00,00,00,00,00,00,00,
-1762630422260504,0401E451,true,Rx,0,8,01,40,36,FF,FF,FF,58,FF,
-1762630422260376,0401E481,true,Rx,0,4,11,01,C1,FF,00,00,00,00,
-1762630422260291,0401E481,true,Rx,0,4,11,00,91,FF,00,00,00,00,
-1762630422260163,0401E481,true,Rx,0,4,12,01,8D,FF,00,00,00,00,
-1762630422260078,0401E481,true,Rx,0,4,12,00,AB,FF,00,00,00,00,
-1762630422259907,0405C410,true,Rx,0,8,00,01,C9,43,6E,BD,6A,D2,
-1762630422259779,0405C430,true,Rx,0,8,00,64,E9,29,BD,FF,BA,00,
-1762630422259651,0405C410,true,Rx,0,8,01,01,29,44,7A,A2,BF,2E,
-1762630422259523,0405C430,true,Rx,0,8,01,64,E9,2B,40,FE,36,00,
-1762630422259395,0405C530,true,Rx,0,5,01,02,01,F0,FE,00,00,00,
-1762630422259267,0405C410,true,Rx,0,8,02,01,5E,41,3E,9A,F6,33,
-1762630422259139,0405C430,true,Rx,0,8,02,64,0B,2A,FF,FE,4A,FF,
-1762630422259011,0405C530,true,Rx,0,5,02,2D,01,D7,FE,00,00,00,
-1762630422258883,0405C530,true,Rx,0,5,00,28,00,80,FF,00,00,00,
-1762630422254147,04072001,true,Rx,0,4,01,00,01,00,00,00,00,00,
-1762630422251715,1C0000D5,true,Rx,0,8,02,FD,09,00,00,0F,2B,80,
-1762630422251587,1C0000D5,true,Rx,0,5,00,77,16,40,03,00,00,00,
-1762630422249582,1C0002A6,true,Rx,0,8,02,FD,09,00,00,0F,2B,80,
-1762630422249454,1C0002A6,true,Rx,0,5,00,77,17,1E,03,00,00,00,
-1762630422248558,0401E412,true,Rx,0,7,00,05,15,00,90,FF,01,00,
-1762630422248388,0401E412,true,Rx,0,7,01,05,2B,00,89,FF,01,00,
-1762630422248260,0401E452,true,Rx,0,8,01,4C,B3,F6,FF,FF,19,FC,
-1762630422248132,0401E452,true,Rx,0,8,00,4C,68,F6,FF,FF,D0,FC,
-1762630422245486,040A2011,true,Rx,0,8,47,FF,27,00,B9,03,4F,DB,
-1762630422245358,04056411,true,Rx,0,8,FA,FF,10,00,89,FC,4F,DB,
-1762630422244846,040A2012,true,Rx,0,8,25,00,3A,00,2E,04,4F,DB,
-1762630422244676,04056412,true,Rx,0,8,F9,FF,14,00,FA,04,4F,DB,
-1762630422242926,1C0000CA,true,Rx,0,8,02,FD,09,00,00,10,2B,80,
-1762630422242798,1C0000CA,true,Rx,0,5,00,D5,16,40,03,00,00,00,
-1762630422242670,0405200C,true,Rx,0,2,00,00,00,00,00,00,00,00,
-1762630422241177,0401E411,true,Rx,0,7,00,05,1C,00,81,FF,01,00,
-1762630422241049,0401E411,true,Rx,0,7,01,05,FF,FF,B5,FF,01,00,
-1762630422240878,0401E451,true,Rx,0,8,01,54,35,FF,FF,FF,61,FF,
-1762630422240750,0401E451,true,Rx,0,8,00,54,38,00,00,00,B9,FC,
-1762630422240665,0401E481,true,Rx,0,4,11,01,C1,FF,00,00,00,00,
-1762630422240537,0401E481,true,Rx,0,4,11,00,91,FF,00,00,00,00,
-1762630422240409,0401E481,true,Rx,0,4,12,01,8D,FF,00,00,00,00,
-1762630422240324,0401E481,true,Rx,0,4,12,00,AB,FF,00,00,00,00,
-1762630422240238,0405200B,true,Rx,0,2,00,00,00,00,00,00,00,00,
-1762630422240110,1C000146,true,Rx,0,8,02,FD,09,00,00,10,2B,80,
-1762630422239983,1C000146,true,Rx,0,5,00,D5,17,1E,03,00,00,00,
-1762630422231620,1C0000C1,true,Rx,0,8,02,FD,09,00,00,12,27,80,
-1762630422231492,1C0000C1,true,Rx,0,5,00,69,16,40,03,00,00,00,
-1762630422229956,1C000026,true,Rx,0,8,02,FD,09,00,00,12,27,80,
-1762630422229828,1C000026,true,Rx,0,5,00,69,17,1E,03,00,00,00,
-1762630422228335,0401E412,true,Rx,0,7,00,05,11,00,97,FF,01,00,
-1762630422228207,0401E412,true,Rx,0,7,01,05,2E,00,84,FF,01,00,
-1762630422228036,0401E452,true,Rx,0,8,01,60,B1,F6,FF,FF,1F,FC,
-1762630422227908,0401E452,true,Rx,0,8,00,60,67,F6,FF,FF,DF,FC,
-1762630422225476,040A2011,true,Rx,0,8,DB,FF,37,00,03,04,63,DB,
-1762630422225306,04056411,true,Rx,0,8,FB,FF,0F,00,8B,FC,63,DB,
-1762630422225092,0405240A,true,Rx,0,3,2A,01,00,00,00,00,00,00,
-1762630422224836,040A2012,true,Rx,0,8,B2,FF,8C,FF,C4,03,63,DB,
-1762630422224708,04056412,true,Rx,0,8,FA,FF,14,00,FA,04,63,DB,
-1762630422221167,0401E411,true,Rx,0,7,00,05,18,00,79,FF,01,00,
-1762630422221039,0401E411,true,Rx,0,7,01,05,F8,FF,B0,FF,01,00,
-1762630422220869,0401E451,true,Rx,0,8,00,68,37,00,00,00,CB,FC,
-1762630422220741,0401E451,true,Rx,0,8,01,68,34,FF,FF,FF,6D,FF,
-1762630422220655,0401E481,true,Rx,0,4,11,01,C1,FF,00,00,00,00,
-1762630422220527,0401E481,true,Rx,0,4,11,00,91,FF,00,00,00,00,
-1762630422220442,0401E481,true,Rx,0,4,12,01,89,FF,00,00,00,00,
-1762630422220314,0401E481,true,Rx,0,4,12,00,AF,FF,00,00,00,00,
-1762630422218266,0405200E,true,Rx,0,2,00,00,00,00,00,00,00,00,
-1762630422217199,1C0000C2,true,Rx,0,8,02,FD,09,00,00,11,27,80,
-1762630422217071,1C0000C2,true,Rx,0,5,00,E1,16,40,03,00,00,00,
-1762630422216346,0405200D,true,Rx,0,2,00,00,00,00,00,00,00,00,
-1762630422214981,1C000046,true,Rx,0,8,02,FD,09,00,00,11,27,80,
-1762630422214895,1C000046,true,Rx,0,5,00,E1,17,1E,03,00,00,00,
-1762630422212677,0405C40F,true,Rx,0,8,00,01,53,39,CE,39,8C,1D,
-1762630422212549,0405C42F,true,Rx,0,8,00,64,E6,26,DB,FF,3C,00,
-1762630422212421,0405C52F,true,Rx,0,5,00,B3,FF,CC,FF,00,00,00,
-1762630422212293,0405C40F,true,Rx,0,8,01,01,7C,3A,80,3A,30,13,
-1762630422212165,0405C42F,true,Rx,0,8,01,64,7D,28,F6,FF,F2,FF,
-1762630422211994,0405C40F,true,Rx,0,8,02,01,14,3D,67,3B,FD,E9,
-1762630422211866,0405C42F,true,Rx,0,8,02,64,F0,28,A0,FF,5C,00,
-1762630422211738,04030C82,true,Rx,0,4,00,01,00,00,00,00,00,00,
-1762630422211610,04030CE2,true,Rx,0,8,8D,00,00,00,C2,64,1E,67,
-1762630422211525,0405C52F,true,Rx,0,5,01,E5,FF,C8,FF,00,00,00,
-1762630422211397,0405C52F,true,Rx,0,5,02,CA,FF,40,00,00,00,00,
-1762630422210885,0405C410,true,Rx,0,8,00,01,E5,43,6D,AF,FB,D1,
-1762630422210757,0405C430,true,Rx,0,8,00,64,71,29,6E,FF,B6,00,
-1762630422210629,0405C530,true,Rx,0,5,00,C7,FF,FA,FF,00,00,00,
-1762630422210501,0405C410,true,Rx,0,8,01,01,39,44,2B,9F,AF,2C,
-1762630422210373,0405C430,true,Rx,0,8,01,64,C6,2B,C2,FF,E4,00,
-1762630422210245,0405C410,true,Rx,0,8,02,01,9D,41,44,97,59,30,
-1762630422210074,0405C430,true,Rx,0,8,02,64,43,2A,B9,FF,71,00,
-1762630422209989,0405C530,true,Rx,0,5,01,D8,FF,20,00,00,00,00,
-1762630422209861,0405C530,true,Rx,0,5,02,D4,00,58,FF,00,00,00,
-1762630422208538,0401E412,true,Rx,0,7,00,05,14,00,91,FF,01,00,
-1762630422208410,0401E412,true,Rx,0,7,01,05,25,00,80,FF,01,00,
-1762630422208240,0401E452,true,Rx,0,8,01,74,B0,F6,FF,FF,25,FC,
-1762630422208112,0401E432,true,Rx,0,6,00,00,00,00,00,00,00,00,
-1762630422207984,0401E432,true,Rx,0,6,01,00,00,00,00,00,00,00,
-1762630422207856,0401E452,true,Rx,0,8,00,74,66,F6,FF,FF,F5,FC,
-1762630422205467,040A2011,true,Rx,0,8,6E,00,DE,FF,B4,03,77,DB,
-1762630422205339,04056411,true,Rx,0,8,FC,FF,11,00,8D,FC,77,DB,
-1762630422204827,040A2012,true,Rx,0,8,A1,FF,6C,00,88,03,77,DB,
-1762630422204699,04056412,true,Rx,0,8,FA,FF,14,00,FA,04,77,DB,
-1762630422204144,04072001,true,Rx,0,4,01,00,01,00,00,00,00,00,
-1762630422201157,0401E411,true,Rx,0,7,00,05,0E,00,78,FF,01,00,
-1762630422201029,0401E411,true,Rx,0,7,01,05,FB,FF,B0,FF,01,00,
-1762630422200859,0401E451,true,Rx,0,8,01,7C,34,FF,FF,FF,79,FF,
-1762630422200731,0401E451,true,Rx,0,8,00,7C,35,00,00,00,DD,FC,
-1762630422200645,0401E481,true,Rx,0,4,11,01,C1,FF,00,00,00,00,
-1762630422200517,0401E481,true,Rx,0,4,11,00,91,FF,00,00,00,00,
-1762630422200432,0401E481,true,Rx,0,4,12,01,89,FF,00,00,00,00,
-1762630422200304,0401E481,true,Rx,0,4,12,00,AF,FF,00,00,00,00,
-1762630422192112,1C0003FA,true,Rx,0,8,02,FD,1F,00,00,00,00,00,
-1762630422191984,1C0003FA,true,Rx,0,8,00,E2,14,02,01,28,80,33,
-1762630422191814,1C0003FA,true,Rx,0,8,00,00,00,57,69,66,69,42,
-1762630422191686,1C0003FA,true,Rx,0,8,6C,65,44,6F,6E,67,6C,65,
-1762630422191600,1C0003FA,true,Rx,0,3,00,3C,03,00,00,00,00,00,
-1762630422188529,0401E412,true,Rx,0,7,00,05,11,00,99,FF,01,00,
-1762630422188401,0401E412,true,Rx,0,7,01,05,23,00,7C,FF,01,00,
-1762630422188230,0401E452,true,Rx,0,8,01,88,AE,F6,FF,FF,2E,FC,
-1762630422188102,0401E452,true,Rx,0,8,00,88,64,F6,FF,FF,05,FD,
-1762630422185457,040A2011,true,Rx,0,8,56,FF,C8,FF,E6,03,8B,DB,
-1762630422185329,04056411,true,Rx,0,8,FC,FF,10,00,8F,FC,8B,DB,
-1762630422184817,040A2012,true,Rx,0,8,8E,FF,0F,00,55,04,8B,DB,
-1762630422184731,04056412,true,Rx,0,8,FB,FF,14,00,F9,04,8B,DB,
-1762630422181147,0401E411,true,Rx,0,7,00,05,0E,00,82,FF,01,00,
-1762630422181019,0401E411,true,Rx,0,7,01,05,FC,FF,B8,FF,01,00,
-1762630422180891,0401E451,true,Rx,0,8,01,90,33,FF,FF,FF,7F,FF,
-1762630422180721,0401E451,true,Rx,0,8,00,90,34,00,00,00,E8,FC,
-1762630422180635,0401E481,true,Rx,0,4,11,01,C1,FF,00,00,00,00,
-1762630422180507,0401E481,true,Rx,0,4,11,00,91,FF,00,00,00,00,
-1762630422180422,0401E481,true,Rx,0,4,12,01,89,FF,00,00,00,00,
-1762630422180294,0401E481,true,Rx,0,4,12,00,AF,FF,00,00,00,00,
-1762630422179185,1C00005A,true,Rx,0,8,02,FD,09,00,04,01,28,80,
-1762630422179057,1C00005A,true,Rx,0,5,00,99,16,40,03,00,00,00,
-1762630422178332,0405280C,true,Rx,0,2,00,00,00,00,00,00,00,00,
-1762630422178161,1C000342,true,Rx,0,8,02,FD,09,00,04,01,28,80,
-1762630422178076,1C000342,true,Rx,0,5,00,99,17,1E,03,00,00,00,
-1762630422176924,04098C31,true,Rx,0,3,00,00,00,00,00,00,00,00,
-1762630422176838,04098C51,true,Rx,0,3,00,ED,FF,00,00,00,00,00,
-1762630422174150,1C0002BA,true,Rx,0,8,02,FD,09,00,06,01,28,80,
-1762630422174022,1C0002BA,true,Rx,0,5,00,1A,16,40,03,00,00,00,
-1762630422173894,1C00015A,true,Rx,0,8,02,FD,09,00,07,01,28,80,
-1762630422173809,0405240A,true,Rx,0,3,28,01,00,00,00,00,00,00,
-1762630422173681,1C00015A,true,Rx,0,5,00,D7,16,40,03,00,00,00,
-1762630422173510,0405280B,true,Rx,0,2,00,00,00,00,00,00,00,00,
-1762630422172700,1C000355,true,Rx,0,8,02,FD,09,00,06,01,28,80,
-1762630422172572,1C000355,true,Rx,0,5,00,1A,17,1E,03,00,00,00,
-1762630422172401,1C00034A,true,Rx,0,8,02,FD,09,00,07,01,28,80,
-1762630422172316,1C00034A,true,Rx,0,5,00,D7,17,1E,03,00,00,00,
-1762630422169372,1C0000DA,true,Rx,0,8,02,FD,10,00,00,01,28,80,
-1762630422169201,1C0000DA,true,Rx,0,8,01,EF,00,41,86,11,05,00,
-1762630422169116,1C0000DA,true,Rx,0,4,00,00,92,03,00,00,00,00,
-1762630422168561,0401E412,true,Rx,0,7,00,05,08,00,94,FF,01,00,
-1762630422168433,0401E412,true,Rx,0,7,01,05,27,00,8A,FF,01,00,
-1762630422168263,0401E452,true,Rx,0,8,01,9C,AD,F6,FF,FF,2E,FC,
-1762630422168135,0401E452,true,Rx,0,8,00,9C,63,F6,FF,FF,19,FD,
-1762630422167495,1C000346,true,Rx,0,8,02,FD,11,00,00,01,28,80,
-1762630422167367,1C000346,true,Rx,0,8,01,D2,01,41,86,11,05,00,
-1762630422167239,1C000346,true,Rx,0,5,00,00,00,09,03,00,00,00,
-1762630422166983,1C00003A,true,Rx,0,8,02,FD,09,00,0C,01,28,80,
-1762630422166855,1C00003A,true,Rx,0,5,00,A7,16,40,03,00,00,00,
-1762630422165489,040A2011,true,Rx,0,8,DA,FF,D8,FF,06,04,9F,DB,
-1762630422165319,04056411,true,Rx,0,8,FC,FF,11,00,90,FC,9F,DB,
-1762630422164721,040A2012,true,Rx,0,8,2F,00,87,FF,DA,03,9F,DB,
-1762630422164593,0405200C,true,Rx,0,2,00,00,00,00,00,00,00,00,
-1762630422164465,04056412,true,Rx,0,8,FB,FF,14,00,F9,04,9F,DB,
-1762630422163953,1C000341,true,Rx,0,8,02,FD,09,00,0C,01,28,80,
-1762630422163825,1C000341,true,Rx,0,5,00,A7,17,1E,03,00,00,00,
-1762630422162716,0405C40F,true,Rx,0,8,00,01,5C,39,D9,39,D4,1D,
-1762630422162546,0405C42F,true,Rx,0,8,00,64,DB,26,E4,FF,4C,00,
-1762630422162418,0405C40F,true,Rx,0,8,01,01,88,3A,98,3A,E4,13,
-1762630422162290,0405C42F,true,Rx,0,8,01,64,65,28,9B,FF,1E,00,
-1762630422162162,0405C52F,true,Rx,0,5,00,AF,FF,D9,FF,00,00,00,
-1762630422162034,0405C40F,true,Rx,0,8,02,01,1F,3D,92,3B,4A,EA,
-1762630422161863,0405C42F,true,Rx,0,8,02,64,12,29,AE,FF,33,00,
-1762630422161820,0405200B,true,Rx,0,2,00,00,00,00,00,00,00,00,
-1762630422161692,0405C52F,true,Rx,0,5,02,CE,FF,EC,FF,00,00,00,
-1762630422161607,0405C52F,true,Rx,0,5,01,15,00,7E,FF,00,00,00,
-1762630422161436,1C00017A,true,Rx,0,8,02,FD,09,00,09,01,28,80,
-1762630422161351,1C00017A,true,Rx,0,5,00,75,16,40,03,00,00,00,
-1762630422161138,0401E411,true,Rx,0,7,00,05,0D,00,80,FF,01,00,
-1762630422161010,0401E411,true,Rx,0,7,01,05,F7,FF,B2,FF,01,00,
-1762630422160882,0401E451,true,Rx,0,8,01,A4,32,FF,FF,FF,8A,FF,
-1762630422160754,0401E431,true,Rx,0,6,00,00,00,00,00,00,00,00,
-1762630422160626,0401E431,true,Rx,0,6,01,00,00,00,00,00,00,00,
-1762630422160498,0401E451,true,Rx,0,8,00,A4,33,00,00,00,F4,FC,
-1762630422160370,0401E481,true,Rx,0,4,11,01,C1,FF,00,00,00,00,
-1762630422160284,0401E481,true,Rx,0,4,11,00,91,FF,00,00,00,00,
-1762630422160156,0401E481,true,Rx,0,4,12,01,8A,FF,00,00,00,00,
-1762630422160071,0401E481,true,Rx,0,4,12,00,AE,FF,00,00,00,00,
-1762630422159943,0405C410,true,Rx,0,8,00,01,15,44,21,A9,16,D1,
-1762630422159772,0405C430,true,Rx,0,8,00,64,43,29,E3,FF,BC,00,
-1762630422159644,0405C410,true,Rx,0,8,01,01,64,44,A5,9B,34,29,
-1762630422159516,0405C430,true,Rx,0,8,01,64,BF,2B,8D,00,2E,00,
-1762630422159388,0405C530,true,Rx,0,5,01,E1,FF,8B,00,00,00,00,
-1762630422159260,0405C410,true,Rx,0,8,02,01,F0,41,DC,94,4A,20,
-1762630422159132,0405C430,true,Rx,0,8,02,64,91,2A,31,00,68,00,
-1762630422159004,0405C530,true,Rx,0,5,02,9C,00,4A,00,00,00,00,
-1762630422158876,0405C530,true,Rx,0,5,00,A8,FF,4E,00,00,00,00,
-1762630422158748,1C00034B,true,Rx,0,8,02,FD,09,00,09,01,28,80,
-1762630422158620,1C00034B,true,Rx,0,5,00,75,17,1E,03,00,00,00,
-1762630422154141,04072001,true,Rx,0,4,01,00,01,00,00,00,00,00,
-1762630422153159,1C00029A,true,Rx,0,8,02,FD,09,00,08,01,28,80,
