Time Stamp,ID,Extended,Dir,Bus,LEN,D1,D2,D3,D4,D5,D6,D7,D8
-1761704683221779,19F04086,true,Rx,0,2,01,06,00,00,00,00,00,00,
-1761704678614326,04048401,true,Rx,0,1,01,00,00,00,00,00,00,00,
-1761704678600972,04072001,true,Rx,0,4,00,00,00,00,00,00,00,00,
-1761704678596663,1B3C751A,true,Rx,0,2,01,1A,00,00,00,00,00,00,
-1761704678550244,04072001,true,Rx,0,4,00,00,00,00,00,00,00,00,
-1761704678500624,04072001,true,Rx,0,4,00,00,00,00,00,00,00,00,
-1761704678450621,04072001,true,Rx,0,4,00,00,00,00,00,00,00,00,
-1761704678400617,04072001,true,Rx,0,4,00,00,00,00,00,00,00,00,
-1761704678350657,04072001,true,Rx,0,4,00,00,00,00,00,00,00,00,
-1761704678300653,04072001,true,Rx,0,4,00,00,00,00,00,00,00,00,
-1761704678250650,04072001,true,Rx,0,4,00,00,00,00,00,00,00,00,
-1761704678200647,04072001,true,Rx,0,4,00,00,00,00,00,00,00,00,
-1761704678168178,1AEB465F,true,Rx,0,2,01,01,00,00,00,00,00,00,
-1761704678167752,1817C261,true,Rx,0,2,01,01,00,00,00,00,00,00,
-1761704678166941,1817C261,true,Rx,0,2,00,01,00,00,00,00,00,00,
-1761704678161907,1AEB465F,true,Rx,0,2,01,02,00,00,00,00,00,00,
-1761704678150686,04072001,true,Rx,0,4,00,00,00,00,00,00,00,00,
-1761704678100640,1C0003FA,true,Rx,0,8,02,FD,15,00,00,00,00,00,
-1761704678100469,1C0003FA,true,Rx,0,8,00,69,14,00,01,28,80,2A,
-1761704678100341,1C0003FA,true,Rx,0,8,00,00,00,42,4D,53,00,02,
-1761704678100213,04072001,true,Rx,0,4,00,00,00,00,00,00,00,00,
-1761704678100128,1C0003FA,true,Rx,0,1,03,00,00,00,00,00,00,00,
-1761704678100000,1C0003FA,true,Rx,0,8,02,FD,1F,00,00,00,00,00,
-1761704678099872,1C0003FA,true,Rx,0,8,00,E2,14,02,01,28,80,33,
-1761704678099701,1C0003FA,true,Rx,0,8,00,00,00,57,69,66,69,42,
-1761704678099573,1C0003FA,true,Rx,0,8,6C,65,44,6F,6E,67,6C,65,
-1761704678099488,1C0003FA,true,Rx,0,3,00,3C,03,00,00,00,00,00,
-1761704678099317,1C0003FA,true,Rx,0,8,02,FD,20,00,00,00,00,00,
-1761704678099189,1C0003FA,true,Rx,0,8,00,B4,14,04,01,28,80,27,
-1761704678099061,1C0003FA,true,Rx,0,8,00,00,00,4D,6F,74,6F,72,
-1761704678098933,1C0003FA,true,Rx,0,8,43,6F,6E,74,72,6F,6C,5F,
-1761704678098805,1C0003FA,true,Rx,0,4,46,00,D1,03,00,00,00,00,
-1761704678098677,1C0003FA,true,Rx,0,8,02,FD,20,00,00,00,00,00,
-1761704678098507,1C0003FA,true,Rx,0,8,00,B4,14,06,01,28,80,2B,
-1761704678098379,1C0003FA,true,Rx,0,8,00,00,00,4C,6F,6F,70,52,
-1761704678098251,1C0003FA,true,Rx,0,8,65,63,65,69,76,65,72,5F,
-1761704678098123,1C0003FA,true,Rx,0,4,46,00,7C,03,00,00,00,00,
-1761704678097995,1C0003FA,true,Rx,0,8,02,FD,20,00,00,00,00,00,
-1761704678097824,1C0003FA,true,Rx,0,8,00,B4,14,07,01,28,80,2B,
-1761704678097696,1C0003FA,true,Rx,0,8,00,00,00,4C,6F,6F,70,52,
-1761704678097568,1C0003FA,true,Rx,0,8,65,63,65,69,76,65,72,5F,
-1761704678097440,1C0003FA,true,Rx,0,4,52,00,39,03,00,00,00,00,
-1761704678097312,1C000346,true,Rx,0,8,02,FD,0D,00,00,00,00,00,
-1761704678097184,1C0003FA,true,Rx,0,8,02,FD,25,00,00,00,00,00,
-1761704678097013,1C000346,true,Rx,0,8,00,63,15,00,01,28,80,3E,
-1761704678096885,1C0003FA,true,Rx,0,8,00,7D,14,08,01,28,80,29,
-1761704678096800,1C000346,true,Rx,0,1,03,00,00,00,00,00,00,00,
-1761704678096672,1C0003FA,true,Rx,0,8,00,00,00,4D,61,67,6E,65,
-1761704678096544,1C000346,true,Rx,0,8,02,FD,0D,00,00,00,00,00,
-1761704678096373,1C0003FA,true,Rx,0,8,74,69,63,33,44,53,65,6E,
-1761704678096245,1C000346,true,Rx,0,8,00,63,1C,00,01,28,80,CD,
-1761704678096117,1C0003FA,true,Rx,0,8,73,6F,72,5F,46,4C,00,E9,
-1761704678096032,1C000346,true,Rx,0,1,03,00,00,00,00,00,00,00,
-1761704678095947,1C0003FA,true,Rx,0,1,03,00,00,00,00,00,00,00,
-1761704678095776,1C0003FA,true,Rx,0,8,02,FD,25,00,00,00,00,00,
-1761704678095648,1C0003FA,true,Rx,0,8,00,7D,14,09,01,28,80,29,
-1761704678095520,1C0003FA,true,Rx,0,8,00,00,00,4D,61,67,6E,65,
-1761704678095392,1C0003FA,true,Rx,0,8,74,69,63,33,44,53,65,6E,
-1761704678095264,1C0003FA,true,Rx,0,8,73,6F,72,5F,46,52,00,ED,
-1761704678095179,1C0003FA,true,Rx,0,1,03,00,00,00,00,00,00,00,
-1761704678095008,1C0003FA,true,Rx,0,8,02,FD,25,00,00,00,00,00,
-1761704678094880,1C0003FA,true,Rx,0,8,00,7D,14,0A,01,28,80,29,
-1761704678094752,1C0003FA,true,Rx,0,8,00,00,00,4D,61,67,6E,65,
-1761704678094624,1C0003FA,true,Rx,0,8,74,69,63,33,44,53,65,6E,
-1761704678094453,1C0003FA,true,Rx,0,8,73,6F,72,5F,52,4C,00,55,
-1761704678094368,1C0003FA,true,Rx,0,1,03,00,00,00,00,00,00,00,
-1761704678094240,1C0003FA,true,Rx,0,8,02,FD,25,00,00,00,00,00,
-1761704678094112,1C0003FA,true,Rx,0,8,00,7D,14,0B,01,28,80,29,
-1761704678093984,1C0003FA,true,Rx,0,8,00,00,00,4D,61,67,6E,65,
-1761704678093813,1C0003FA,true,Rx,0,8,74,69,63,33,44,53,65,6E,
-1761704678093685,1C0003FA,true,Rx,0,8,73,6F,72,5F,52,52,00,51,
-1761704678093600,1C0003FA,true,Rx,0,1,03,00,00,00,00,00,00,00,
-1761704678093472,1C0003FA,true,Rx,0,8,02,FD,20,00,00,00,00,00,
-1761704678093301,1C0003FA,true,Rx,0,8,00,B4,14,0C,01,28,80,27,
-1761704678093173,1C0003FA,true,Rx,0,8,00,00,00,4D,6F,74,6F,72,
-1761704678093045,1C0003FA,true,Rx,0,8,43,6F,6E,74,72,6F,6C,5F,
-1761704678092917,1C0003FA,true,Rx,0,4,52,00,F2,03,00,00,00,00,
-1761704678092789,1C0003FA,true,Rx,0,8,02,FD,24,00,00,00,00,00,
-1761704678092661,1C0003FA,true,Rx,0,8,00,40,14,0D,01,28,80,29,
-1761704678092491,1C0003FA,true,Rx,0,8,00,00,00,4D,61,67,6E,65,
-1761704678092363,1C0003FA,true,Rx,0,8,74,69,63,33,44,53,65,6E,
-1761704678092235,1C0003FA,true,Rx,0,8,73,6F,72,5F,57,00,78,03,
-1761704678092107,1C0003FA,true,Rx,0,8,02,FD,1C,00,00,00,00,00,
-1761704678091936,1C0003FA,true,Rx,0,8,00,A5,14,0E,01,28,80,00,
-1761704678091808,1C0003FA,true,Rx,0,8,00,00,00,55,6C,74,72,61,
-1761704678091680,1C0003FA,true,Rx,0,8,73,6F,6E,69,63,00,5C,03,
-1761704678091509,1C0000DA,true,Rx,0,8,02,FD,0A,00,00,01,28,80,
-1761704678091381,1C0000DA,true,Rx,0,6,00,C1,08,01,28,03,00,00,
-1761704678091253,1C0000DA,true,Rx,0,8,02,FD,0D,00,00,00,00,00,
-1761704678091125,1C0000DA,true,Rx,0,8,00,63,1C,00,01,28,80,CD,
-1761704678091040,1C0000DA,true,Rx,0,1,03,00,00,00,00,00,00,00,
-1761704678090869,1C0000DA,true,Rx,0,8,02,FD,11,00,00,00,00,00,
-1761704678090741,1C0000DA,true,Rx,0,8,00,9D,1D,00,01,28,80,A4,
-1761704678090613,1C0000DA,true,Rx,0,5,04,00,00,39,03,00,00,00,
-1761704678078625,1C000346,true,Rx,0,8,02,FD,0B,00,00,01,28,80,
-1761704678078454,1C000346,true,Rx,0,7,00,FC,09,01,01,14,03,00,
-1761704678077387,1C0000DA,true,Rx,0,8,02,FD,10,00,00,01,28,80,
-1761704678077217,1C0000DA,true,Rx,0,8,01,EF,00,54,60,00,11,00,
-1761704678077131,1C0000DA,true,Rx,0,4,00,00,BC,03,00,00,00,00,
-1761704678076235,1C000346,true,Rx,0,8,02,FD,11,00,00,00,00,00,
-1761704678076107,1C000346,true,Rx,0,8,00,9D,1D,00,01,28,80,F4,
-1761704678075937,1C000346,true,Rx,0,5,00,00,00,7F,03,00,00,00,
-1761704678071628,1C000346,true,Rx,0,8,02,FD,12,00,00,01,28,80,
-1761704678071457,1C000346,true,Rx,0,8,01,95,01,54,60,00,11,00,
-1761704678071329,1C000346,true,Rx,0,6,00,01,00,02,96,03,00,00,
-1761704678070476,1C0000DA,true,Rx,0,8,02,FD,12,00,00,01,28,80,
-1761704678070305,1C0000DA,true,Rx,0,8,01,95,00,58,86,11,10,00,
-1761704678070220,1C0000DA,true,Rx,0,6,02,00,64,00,C7,03,00,00,
-1761704678068001,1C000346,true,Rx,0,8,02,FD,11,00,00,00,00,00,
-1761704678067830,1C000346,true,Rx,0,8,00,9D,18,00,01,28,80,86,
-1761704678067702,1C000346,true,Rx,0,5,11,02,01,F8,03,00,00,00,
-1761704678067574,1C000346,true,Rx,0,8,02,FD,11,00,00,01,28,80,
-1761704678067404,1C000346,true,Rx,0,8,01,D2,01,58,86,11,10,00,
-1761704678067276,1C000346,true,Rx,0,5,00,00,00,9A,03,00,00,00,
-1761704678066124,1C0000DA,true,Rx,0,8,02,FD,12,00,00,00,00,00,
-1761704678065996,1C0000DA,true,Rx,0,8,00,DA,19,00,01,28,80,86,
-1761704678065868,1C0000DA,true,Rx,0,6,11,02,01,01,26,03,00,00,
-1761704678065100,1C0000DA,true,Rx,0,8,02,FD,10,00,00,01,28,80,
-1761704678064929,1C0000DA,true,Rx,0,8,01,EF,00,59,86,11,11,00,
-1761704678064844,1C0000DA,true,Rx,0,4,00,00,AE,03,00,00,00,00,
-1761704678060961,1C000346,true,Rx,0,8,02,FD,11,00,00,00,00,00,
-1761704678060791,1C000346,true,Rx,0,8,00,9D,18,00,01,28,80,86,
-1761704678060663,1C000346,true,Rx,0,5,11,02,01,F8,03,00,00,00,
-1761704678060535,1C000346,true,Rx,0,8,02,FD,11,00,00,01,28,80,
-1761704678060364,1C000346,true,Rx,0,8,01,D2,01,59,86,11,11,00,
-1761704678060236,1C000346,true,Rx,0,5,00,00,00,14,03,00,00,00,
-1761704678059127,1C0000DA,true,Rx,0,8,02,FD,12,00,00,00,00,00,
-1761704678058999,1C0000DA,true,Rx,0,8,00,DA,19,00,01,28,80,86,
-1761704678058871,1C0000DA,true,Rx,0,6,11,02,01,01,26,03,00,00,
-1761704678057377,1C0000DA,true,Rx,0,8,02,FD,10,00,00,01,28,80,
-1761704678057207,1C0000DA,true,Rx,0,8,01,EF,00,5A,86,11,08,00,
-1761704678057121,1C0000DA,true,Rx,0,4,00,00,42,03,00,00,00,00,
-1761704678054007,1C000346,true,Rx,0,8,02,FD,15,00,00,01,28,80,
-1761704678053836,1C000346,true,Rx,0,8,01,26,01,5A,86,11,08,00,
-1761704678053708,1C000346,true,Rx,0,8,00,04,00,00,01,00,00,BA,
-1761704678053580,1C000346,true,Rx,0,1,03,00,00,00,00,00,00,00,
-1761704678052300,1C0000DA,true,Rx,0,8,02,FD,10,00,00,01,28,80,
-1761704678052172,1C0000DA,true,Rx,0,8,01,EF,00,5E,86,11,0F,00,
-1761704678052044,1C0000DA,true,Rx,0,4,00,00,30,03,00,00,00,00,
-1761704678049954,1C000346,true,Rx,0,8,02,FD,13,00,00,01,28,80,
-1761704678049826,1C000346,true,Rx,0,8,01,A8,01,5E,86,11,0F,00,
-1761704678049655,1C000346,true,Rx,0,7,00,02,00,00,00,0C,03,00,
-1761704678049527,04072001,true,Rx,0,4,00,00,00,00,00,00,00,00,
-1761704678046967,1C0000DA,true,Rx,0,8,02,FD,10,00,00,01,28,80,
-1761704678046839,1C0000DA,true,Rx,0,8,01,EF,00,5F,60,00,11,00,
-1761704678046754,1C0000DA,true,Rx,0,4,00,00,0A,03,00,00,00,00,
-1761704678044749,1C000346,true,Rx,0,8,02,FD,12,00,00,01,28,80,
-1761704678044621,1C000346,true,Rx,0,8,01,95,01,5F,60,00,11,00,
-1761704678044450,1C000346,true,Rx,0,6,00,01,00,02,3E,03,00,00,
-1761704678042743,1C0000DA,true,Rx,0,8,02,FD,14,00,00,01,28,80,
-1761704678042573,1C0000DA,true,Rx,0,8,01,1B,00,64,0A,10,04,00,
-1761704678042445,1C0000DA,true,Rx,0,8,04,00,E8,03,00,00,72,03,
-1761704678040354,1C000346,true,Rx,0,8,02,FD,11,00,00,00,00,00,
-1761704678040226,1C000346,true,Rx,0,8,00,9D,18,00,01,28,80,0A,
-1761704678040098,1C000346,true,Rx,0,5,10,02,01,98,03,00,00,00,
-1761704678039927,1C000346,true,Rx,0,8,02,FD,11,00,00,01,28,80,
-1761704678039799,1C000346,true,Rx,0,8,01,D2,01,64,0A,10,04,00,
-1761704678039629,1C000346,true,Rx,0,5,00,00,00,9F,03,00,00,00,
-1761704678038093,1C0000DA,true,Rx,0,8,02,FD,12,00,00,00,00,00,
-1761704678037965,1C0000DA,true,Rx,0,8,00,DA,19,00,01,28,80,0A,
-1761704678037837,1C0000DA,true,Rx,0,6,10,02,01,01,43,03,00,00,
-1761704678036173,1C0000DA,true,Rx,0,8,02,FD,10,00,00,01,28,80,
-1761704678036002,1C0000DA,true,Rx,0,8,01,EF,00,65,0A,10,19,00,
-1761704678035917,1C0000DA,true,Rx,0,4,00,00,F9,03,00,00,00,00,
-1761704678033016,1C000346,true,Rx,0,8,02,FD,12,00,00,01,28,80,
-1761704678032845,1C000346,true,Rx,0,8,01,95,01,65,0A,10,19,00,
-1761704678032717,1C000346,true,Rx,0,6,00,01,00,01,10,03,00,00,
-1761704678031906,1C0000DA,true,Rx,0,8,02,FD,10,00,00,01,28,80,
-1761704678031736,1C0000DA,true,Rx,0,8,01,EF,00,66,0A,10,00,00,
-1761704678031650,1C0000DA,true,Rx,0,4,00,00,15,03,00,00,00,00,
-1761704678029603,1C000346,true,Rx,0,8,02,FD,12,00,00,01,28,80,
-1761704678029475,1C000346,true,Rx,0,8,01,95,01,66,0A,10,00,00,
-1761704678029304,1C000346,true,Rx,0,6,00,01,00,00,76,03,00,00,
-1761704678027939,1C0000DA,true,Rx,0,8,02,FD,10,00,00,01,28,80,
-1761704678027811,1C0000DA,true,Rx,0,8,01,EF,00,69,0A,10,01,00,
-1761704678027683,1C0000DA,true,Rx,0,4,00,00,D8,03,00,00,00,00,
-1761704678026147,1C000346,true,Rx,0,8,02,FD,13,00,00,01,28,80,
-1761704678025976,1C000346,true,Rx,0,8,01,A8,01,69,0A,10,01,00,
-1761704678025805,1C000346,true,Rx,0,7,00,02,00,28,48,DD,03,00,
-1761704678024739,1C0000DA,true,Rx,0,8,02,FD,10,00,00,01,28,80,
-1761704678024611,1C0000DA,true,Rx,0,8,01,EF,00,6A,0A,10,05,00,
-1761704678024483,1C0000DA,true,Rx,0,4,00,00,91,03,00,00,00,00,
-1761704678022435,1C000346,true,Rx,0,8,02,FD,12,00,00,01,28,80,
-1761704678022264,1C000346,true,Rx,0,8,01,95,01,6A,0A,10,05,00,
-1761704678022136,1C000346,true,Rx,0,6,00,01,00,01,3C,03,00,00,
-1761704678019534,1C0000DA,true,Rx,0,8,02,FD,10,00,00,01,28,80,
-1761704678019406,1C0000DA,true,Rx,0,8,01,EF,00,6B,0A,10,07,00,
-1761704678019320,1C0000DA,true,Rx,0,4,00,00,AB,03,00,00,00,00,
-1761704678017230,1C000346,true,Rx,0,8,02,FD,26,00,00,01,28,80,
-1761704678017102,1C000346,true,Rx,0,8,01,75,01,6B,0A,10,07,00,
-1761704678016931,1C000346,true,Rx,0,8,00,15,00,11,00,00,00,00,
-1761704678016760,1C000346,true,Rx,0,8,00,00,D5,14,00,00,00,00,
-1761704678016632,1C000346,true,Rx,0,8,00,00,00,00,00,00,00,00,
-1761704678016504,1C000346,true,Rx,0,2,FF,03,00,00,00,00,00,00,
-1761704678014499,1C0000DA,true,Rx,0,8,02,FD,10,00,00,01,28,80,
-1761704678014328,1C0000DA,true,Rx,0,8,01,EF,00,6C,0A,10,08,00,
-1761704678014243,1C0000DA,true,Rx,0,4,00,00,82,03,00,00,00,00,
-1761704678012153,1C000346,true,Rx,0,8,02,FD,13,00,00,01,28,80,
-1761704678012025,1C000346,true,Rx,0,8,01,A8,01,6C,0A,10,08,00,
-1761704678011897,1C000346,true,Rx,0,7,00,02,00,5E,FF,61,03,00,
-1761704678010915,1C0000DA,true,Rx,0,8,02,FD,10,00,00,01,28,80,
-1761704678010787,1C0000DA,true,Rx,0,8,01,EF,00,6D,0A,10,09,00,
-1761704678010659,1C0000DA,true,Rx,0,4,00,00,30,03,00,00,00,00,
-1761704678009081,1C000346,true,Rx,0,8,02,FD,13,00,00,01,28,80,
-1761704678008910,1C000346,true,Rx,0,8,01,A8,01,6D,0A,10,09,00,
-1761704678008782,1C000346,true,Rx,0,7,00,02,00,15,00,1F,03,00,
-1761704678007673,1C0000DA,true,Rx,0,8,02,FD,10,00,00,01,28,80,
-1761704678007545,1C0000DA,true,Rx,0,8,01,EF,00,6E,0A,10,0A,00,
-1761704678007417,1C0000DA,true,Rx,0,4,00,00,FF,03,00,00,00,00,
-1761704678005369,1C000346,true,Rx,0,8,02,FD,13,00,00,01,28,80,
-1761704678005198,1C000346,true,Rx,0,8,01,A8,01,6E,0A,10,0A,00,
-1761704678005027,1C000346,true,Rx,0,7,00,02,00,92,00,52,03,00,
-1761704678003918,1C0000DA,true,Rx,0,8,02,FD,10,00,00,01,28,80,
-1761704678003748,1C0000DA,true,Rx,0,8,01,EF,00,6F,0A,10,0B,00,
-1761704678003662,1C0000DA,true,Rx,0,4,00,00,4D,03,00,00,00,00,
-1761704678001572,1C000346,true,Rx,0,8,02,FD,1B,00,00,01,28,80,
-1761704678001444,1C000346,true,Rx,0,8,01,59,01,6F,0A,10,0B,00,
-1761704678001273,1C000346,true,Rx,0,8,00,0A,00,33,00,28,48,5E,
-1761704678001145,1C000346,true,Rx,0,7,FF,15,00,00,5E,2B,03,00,
-1761704678000249,1C0000DA,true,Rx,0,8,02,FD,10,00,00,01,28,80,
-1761704678000121,1C0000DA,true,Rx,0,8,01,EF,00,70,0A,10,14,00,
-1761704677999993,1C0000DA,true,Rx,0,4,00,00,56,03,00,00,00,00,
-1761704677999481,04072001,true,Rx,0,4,00,00,00,00,00,00,00,00,
-1761704677999225,193276AB,true,Rx,0,2,01,0B,00,00,00,00,00,00,
-1761704677998969,188D5F74,true,Rx,0,2,01,14,00,00,00,00,00,00,
-1761704677997860,1C000346,true,Rx,0,8,02,FD,12,00,00,01,28,80,
-1761704677997732,1C000346,true,Rx,0,8,01,95,01,70,0A,10,14,00,
-1761704677997604,1C000346,true,Rx,0,6,00,01,00,33,E4,03,00,00,
-1761704677996580,1C0000DA,true,Rx,0,8,02,FD,10,00,00,01,28,80,
-1761704677996409,1C0000DA,true,Rx,0,8,01,EF,00,71,0A,10,15,00,
-1761704677996324,1C0000DA,true,Rx,0,4,00,00,E4,03,00,00,00,00,
-1761704677994276,1C000346,true,Rx,0,8,02,FD,12,00,00,01,28,80,
-1761704677994105,1C000346,true,Rx,0,8,01,95,01,71,0A,10,15,00,
-1761704677993977,1C000346,true,Rx,0,6,00,01,00,00,2B,03,00,00,
-1761704677992697,1C0000DA,true,Rx,0,8,02,FD,10,00,00,01,28,80,
-1761704677992569,1C0000DA,true,Rx,0,8,01,EF,00,72,0A,10,16,00,
-1761704677992441,1C0000DA,true,Rx,0,4,00,00,2B,03,00,00,00,00,
-1761704677990436,1C000346,true,Rx,0,8,02,FD,15,00,00,01,28,80,
-1761704677990265,1C000346,true,Rx,0,8,01,26,01,72,0A,10,16,00,
-1761704677990137,1C000346,true,Rx,0,8,00,04,00,00,00,00,00,F3,
-1761704677990009,1C000346,true,Rx,0,1,03,00,00,00,00,00,00,00,
-1761704677988857,1C0000DA,true,Rx,0,8,02,FD,10,00,00,01,28,80,
-1761704677988729,1C0000DA,true,Rx,0,8,01,EF,00,73,0A,10,18,00,
-1761704677988601,1C0000DA,true,Rx,0,4,00,00,03,03,00,00,00,00,
-1761704677986596,1C000346,true,Rx,0,8,02,FD,12,00,00,01,28,80,
-1761704677986468,1C000346,true,Rx,0,8,01,95,01,73,0A,10,18,00,
-1761704677986340,1C000346,true,Rx,0,6,00,01,00,00,30,03,00,00,
-1761704677985316,1C0000DA,true,Rx,0,8,02,FD,10,00,00,01,28,80,
-1761704677985146,1C0000DA,true,Rx,0,8,01,EF,00,74,0A,10,1A,00,
-1761704677985060,1C0000DA,true,Rx,0,4,00,00,B7,03,00,00,00,00,
-1761704677982884,1C000346,true,Rx,0,8,02,FD,13,00,00,01,28,80,
-1761704677982756,1C000346,true,Rx,0,8,01,A8,01,74,0A,10,1A,00,
-1761704677982586,1C000346,true,Rx,0,7,00,02,00,30,11,FA,03,00,
-1761704677982287,04030C82,true,Rx,0,4,00,01,00,00,00,00,00,00,
-1761704677982116,04030CE2,true,Rx,0,8,8D,00,00,00,C2,64,1E,67,
-1761704677981604,1C0000DA,true,Rx,0,8,02,FD,10,00,00,01,28,80,
-1761704677981476,1C0000DA,true,Rx,0,8,01,EF,00,75,0A,10,1D,00,
-1761704677981348,1C0000DA,true,Rx,0,4,00,00,0C,03,00,00,00,00,
-1761704677979343,1C000346,true,Rx,0,8,02,FD,12,00,00,01,28,80,
-1761704677979172,1C000346,true,Rx,0,8,01,95,01,75,0A,10,1D,00,
-1761704677979045,1C000346,true,Rx,0,6,00,01,00,5E,EC,03,00,00,
-1761704677977722,1C0000DA,true,Rx,0,8,02,FD,10,00,00,01,28,80,
-1761704677977551,1C0000DA,true,Rx,0,8,01,EF,00,78,0A,10,1E,00,
-1761704677977466,1C0000DA,true,Rx,0,4,00,00,BC,03,00,00,00,00,
-1761704677975375,1C000346,true,Rx,0,8,02,FD,25,00,00,01,28,80,
-1761704677975247,1C000346,true,Rx,0,8,01,32,01,78,0A,10,1E,00,
-1761704677975077,1C000346,true,Rx,0,8,00,14,00,6C,0E,70,0E,6D,
-1761704677974949,1C000346,true,Rx,0,8,0E,70,0E,6F,0E,00,00,00,
-1761704677974778,1C000346,true,Rx,0,8,00,00,00,00,00,00,00,FF,
-1761704677974693,1C000346,true,Rx,0,1,03,00,00,00,00,00,00,00,
-1761704677973882,1C0000DA,true,Rx,0,8,02,FD,10,00,00,01,28,80,
-1761704677973754,1C0000DA,true,Rx,0,8,01,EF,00,79,0A,10,1F,00,
-1761704677973626,1C0000DA,true,Rx,0,4,00,00,0E,03,00,00,00,00,
-1761704677971578,1C000346,true,Rx,0,8,02,FD,1B,00,00,01,28,80,
-1761704677971450,1C000346,true,Rx,0,8,01,59,01,79,0A,10,1F,00,
-1761704677971279,1C000346,true,Rx,0,8,00,0A,00,00,00,00,00,00,
-1761704677971151,1C000346,true,Rx,0,7,00,00,00,00,00,50,03,00,
-1761704677970256,1C0000DA,true,Rx,0,8,02,FD,10,00,00,01,28,80,
-1761704677970128,1C0000DA,true,Rx,0,8,01,EF,00,7A,0A,10,21,00,
-1761704677970000,1C0000DA,true,Rx,0,4,00,00,14,03,00,00,00,00,
-1761704677967952,1C000346,true,Rx,0,8,02,FD,15,00,00,01,28,80,
-1761704677967781,1C000346,true,Rx,0,8,01,26,01,7A,0A,10,21,00,
-1761704677967610,1C000346,true,Rx,0,8,00,04,00,00,00,00,00,18,
-1761704677967525,1C000346,true,Rx,0,1,03,00,00,00,00,00,00,00,
-1761704677966586,1C0000DA,true,Rx,0,8,02,FD,10,00,00,01,28,80,
-1761704677966458,1C0000DA,true,Rx,0,8,01,EF,00,7B,60,00,11,00,
-1761704677966330,1C0000DA,true,Rx,0,4,00,00,11,03,00,00,00,00,
-1761704677964368,1C000346,true,Rx,0,8,02,FD,12,00,00,01,28,80,
-1761704677964240,1C000346,true,Rx,0,8,01,95,01,7B,60,00,11,00,
-1761704677964069,1C000346,true,Rx,0,6,00,01,00,02,F1,03,00,00,
-1761704677962917,1C0000DA,true,Rx,0,8,02,FD,10,00,00,01,28,80,
-1761704677962789,1C0000DA,true,Rx,0,8,01,EF,00,7E,60,00,11,00,
-1761704677962661,1C0000DA,true,Rx,0,4,00,00,D8,03,00,00,00,00,
-1761704677960699,1C000346,true,Rx,0,8,02,FD,12,00,00,01,28,80,
-1761704677960528,1C000346,true,Rx,0,8,01,95,01,7E,60,00,11,00,
-1761704677960400,1C000346,true,Rx,0,6,00,01,00,02,F7,03,00,00,
-1761704677959504,1C0000DA,true,Rx,0,8,02,FD,10,00,00,01,28,80,
-1761704677959376,1C0000DA,true,Rx,0,8,01,EF,00,7F,B8,12,02,00,
-1761704677959248,1C0000DA,true,Rx,0,4,00,00,CF,03,00,00,00,00,
-1761704677956987,1C000346,true,Rx,0,8,02,FD,11,00,00,00,00,00,
-1761704677956859,1C000346,true,Rx,0,8,00,9D,18,00,01,28,80,B8,
-1761704677956731,1C000346,true,Rx,0,5,12,02,01,41,03,00,00,00,
-1761704677956560,1C000346,true,Rx,0,8,02,FD,11,00,00,01,28,80,
-1761704677956432,1C000346,true,Rx,0,8,01,D2,01,7F,B8,12,02,00,
-1761704677956304,1C000346,true,Rx,0,5,00,00,00,2F,03,00,00,00,
-1761704677955152,1C0000DA,true,Rx,0,8,02,FD,12,00,00,00,00,00,
-1761704677955024,1C0000DA,true,Rx,0,8,00,DA,19,00,01,28,80,B8,
-1761704677954896,1C0000DA,true,Rx,0,6,12,02,01,01,88,03,00,00,
-1761704677954085,1C0000DA,true,Rx,0,8,02,FD,10,00,00,01,28,80,
-1761704677953957,1C0000DA,true,Rx,0,8,01,EF,00,80,B8,12,03,00,
-1761704677953829,1C0000DA,true,Rx,0,4,00,00,46,03,00,00,00,00,
-1761704677949862,1C000346,true,Rx,0,8,02,FD,12,00,00,01,28,80,
-1761704677949691,1C000346,true,Rx,0,8,01,95,01,80,B8,12,03,00,
-1761704677949606,04072001,true,Rx,0,4,00,00,00,00,00,00,00,00,
-1761704677949435,1C000346,true,Rx,0,6,00,01,00,01,0A,03,00,00,
-1761704677948368,1C0000DA,true,Rx,0,8,02,FD,10,00,00,01,28,80,
-1761704677948240,1C0000DA,true,Rx,0,8,01,EF,00,81,B8,12,00,00,
-1761704677948112,1C0000DA,true,Rx,0,4,00,00,F3,03,00,00,00,00,
-1761704677945936,1C000346,true,Rx,0,8,02,FD,15,00,00,01,28,80,
-1761704677945766,1C000346,true,Rx,0,8,01,26,01,81,B8,12,00,00,
-1761704677945595,1C000346,true,Rx,0,8,00,04,00,36,90,0C,69,4E,
-1761704677945510,1C000346,true,Rx,0,1,03,00,00,00,00,00,00,00,
-1761704677944571,1C0000DA,true,Rx,0,8,02,FD,10,00,00,01,28,80,
-1761704677944443,1C0000DA,true,Rx,0,8,01,EF,00,83,60,00,11,00,
-1761704677944315,1C0000DA,true,Rx,0,4,00,00,A4,03,00,00,00,00,
-1761704677942353,1C000346,true,Rx,0,8,02,FD,12,00,00,01,28,80,
-1761704677942182,1C000346,true,Rx,0,8,01,95,01,83,60,00,11,00,
-1761704677942054,1C000346,true,Rx,0,6,00,01,00,02,0C,03,00,00,
-1761704677940859,1C0000DA,true,Rx,0,8,02,FD,10,00,00,01,28,80,
-1761704677940731,1C0000DA,true,Rx,0,8,01,EF,00,84,60,00,11,00,
-1761704677940603,1C0000DA,true,Rx,0,4,00,00,17,03,00,00,00,00,
-1761704677938641,1C000346,true,Rx,0,8,02,FD,12,00,00,01,28,80,
-1761704677938513,1C000346,true,Rx,0,8,01,95,01,84,60,00,11,00,
-1761704677938342,1C000346,true,Rx,0,6,00,01,00,02,5B,03,00,00,
-1761704677937489,1C0000DA,true,Rx,0,8,02,FD,10,00,00,01,28,80,
-1761704677937318,1C0000DA,true,Rx,0,8,01,EF,00,85,9E,13,01,00,
-1761704677937233,1C0000DA,true,Rx,0,4,00,00,41,03,00,00,00,00,
-1761704677934844,1C000346,true,Rx,0,8,02,FD,11,00,00,00,00,00,
-1761704677934716,1C000346,true,Rx,0,8,00,9D,18,00,01,28,80,9E,
-1761704677934588,1C000346,true,Rx,0,5,13,02,01,93,03,00,00,00,
-1761704677934417,1C000346,true,Rx,0,8,02,FD,11,00,00,01,28,80,
-1761704677934289,1C000346,true,Rx,0,8,01,D2,01,85,9E,13,01,00,
-1761704677934118,1C000346,true,Rx,0,5,00,00,00,BC,03,00,00,00,
-1761704677933137,1C0000DA,true,Rx,0,8,02,FD,12,00,00,00,00,00,
-1761704677933009,1C0000DA,true,Rx,0,8,00,DA,19,00,01,28,80,9E,
-1761704677932881,1C0000DA,true,Rx,0,6,13,02,01,01,63,03,00,00,
-1761704677899673,04072001,true,Rx,0,4,00,00,00,00,00,00,00,00,
-1761704677895534,04030C82,true,Rx,0,4,00,01,00,00,00,00,00,00,
-1761704677895406,04030CE2,true,Rx,0,8,8D,00,00,00,C2,64,1E,67,
-1761704677849712,04072001,true,Rx,0,4,00,00,00,00,00,00,00,00,
-1761704677836528,04001442,true,Rx,0,1,00,00,00,00,00,00,00,00,
-1761704677836443,04001462,true,Rx,0,1,33,00,00,00,00,00,00,00,
-1761704677836315,040014A2,true,Rx,0,2,28,48,00,00,00,00,00,00,
-1761704677836187,04001482,true,Rx,0,1,00,00,00,00,00,00,00,00,
-1761704677836059,040014C2,true,Rx,0,4,00,00,00,00,00,00,00,00,
-1761704677835974,04001542,true,Rx,0,2,5E,FF,00,00,00,00,00,00,
-1761704677835846,04001562,true,Rx,0,2,15,00,00,00,00,00,00,00,
-1761704677835718,04001522,true,Rx,0,2,92,00,00,00,00,00,00,00,
-1761704677835632,040015A2,true,Rx,0,1,00,00,00,00,00,00,00,00,
-1761704677835504,04001722,true,Rx,0,1,5E,00,00,00,00,00,00,00,
-1761704677835291,04001682,true,Rx,0,6,8B,15,00,00,11,00,00,00,
-1761704677835248,040015E2,true,Rx,0,2,00,00,00,00,00,00,00,00,
-1761704677835120,04001602,true,Rx,0,1,00,00,00,00,00,00,00,00,
-1761704677834992,04001622,true,Rx,0,1,00,00,00,00,00,00,00,00,
-1761704677834822,04001642,true,Rx,0,1,00,00,00,00,00,00,00,00,
-1761704677834694,04001662,true,Rx,0,3,00,00,00,00,00,00,00,00,
-1761704677834523,040016C2,true,Rx,0,5,00,00,00,00,00,00,00,00,
-1761704677834310,1C0003E6,true,Rx,0,8,02,FC,23,00,0A,10,02,B1,
-1761704677834139,1C0003E6,true,Rx,0,8,01,E2,02,0A,10,1B,00,14,
-1761704677834011,1C0003E6,true,Rx,0,8,00,6C,0E,70,0E,6D,0E,70,
-1761704677833841,1C0003E6,true,Rx,0,8,0E,6F,0E,00,00,00,00,00,
-1761704677833670,1C0003E6,true,Rx,0,7,00,00,00,00,00,93,03,00,
-1761704677833542,1C0003E6,true,Rx,0,8,02,FC,19,00,0A,10,02,B1,
-1761704677833371,1C0003E6,true,Rx,0,8,01,7D,02,0A,10,1C,00,0A,
-1761704677833201,1C0003E6,true,Rx,0,8,00,00,00,00,00,00,00,00,
-1761704677833073,1C0003E6,true,Rx,0,5,00,00,00,13,03,00,00,00,
-1761704677806492,04030C82,true,Rx,0,4,00,01,00,00,00,00,00,00,
-1761704677806322,04030CE2,true,Rx,0,8,8D,00,00,00,C2,64,1E,67,
-1761704677799709,04072001,true,Rx,0,4,00,00,00,00,00,00,00,00,
-1761704677749705,04072001,true,Rx,0,4,00,00,00,00,00,00,00,00,
-1761704677717493,04030C82,true,Rx,0,4,00,01,00,00,00,00,00,00,
-1761704677717365,04030CE2,true,Rx,0,8,8D,00,00,00,C2,64,1E,67,
-1761704677708149,04048421,true,Rx,0,0,00,00,00,00,00,00,00,00,
-1761704677705760,1C0003E2,true,Rx,0,8,02,FD,15,00,00,00,00,00,
-1761704677705590,1C0003E2,true,Rx,0,8,00,69,14,00,11,27,80,2A,
-1761704677705462,1C0003E2,true,Rx,0,8,00,00,00,42,4D,53,00,99,
-1761704677705376,1C0003E2,true,Rx,0,1,03,00,00,00,00,00,00,00,
-1761704677705035,1C0003E1,true,Rx,0,8,02,FD,15,00,00,00,00,00,
-1761704677704907,1C0003E1,true,Rx,0,8,00,69,14,00,12,27,80,2A,
-1761704677704736,1C0003E1,true,Rx,0,8,00,00,00,42,4D,53,00,FF,
-1761704677704651,1C0003E1,true,Rx,0,1,03,00,00,00,00,00,00,00,
-1761704677703158,1C000046,true,Rx,0,8,02,FD,0D,00,00,00,00,00,
-1761704677702987,1C000046,true,Rx,0,8,00,63,15,00,11,27,80,6C,
-1761704677702902,1C000046,true,Rx,0,1,03,00,00,00,00,00,00,00,
-1761704677702731,1C000046,true,Rx,0,8,02,FD,0D,00,00,00,00,00,
-1761704677702603,1C000046,true,Rx,0,8,00,63,1C,00,11,27,80,9F,
-1761704677702518,1C000046,true,Rx,0,1,03,00,00,00,00,00,00,00,
-1761704677701451,1C0000C2,true,Rx,0,8,02,FD,0A,00,00,11,27,80,
-1761704677701323,1C0000C2,true,Rx,0,6,00,A6,08,01,28,03,00,00,
-1761704677701152,1C0000C2,true,Rx,0,8,02,FD,0D,00,00,00,00,00,
-1761704677701024,1C0000C2,true,Rx,0,8,00,63,1C,00,11,27,80,9F,
-1761704677700896,1C000026,true,Rx,0,8,02,FD,0D,00,00,00,00,00,
-1761704677700811,1C0000C2,true,Rx,0,1,03,00,00,00,00,00,00,00,
-1761704677700640,1C000026,true,Rx,0,8,00,63,15,00,12,27,80,88,
-1761704677700555,1C000026,true,Rx,0,1,03,00,00,00,00,00,00,00,
-1761704677700427,1C000026,true,Rx,0,8,02,FD,0D,00,00,00,00,00,
-1761704677700256,1C000026,true,Rx,0,8,00,63,1C,00,12,27,80,7B,
-1761704677700128,1C000026,true,Rx,0,1,03,00,00,00,00,00,00,00,
-1761704677700000,1C0000C2,true,Rx,0,8,02,FD,11,00,00,00,00,00,
-1761704677699872,1C0000C2,true,Rx,0,8,00,9D,1D,00,11,27,80,F4,
-1761704677699744,1C0000C2,true,Rx,0,5,00,00,00,A0,03,00,00,00,
-1761704677699574,04072001,true,Rx,0,4,00,00,00,00,00,00,00,00,
-1761704677699190,1C0000C1,true,Rx,0,8,02,FD,0A,00,00,12,27,80,
-1761704677699062,1C0000C1,true,Rx,0,6,00,2E,08,01,28,03,00,00,
-1761704677698891,1C0000C1,true,Rx,0,8,02,FD,0D,00,00,00,00,00,
-1761704677698763,1C0000C1,true,Rx,0,8,00,63,1C,00,12,27,80,7B,
-1761704677698678,1C0000C1,true,Rx,0,1,03,00,00,00,00,00,00,00,
-1761704677698464,1C000046,true,Rx,0,8,02,FD,0B,00,00,11,27,80,
-1761704677698336,1C000046,true,Rx,0,7,00,9B,09,01,01,14,03,00,
-1761704677697867,1C0000C1,true,Rx,0,8,02,FD,11,00,00,00,00,00,
-1761704677697696,1C0000C1,true,Rx,0,8,00,9D,1D,00,12,27,80,F4,
-1761704677697568,1C0000C1,true,Rx,0,5,00,00,00,E7,03,00,00,00,
-1761704677696886,1C0000C2,true,Rx,0,8,02,FD,10,00,00,11,27,80,
-1761704677696715,1C0000C2,true,Rx,0,8,01,88,00,01,60,00,11,00,
-1761704677696630,1C0000C2,true,Rx,0,4,00,00,49,03,00,00,00,00,
-1761704677696033,1C000046,true,Rx,0,8,02,FD,11,00,00,00,00,00,
-1761704677695862,1C000046,true,Rx,0,8,00,9D,1D,00,11,27,80,F4,
-1761704677695734,1C000046,true,Rx,0,5,00,00,00,A0,03,00,00,00,
-1761704677691595,1C000046,true,Rx,0,8,02,FD,12,00,00,11,27,80,
-1761704677691467,1C000046,true,Rx,0,8,01,F2,01,01,60,00,11,00,
-1761704677691339,1C000046,true,Rx,0,6,00,01,00,02,F0,03,00,00,
-1761704677690486,1C0000C2,true,Rx,0,8,02,FD,10,00,00,11,27,80,
-1761704677690315,1C000026,true,Rx,0,8,02,FD,0B,00,00,12,27,80,
-1761704677690187,1C0000C2,true,Rx,0,8,01,88,00,02,B8,12,02,00,
-1761704677690059,1C000026,true,Rx,0,7,00,13,09,01,01,14,03,00,
-1761704677689931,1C0000C2,true,Rx,0,4,00,00,24,03,00,00,00,00,
-1761704677688737,1C0000C1,true,Rx,0,8,02,FD,10,00,00,12,27,80,
-1761704677688566,1C0000C1,true,Rx,0,8,01,00,00,01,60,00,11,00,
-1761704677688481,1C0000C1,true,Rx,0,4,00,00,49,03,00,00,00,00,
-1761704677687841,1C000026,true,Rx,0,8,02,FD,11,00,00,00,00,00,
-1761704677687713,1C000026,true,Rx,0,8,00,9D,1D,00,12,27,80,F4,
-1761704677687585,1C000026,true,Rx,0,5,00,00,00,E7,03,00,00,00,
-1761704677682934,1C000046,true,Rx,0,8,02,FD,11,00,00,00,00,00,
-1761704677682806,1C000046,true,Rx,0,8,00,9D,18,00,11,27,80,B8,
-1761704677682678,1C000046,true,Rx,0,5,12,02,01,9E,03,00,00,00,
-1761704677682508,1C000046,true,Rx,0,8,02,FD,11,00,00,11,27,80,
-1761704677682337,1C000046,true,Rx,0,8,01,B5,01,02,B8,12,02,00,
-1761704677682209,1C000046,true,Rx,0,5,00,00,00,E6,03,00,00,00,
-1761704677681441,1C000026,true,Rx,0,8,02,FD,12,00,00,12,27,80,
-1761704677681270,1C0000C2,true,Rx,0,8,02,FD,12,00,00,00,00,00,
-1761704677681142,1C000026,true,Rx,0,8,01,7A,01,01,60,00,11,00,
-1761704677681014,1C0000C2,true,Rx,0,8,00,DA,19,00,11,27,80,B8,
-1761704677680886,1C000026,true,Rx,0,6,00,01,00,02,F0,03,00,00,
-1761704677680758,1C0000C2,true,Rx,0,6,12,02,01,01,9E,03,00,00,
-1761704677680460,1C0000C2,true,Rx,0,8,02,FD,10,00,00,11,27,80,
-1761704677680332,1C0000C2,true,Rx,0,8,01,88,00,03,B8,12,00,00,
-1761704677680204,1C0000C2,true,Rx,0,4,00,00,1E,03,00,00,00,00,
-1761704677679991,1C0000C1,true,Rx,0,8,02,FD,10,00,00,12,27,80,
-1761704677679863,1C0000C1,true,Rx,0,8,01,00,00,02,B8,12,02,00,
-1761704677679735,1C0000C1,true,Rx,0,4,00,00,24,03,00,00,00,00,
-1761704677675724,1C000046,true,Rx,0,8,02,FD,15,00,00,11,27,80,
-1761704677675553,1C000046,true,Rx,0,8,01,41,01,03,B8,12,00,00,
-1761704677675425,1C000046,true,Rx,0,8,00,04,00,36,90,0C,69,78,
-1761704677675297,1C000046,true,Rx,0,1,03,00,00,00,00,00,00,00,
-1761704677674145,1C000026,true,Rx,0,8,02,FD,11,00,00,00,00,00,
-1761704677673975,1C000026,true,Rx,0,8,00,9D,18,00,12,27,80,B8,
-1761704677673847,1C000026,true,Rx,0,5,12,02,01,D9,03,00,00,00,
-1761704677673676,1C000026,true,Rx,0,8,02,FD,11,00,00,12,27,80,
-1761704677673548,1C000026,true,Rx,0,8,01,3D,01,02,B8,12,02,00,
-1761704677673420,1C000026,true,Rx,0,5,00,00,00,E6,03,00,00,00,
-1761704677672524,1C0000C1,true,Rx,0,8,02,FD,12,00,00,00,00,00,
-1761704677672396,1C0000C1,true,Rx,0,8,00,DA,19,00,12,27,80,B8,
-1761704677672268,1C0000C1,true,Rx,0,6,12,02,01,01,5B,03,00,00,
-1761704677671671,1C0000C1,true,Rx,0,8,02,FD,10,00,00,12,27,80,
-1761704677671500,1C0000C1,true,Rx,0,8,01,00,00,03,B8,12,00,00,
-1761704677671415,1C0000C1,true,Rx,0,4,00,00,1E,03,00,00,00,00,
-1761704677667234,1C000026,true,Rx,0,8,02,FD,15,00,00,12,27,80,
-1761704677667106,1C000026,true,Rx,0,8,01,C9,01,03,B8,12,00,00,
-1761704677666935,1C000026,true,Rx,0,8,00,04,00,36,90,0C,69,78,
-1761704677666807,1C000026,true,Rx,0,1,03,00,00,00,00,00,00,00,
-1761704677649741,04072001,true,Rx,0,4,00,00,00,00,00,00,00,00,
-1761704677628537,04030C82,true,Rx,0,4,00,01,00,00,00,00,00,00,
-1761704677628366,04030CE2,true,Rx,0,8,8D,00,00,00,C2,64,1E,67,
-1761704677600634,1C0003FA,true,Rx,0,8,02,FD,1F,00,00,00,00,00,
-1761704677600506,1C0003FA,true,Rx,0,8,00,E2,14,02,01,28,80,33,
-1761704677600378,1C0003FA,true,Rx,0,8,00,00,00,57,69,66,69,42,
-1761704677600207,1C0003FA,true,Rx,0,8,6C,65,44,6F,6E,67,6C,65,
-1761704677600122,1C0003FA,true,Rx,0,3,00,3C,03,00,00,00,00,00,
-1761704677599652,1C0003FA,true,Rx,0,8,02,FD,20,00,00,00,00,00,
-1761704677599524,1C0003FA,true,Rx,0,8,00,B4,14,04,01,28,80,27,
-1761704677599354,1C0003FA,true,Rx,0,8,00,00,00,4D,6F,74,6F,72,
-1761704677599226,1C0003FA,true,Rx,0,8,43,6F,6E,74,72,6F,6C,5F,
-1761704677599140,1C0003FA,true,Rx,0,4,46,00,D1,03,00,00,00,00,
-1761704677598970,1C0003FA,true,Rx,0,8,02,FD,20,00,00,00,00,00,
-1761704677598884,04072001,true,Rx,0,4,00,00,00,00,00,00,00,00,
-1761704677598714,1C0003FA,true,Rx,0,8,00,B4,14,06,01,28,80,2B,
-1761704677598586,1C0003FA,true,Rx,0,8,00,00,00,4C,6F,6F,70,52,
-1761704677598458,1C0003FA,true,Rx,0,8,65,63,65,69,76,65,72,5F,
-1761704677598330,1C0003FA,true,Rx,0,4,46,00,7C,03,00,00,00,00,
-1761704677598202,1C0003FA,true,Rx,0,8,02,FD,20,00,00,00,00,00,
-1761704677598031,1C0003FA,true,Rx,0,8,00,B4,14,07,01,28,80,2B,
-1761704677597903,1C0003FA,true,Rx,0,8,00,00,00,4C,6F,6F,70,52,
-1761704677597775,1C000342,true,Rx,0,8,02,FD,0D,00,00,00,00,00,
-1761704677597647,1C0003FA,true,Rx,0,8,65,63,65,69,76,65,72,5F,
-1761704677597476,1C000342,true,Rx,0,8,00,63,15,04,01,28,80,30,
-1761704677597391,1C0003FA,true,Rx,0,4,52,00,39,03,00,00,00,00,
-1761704677597306,1C000342,true,Rx,0,1,03,00,00,00,00,00,00,00,
-1761704677597178,1C0003FA,true,Rx,0,8,02,FD,25,00,00,00,00,00,
-1761704677597007,1C000342,true,Rx,0,8,02,FD,0D,00,00,00,00,00,
-1761704677596879,1C0003FA,true,Rx,0,8,00,7D,14,08,01,28,80,29,
-1761704677596751,1C000342,true,Rx,0,8,00,63,1C,04,01,28,80,C3,
-1761704677596580,1C0003FA,true,Rx,0,8,00,00,00,4D,61,67,6E,65,
-1761704677596538,1C000342,true,Rx,0,1,03,00,00,00,00,00,00,00,
-1761704677596367,1C0003FA,true,Rx,0,8,74,69,63,33,44,53,65,6E,
-1761704677596239,1C0003FA,true,Rx,0,8,73,6F,72,5F,46,4C,00,E9,
-1761704677596154,1C0003FA,true,Rx,0,1,03,00,00,00,00,00,00,00,
-1761704677595983,1C0003FA,true,Rx,0,8,02,FD,25,00,00,00,00,00,
-1761704677595855,1C0003FA,true,Rx,0,8,00,7D,14,09,01,28,80,29,
-1761704677595727,1C0003FA,true,Rx,0,8,00,00,00,4D,61,67,6E,65,
-1761704677595599,1C0003FA,true,Rx,0,8,74,69,63,33,44,53,65,6E,
-1761704677595471,1C0003FA,true,Rx,0,8,73,6F,72,5F,46,52,00,ED,
-1761704677595386,1C0003FA,true,Rx,0,1,03,00,00,00,00,00,00,00,
-1761704677595258,1C0003FA,true,Rx,0,8,02,FD,25,00,00,00,00,00,
-1761704677595087,1C0003FA,true,Rx,0,8,00,7D,14,0A,01,28,80,29,
-1761704677594959,1C0003FA,true,Rx,0,8,00,00,00,4D,61,67,6E,65,
-1761704677594831,1C0003FA,true,Rx,0,8,74,69,63,33,44,53,65,6E,
-1761704677594661,1C0003FA,true,Rx,0,8,73,6F,72,5F,52,4C,00,55,
-1761704677594618,1C0003FA,true,Rx,0,1,03,00,00,00,00,00,00,00,
-1761704677594447,1C0003FA,true,Rx,0,8,02,FD,25,00,00,00,00,00,
-1761704677594277,1C0003FA,true,Rx,0,8,00,7D,14,0B,01,28,80,29,
-1761704677594191,1C0003FA,true,Rx,0,8,00,00,00,4D,61,67,6E,65,
-1761704677594021,1C0003FA,true,Rx,0,8,74,69,63,33,44,53,65,6E,
-1761704677593893,1C0003FA,true,Rx,0,8,73,6F,72,5F,52,52,00,51,
-1761704677593807,1C0003FA,true,Rx,0,1,03,00,00,00,00,00,00,00,
-1761704677593679,1C0003FA,true,Rx,0,8,02,FD,20,00,00,00,00,00,
-1761704677593551,1C0003FA,true,Rx,0,8,00,B4,14,0C,01,28,80,27,
-1761704677593381,1C0003FA,true,Rx,0,8,00,00,00,4D,6F,74,6F,72,
-1761704677593253,1C0003FA,true,Rx,0,8,43,6F,6E,74,72,6F,6C,5F,
-1761704677593167,1C0003FA,true,Rx,0,4,52,00,F2,03,00,00,00,00,
-1761704677592997,1C0003FA,true,Rx,0,8,02,FD,24,00,00,00,00,00,
-1761704677592869,1C0003FA,true,Rx,0,8,00,40,14,0D,01,28,80,29,
-1761704677592741,1C0003FA,true,Rx,0,8,00,00,00,4D,61,67,6E,65,
-1761704677592570,1C0003FA,true,Rx,0,8,74,69,63,33,44,53,65,6E,
-1761704677592442,1C0003FA,true,Rx,0,8,73,6F,72,5F,57,00,78,03,
-1761704677592314,1C0003FA,true,Rx,0,8,02,FD,1C,00,00,00,00,00,
-1761704677592143,1C0003FA,true,Rx,0,8,00,A5,14,0E,01,28,80,00,
-1761704677592015,1C0003FA,true,Rx,0,8,00,00,00,55,6C,74,72,61,
-1761704677591887,1C0003FA,true,Rx,0,8,73,6F,6E,69,63,00,5C,03,
-1761704677591717,1C00005A,true,Rx,0,8,02,FD,0A,00,04,01,28,80,
-1761704677591631,1C00005A,true,Rx,0,6,00,DE,08,01,28,03,00,00,
-1761704677591461,1C00005A,true,Rx,0,8,02,FD,0D,00,00,00,00,00,
-1761704677591333,1C00005A,true,Rx,0,8,00,63,1C,04,01,28,80,C3,
-1761704677591162,1C000341,true,Rx,0,8,02,FD,0D,00,00,00,00,00,
-1761704677591077,1C00005A,true,Rx,0,1,03,00,00,00,00,00,00,00,
-1761704677590949,1C000341,true,Rx,0,8,00,63,15,0C,01,28,80,2C,
-1761704677590821,1C00005A,true,Rx,0,8,02,FD,11,00,00,00,00,00,
-1761704677590735,1C000341,true,Rx,0,1,03,00,00,00,00,00,00,00,
-1761704677590607,1C00005A,true,Rx,0,8,00,9D,1D,04,01,28,80,A4,
-1761704677590437,1C000341,true,Rx,0,8,02,FD,0D,00,00,00,00,00,
-1761704677590309,1C00005A,true,Rx,0,5,04,00,00,2C,03,00,00,00,
-1761704677590181,1C000341,true,Rx,0,8,00,63,1C,0C,01,28,80,DF,
-1761704677590095,1C000341,true,Rx,0,1,03,00,00,00,00,00,00,00,
-1761704677588986,1C00003A,true,Rx,0,8,02,FD,0A,00,0C,01,28,80,
-1761704677588858,1C00003A,true,Rx,0,6,00,E0,08,01,28,03,00,00,
-1761704677588730,1C000342,true,Rx,0,8,02,FD,0B,00,04,01,28,80,
-1761704677588559,1C00003A,true,Rx,0,8,02,FD,0D,00,00,00,00,00,
-1761704677588431,1C000342,true,Rx,0,7,00,E3,09,01,01,14,03,00,
-1761704677588303,1C00003A,true,Rx,0,8,00,63,1C,0C,01,28,80,DF,
-1761704677588218,1C00003A,true,Rx,0,1,03,00,00,00,00,00,00,00,
-1761704677588090,1C000354,true,Rx,0,8,02,FD,0D,00,00,00,00,00,
-1761704677587919,1C000354,true,Rx,0,8,00,63,15,08,01,28,80,22,
-1761704677587791,1C000342,true,Rx,0,8,02,FD,11,00,00,00,00,00,
-1761704677587706,1C000354,true,Rx,0,1,03,00,00,00,00,00,00,00,
-1761704677587578,1C000342,true,Rx,0,8,00,9D,1D,04,01,28,80,F4,
-1761704677587407,1C000354,true,Rx,0,8,02,FD,0D,00,00,00,00,00,
-1761704677587322,1C000342,true,Rx,0,5,00,00,00,6A,03,00,00,00,
-1761704677587151,1C00003A,true,Rx,0,8,02,FD,11,00,00,00,00,00,
-1761704677587023,1C000354,true,Rx,0,8,00,63,1C,08,01,28,80,D1,
-1761704677586895,1C00003A,true,Rx,0,8,00,9D,1D,0C,01,28,80,A4,
-1761704677586810,1C000354,true,Rx,0,1,03,00,00,00,00,00,00,00,
-1761704677586682,1C00003A,true,Rx,0,5,04,00,00,06,03,00,00,00,
-1761704677585957,1C000341,true,Rx,0,8,02,FD,0B,00,0C,01,28,80,
-1761704677585829,1C000341,true,Rx,0,7,00,DD,09,01,01,14,03,00,
-1761704677585701,1C00005A,true,Rx,0,8,02,FD,10,00,04,01,28,80,
-1761704677585530,1C00034B,true,Rx,0,8,02,FD,0D,00,00,00,00,00,
-1761704677585402,1C00005A,true,Rx,0,8,01,F0,00,8A,60,00,11,00,
-1761704677585274,1C00034B,true,Rx,0,8,00,63,15,09,01,28,80,AD,
-1761704677585146,1C00005A,true,Rx,0,4,00,00,68,03,00,00,00,00,
-1761704677585061,1C00034B,true,Rx,0,1,03,00,00,00,00,00,00,00,
-1761704677584933,1C000341,true,Rx,0,8,02,FD,11,00,00,00,00,00,
-1761704677584805,1C00034B,true,Rx,0,8,02,FD,0D,00,00,00,00,00,
-1761704677584634,1C000341,true,Rx,0,8,00,9D,1D,0C,01,28,80,F4,
-1761704677584506,1C00034B,true,Rx,0,8,00,63,1C,09,01,28,80,5E,
-1761704677584378,1C000341,true,Rx,0,5,00,00,00,40,03,00,00,00,
-1761704677584336,1C00034B,true,Rx,0,1,03,00,00,00,00,00,00,00,
-1761704677583738,1C00029A,true,Rx,0,8,02,FD,0A,00,08,01,28,80,
-1761704677583610,1C000342,true,Rx,0,8,02,FD,12,00,04,01,28,80,
-1761704677583482,1C00029A,true,Rx,0,6,00,FF,08,01,28,03,00,00,
-1761704677583312,1C000342,true,Rx,0,8,01,8A,01,8A,60,00,11,00,
-1761704677583184,1C00029A,true,Rx,0,8,02,FD,0D,00,00,00,00,00,
-1761704677583098,1C000342,true,Rx,0,6,00,01,00,11,8A,03,00,00,
-1761704677582928,1C00029A,true,Rx,0,8,00,63,1C,08,01,28,80,D1,
-1761704677582842,1C00029A,true,Rx,0,1,03,00,00,00,00,00,00,00,
-1761704677581264,1C00003A,true,Rx,0,8,02,FD,10,00,0C,01,28,80,
-1761704677581136,1C00003A,true,Rx,0,8,01,CE,00,93,60,00,11,00,
-1761704677581008,1C00003A,true,Rx,0,4,00,00,5F,03,00,00,00,00,
-1761704677580026,1C000341,true,Rx,0,8,02,FD,12,00,0C,01,28,80,
-1761704677579898,1C000341,true,Rx,0,8,01,B4,01,93,60,00,11,00,
-1761704677579770,1C000341,true,Rx,0,6,00,01,00,12,2B,03,00,00,
-1761704677579600,1C00029A,true,Rx,0,8,02,FD,11,00,00,00,00,00,
-1761704677579472,1C00029A,true,Rx,0,8,00,9D,1D,08,01,28,80,A4,
-1761704677579344,1C00029A,true,Rx,0,5,04,00,00,13,03,00,00,00,
-1761704677578192,1C00017A,true,Rx,0,8,02,FD,0A,00,09,01,28,80,
-1761704677578064,1C000354,true,Rx,0,8,02,FD,0B,00,08,01,28,80,
-1761704677577936,1C00017A,true,Rx,0,6,00,32,08,01,28,03,00,00,
-1761704677577808,1C000354,true,Rx,0,7,00,C2,09,01,01,14,03,00,
-1761704677577680,1C00017A,true,Rx,0,8,02,FD,0D,00,00,00,00,00,
-1761704677577509,1C00017A,true,Rx,0,8,00,63,1C,09,01,28,80,5E,
-1761704677577424,1C00017A,true,Rx,0,1,03,00,00,00,00,00,00,00,
-1761704677576912,1C00005A,true,Rx,0,8,02,FD,11,00,04,01,28,80,
-1761704677576784,1C00005A,true,Rx,0,8,01,CD,00,99,C6,14,01,00,
-1761704677576656,1C00005A,true,Rx,0,5,01,00,00,90,03,00,00,00,
-1761704677575931,1C000354,true,Rx,0,8,02,FD,11,00,00,00,00,00,
-1761704677575760,1C000354,true,Rx,0,8,00,9D,1D,08,01,28,80,F4,
-1761704677575632,1C000342,true,Rx,0,8,02,FD,11,00,00,00,00,00,
-1761704677575504,1C000354,true,Rx,0,5,00,00,00,55,03,00,00,00,
-1761704677575376,1C000342,true,Rx,0,8,00,9D,18,04,01,28,80,C6,
-1761704677575248,1C000342,true,Rx,0,5,14,11,01,81,03,00,00,00,
-1761704677575035,1C000342,true,Rx,0,8,02,FD,11,00,04,01,28,80,
-1761704677574907,1C000342,true,Rx,0,8,01,CD,01,99,C6,14,01,00,
-1761704677574779,1C000342,true,Rx,0,5,00,00,00,9F,03,00,00,00,
-1761704677574437,1C00017A,true,Rx,0,8,02,FD,11,00,00,00,00,00,
-1761704677574309,1C00017A,true,Rx,0,8,00,9D,1D,09,01,28,80,A4,
-1761704677574181,1C00034B,true,Rx,0,8,02,FD,0B,00,09,01,28,80,
-1761704677574053,1C00017A,true,Rx,0,5,04,00,00,50,03,00,00,00,
-1761704677573925,1C00034B,true,Rx,0,7,00,0F,09,01,01,14,03,00,
-1761704677572944,1C00005A,true,Rx,0,8,02,FD,12,00,00,00,00,00,
-1761704677572773,1C00005A,true,Rx,0,8,00,DA,19,04,01,28,80,C6,
-1761704677572688,1C00005A,true,Rx,0,6,14,11,01,01,42,03,00,00,
-1761704677572219,1C00003A,true,Rx,0,8,02,FD,11,00,0C,01,28,80,
-1761704677572091,1C00003A,true,Rx,0,8,01,F3,00,9A,B2,12,05,00,
-1761704677571963,1C00003A,true,Rx,0,5,01,00,00,DF,03,00,00,00,
-1761704677571792,1C00034B,true,Rx,0,8,02,FD,11,00,00,00,00,00,
-1761704677571664,1C00034B,true,Rx,0,8,00,9D,1D,09,01,28,80,F4,
-1761704677571536,1C00034B,true,Rx,0,5,00,00,00,16,03,00,00,00,
-1761704677571237,1C00029A,true,Rx,0,8,02,FD,10,00,08,01,28,80,
-1761704677571109,1C00029A,true,Rx,0,8,01,D1,00,9B,60,00,11,00,
-1761704677570981,1C00029A,true,Rx,0,4,00,00,AE,03,00,00,00,00,
-1761704677570853,1C000341,true,Rx,0,8,02,FD,11,00,00,00,00,00,
-1761704677570725,1C000341,true,Rx,0,8,00,9D,18,0C,01,28,80,B2,
-1761704677570597,1C000341,true,Rx,0,5,12,12,01,89,03,00,00,00,
-1761704677570427,1C000341,true,Rx,0,8,02,FD,11,00,0C,01,28,80,
-1761704677570299,1C000341,true,Rx,0,8,01,F3,01,9A,B2,12,05,00,
-1761704677570171,1C000341,true,Rx,0,5,00,00,00,D0,03,00,00,00,
-1761704677568763,1C00005A,true,Rx,0,8,02,FD,10,00,04,01,28,80,
-1761704677568635,1C00005A,true,Rx,0,8,01,F0,00,9D,C6,14,00,00,
-1761704677568507,1C00005A,true,Rx,0,4,00,00,1A,03,00,00,00,00,
-1761704677567611,1C00003A,true,Rx,0,8,02,FD,12,00,00,00,00,00,
-1761704677567440,1C00003A,true,Rx,0,8,00,DA,19,0C,01,28,80,B2,
-1761704677567312,1C00003A,true,Rx,0,6,12,12,01,01,80,03,00,00,
-1761704677567184,1C000342,true,Rx,0,8,02,FD,12,00,04,01,28,80,
-1761704677567056,1C000342,true,Rx,0,8,01,8A,01,9D,C6,14,00,00,
-1761704677566928,1C000342,true,Rx,0,6,00,01,00,00,6E,03,00,00,
-1761704677566672,04056412,true,Rx,0,8,FB,FF,F6,01,FD,F8,B6,03,
-1761704677566246,1C000354,true,Rx,0,8,02,FD,12,00,08,01,28,80,
-1761704677566075,1C000354,true,Rx,0,8,01,AB,01,9B,60,00,11,00,
-1761704677565947,1C000354,true,Rx,0,6,00,01,00,0B,77,03,00,00,
-1761704677565478,1C00017A,true,Rx,0,8,02,FD,10,00,09,01,28,80,
-1761704677565307,1C00017A,true,Rx,0,8,01,1C,00,9E,60,00,11,00,
-1761704677565222,1C00017A,true,Rx,0,4,00,00,67,03,00,00,00,00,
-1761704677564112,1C00003A,true,Rx,0,8,02,FD,11,00,0C,01,28,80,
-1761704677563984,1C00003A,true,Rx,0,8,01,F3,00,A0,B2,12,0E,00,
-1761704677563856,1C00003A,true,Rx,0,5,01,00,00,FF,03,00,00,00,
-1761704677562918,1C000341,true,Rx,0,8,02,FD,12,00,0C,01,28,80,
-1761704677562747,1C000341,true,Rx,0,8,01,B4,01,A0,B2,12,0E,00,
-1761704677562619,1C000341,true,Rx,0,6,00,01,00,01,81,03,00,00,
-1761704677562278,1C00034B,true,Rx,0,8,02,FD,12,00,09,01,28,80,
-1761704677562150,1C00034B,true,Rx,0,8,01,66,01,9E,60,00,11,00,
-1761704677562022,1C00034B,true,Rx,0,6,00,01,00,0C,F2,03,00,00,
-1761704677561552,1C00005A,true,Rx,0,8,02,FD,10,00,04,01,28,80,
-1761704677561382,1C00005A,true,Rx,0,8,01,F0,00,A6,60,00,11,00,
-1761704677561296,1C00005A,true,Rx,0,4,00,00,82,03,00,00,00,00,
-1761704677560742,1C00003A,true,Rx,0,8,02,FD,11,00,0C,01,28,80,
-1761704677560571,1C00003A,true,Rx,0,8,01,F3,00,AE,B2,12,04,00,
-1761704677560486,1C00003A,true,Rx,0,5,01,00,00,FB,03,00,00,00,
-1761704677560273,1C000342,true,Rx,0,8,02,FD,12,00,04,01,28,80,
-1761704677560145,1C000342,true,Rx,0,8,01,8A,01,A6,60,00,11,00,
-1761704677559974,1C00029A,true,Rx,0,8,02,FD,10,00,08,01,28,80,
-1761704677559889,1C000342,true,Rx,0,6,00,01,00,11,18,03,00,00,
-1761704677559718,1C00029A,true,Rx,0,8,01,D1,00,AF,90,12,04,00,
-1761704677559633,1C00029A,true,Rx,0,4,00,00,7A,03,00,00,00,00,
-1761704677559462,1C000341,true,Rx,0,8,02,FD,19,00,0C,01,28,80,
-1761704677559291,1C000341,true,Rx,0,8,01,02,01,AE,B2,12,04,00,
-1761704677559163,1C000341,true,Rx,0,8,00,08,00,FB,FF,F6,01,FD,
-1761704677559035,1C000341,true,Rx,0,5,F8,B6,03,D9,03,00,00,00,
-1761704677558779,1C00017A,true,Rx,0,8,02,FD,10,00,09,01,28,80,
-1761704677558651,1C00017A,true,Rx,0,8,01,1C,00,B0,90,12,04,00,
-1761704677558523,1C00017A,true,Rx,0,4,00,00,C3,03,00,00,00,00,
-1761704677557969,1C00005A,true,Rx,0,8,02,FD,11,00,04,01,28,80,
-1761704677557841,1C00005A,true,Rx,0,8,01,CD,00,B1,B2,12,05,00,
-1761704677557713,1C00005A,true,Rx,0,5,01,00,00,98,03,00,00,00,
-1761704677557499,1C000354,true,Rx,0,8,02,FD,11,00,00,00,00,00,
-1761704677557371,1C000354,true,Rx,0,8,00,9D,18,08,01,28,80,90,
-1761704677557243,1C00003A,true,Rx,0,8,02,FD,11,00,0C,01,28,80,
-1761704677557115,1C000354,true,Rx,0,5,12,0B,01,B5,03,00,00,00,
-1761704677556945,1C00003A,true,Rx,0,8,01,F3,00,B2,B2,12,09,00,
-1761704677556817,1C000354,true,Rx,0,8,02,FD,11,00,08,01,28,80,
-1761704677556731,1C00003A,true,Rx,0,5,01,00,00,7C,03,00,00,00,
-1761704677556561,1C000342,true,Rx,0,8,02,FD,11,00,00,00,00,00,
-1761704677556433,1C000354,true,Rx,0,8,01,EC,01,AF,90,12,04,00,
-1761704677556305,1C000342,true,Rx,0,8,00,9D,18,04,01,28,80,B2,
-1761704677556134,1C00034B,true,Rx,0,8,02,FD,11,00,00,00,00,00,
-1761704677556006,1C000342,true,Rx,0,5,12,11,01,F6,03,00,00,00,
-1761704677555878,1C00034B,true,Rx,0,8,00,9D,18,09,01,28,80,90,
-1761704677555750,1C000342,true,Rx,0,8,02,FD,11,00,04,01,28,80,
-1761704677555622,1C000341,true,Rx,0,8,02,FD,12,00,0C,01,28,80,
-1761704677555494,1C000342,true,Rx,0,8,01,CD,01,B1,B2,12,05,00,
-1761704677555323,1C000341,true,Rx,0,8,01,B4,01,B2,B2,12,09,00,
-1761704677555238,1C000342,true,Rx,0,5,00,00,00,97,03,00,00,00,
-1761704677555067,1C00029A,true,Rx,0,8,02,FD,12,00,00,00,00,00,
-1761704677554939,1C000341,true,Rx,0,6,00,01,00,00,B1,03,00,00,
-1761704677554811,1C00029A,true,Rx,0,8,00,DA,19,08,01,28,80,90,
-1761704677554683,1C00034B,true,Rx,0,5,12,0C,01,98,03,00,00,00,
-1761704677554555,1C00029A,true,Rx,0,6,12,0B,01,01,9D,03,00,00,
-1761704677554427,1C00034B,true,Rx,0,8,02,FD,11,00,09,01,28,80,
-1761704677554299,1C000354,true,Rx,0,5,00,00,00,22,03,00,00,00,
-1761704677554171,1C00034B,true,Rx,0,8,01,21,01,B0,90,12,04,00,
-1761704677554043,1C00034B,true,Rx,0,5,00,00,00,8C,03,00,00,00,
-1761704677553446,1C00005A,true,Rx,0,8,02,FD,12,00,00,00,00,00,
-1761704677553275,1C00005A,true,Rx,0,8,00,DA,19,04,01,28,80,B2,
-1761704677553190,1C00005A,true,Rx,0,6,12,11,01,01,39,03,00,00,
-1761704677552081,1C00005A,true,Rx,0,8,02,FD,11,00,04,01,28,80,
-1761704677551953,1C00005A,true,Rx,0,8,01,CD,00,B3,B2,12,0E,00,
-1761704677551825,1C00005A,true,Rx,0,5,01,00,00,6E,03,00,00,00,
-1761704677551270,1C00003A,true,Rx,0,8,02,FD,11,00,0C,01,28,80,
-1761704677551142,1C00003A,true,Rx,0,8,01,F3,00,BB,B2,12,0A,00,
-1761704677551014,1C00003A,true,Rx,0,5,01,00,00,5B,03,00,00,00,
-1761704677550844,1C000342,true,Rx,0,8,02,FD,12,00,04,01,28,80,
-1761704677550716,1C000342,true,Rx,0,8,01,8A,01,B3,B2,12,0E,00,
-1761704677550545,1C00029A,true,Rx,0,8,02,FD,11,00,08,01,28,80,
-1761704677550460,1C000342,true,Rx,0,6,00,01,00,01,CE,03,00,00,
-1761704677550289,1C00029A,true,Rx,0,8,01,EC,00,BC,90,12,06,00,
-1761704677550204,1C00029A,true,Rx,0,5,01,00,00,3F,03,00,00,00,
-1761704677550033,1C000341,true,Rx,0,8,02,FD,12,00,0C,01,28,80,
-1761704677549905,1C000341,true,Rx,0,8,01,B4,01,BB,B2,12,0A,00,
-1761704677549777,1C000341,true,Rx,0,6,00,01,00,00,11,03,00,00,
-1761704677549436,1C00017A,true,Rx,0,8,02,FD,12,00,00,00,00,00,
-1761704677549265,1C00017A,true,Rx,0,8,00,DA,19,09,01,28,80,90,
-1761704677549180,1C00017A,true,Rx,0,6,12,0C,01,01,43,03,00,00,
-1761704677548284,1C00017A,true,Rx,0,8,02,FD,11,00,09,01,28,80,
-1761704677548113,1C00017A,true,Rx,0,8,01,21,00,BD,90,12,06,00,
-1761704677548028,1C00017A,true,Rx,0,5,01,00,00,7C,03,00,00,00,
-1761704677547814,04072001,true,Rx,0,4,00,00,00,00,00,00,00,00,
-1761704677547217,1C000354,true,Rx,0,8,02,FD,12,00,08,01,28,80,
-1761704677547089,1C000354,true,Rx,0,8,01,AB,01,BC,90,12,06,00,
-1761704677546961,1C000354,true,Rx,0,6,00,01,00,01,4B,03,00,00,
-1761704677546790,1C00005A,true,Rx,0,8,02,FD,11,00,04,01,28,80,
-1761704677546662,04056412,true,Rx,0,8,FB,FF,F1,01,FD,F8,CA,03,
-1761704677546492,1C00005A,true,Rx,0,8,01,CD,00,BE,B2,12,04,00,
-1761704677546364,04056411,true,Rx,0,8,08,00,85,FD,F3,FF,CB,03,
-1761704677546236,1C00005A,true,Rx,0,5,01,00,00,AF,03,00,00,00,
-1761704677546108,1C00003A,true,Rx,0,8,02,FD,11,00,0C,01,28,80,
-1761704677545980,1C00003A,true,Rx,0,8,01,F3,00,BF,B2,12,0B,00,
-1761704677545852,1C00003A,true,Rx,0,5,01,00,00,83,03,00,00,00,
-1761704677545169,1C000342,true,Rx,0,8,02,FD,19,00,04,01,28,80,
-1761704677544998,1C000342,true,Rx,0,8,01,3C,01,BE,B2,12,04,00,
-1761704677544870,1C00029A,true,Rx,0,8,02,FD,11,00,08,01,28,80,
-1761704677544742,1C000341,true,Rx,0,8,02,FD,12,00,0C,01,28,80,
-1761704677544572,1C00029A,true,Rx,0,8,01,EC,00,C0,90,12,00,00,
-1761704677544444,1C000341,true,Rx,0,8,01,B4,01,BF,B2,12,0B,00,
-1761704677544316,1C00029A,true,Rx,0,5,01,00,00,29,03,00,00,00,
-1761704677544188,1C000341,true,Rx,0,6,00,01,00,00,84,03,00,00,
-1761704677544060,1C000342,true,Rx,0,8,00,08,00,08,00,85,FD,F3,
-1761704677543932,1C000342,true,Rx,0,5,FF,CB,03,23,03,00,00,00,
-1761704677542737,1C00034B,true,Rx,0,8,02,FD,12,00,09,01,28,80,
-1761704677542609,1C00034B,true,Rx,0,8,01,66,01,BD,90,12,06,00,
-1761704677542481,1C00034B,true,Rx,0,6,00,01,00,01,EF,03,00,00,
-1761704677542311,1C00005A,true,Rx,0,8,02,FD,11,00,04,01,28,80,
-1761704677542183,1C000354,true,Rx,0,8,02,FD,12,00,08,01,28,80,
-1761704677542012,1C00005A,true,Rx,0,8,01,CD,00,C2,B2,12,09,00,
-1761704677541884,1C000354,true,Rx,0,8,01,AB,01,C0,90,12,00,00,
-1761704677541799,1C00005A,true,Rx,0,5,01,00,00,C9,03,00,00,00,
-1761704677541671,1C000354,true,Rx,0,6,00,01,00,01,0B,03,00,00,
-1761704677541500,1C00003A,true,Rx,0,8,02,FD,11,00,0C,01,28,80,
-1761704677541372,1C00003A,true,Rx,0,8,01,F3,00,C3,B2,12,11,00,
-1761704677541244,1C00003A,true,Rx,0,5,01,00,00,C8,03,00,00,00,
-1761704677540732,1C000342,true,Rx,0,8,02,FD,12,00,04,01,28,80,
-1761704677540604,1C000342,true,Rx,0,8,01,8A,01,C2,B2,12,09,00,
-1761704677540476,1C00029A,true,Rx,0,8,02,FD,11,00,08,01,28,80,
-1761704677540348,1C000342,true,Rx,0,6,00,01,00,00,BC,03,00,00,
-1761704677540220,1C00029A,true,Rx,0,8,01,EC,00,C4,90,12,01,00,
-1761704677540049,1C000341,true,Rx,0,8,02,FD,12,00,0C,01,28,80,
-1761704677539921,1C00029A,true,Rx,0,5,01,00,00,F1,03,00,00,00,
-1761704677539793,1C000341,true,Rx,0,8,01,B4,01,C3,B2,12,11,00,
-1761704677539665,1C000341,true,Rx,0,6,00,01,00,00,E2,03,00,00,
-1761704677539495,1C00017A,true,Rx,0,8,02,FD,11,00,09,01,28,80,
-1761704677539409,04030C82,true,Rx,0,4,00,01,00,00,00,00,00,00,
-1761704677539281,04030CE2,true,Rx,0,8,8D,00,00,00,C2,64,1E,67,
-1761704677539153,1C00017A,true,Rx,0,8,01,21,00,C5,90,12,00,00,
-1761704677539025,1C00017A,true,Rx,0,5,01,00,00,7F,03,00,00,00,
-1761704677538428,1C00005A,true,Rx,0,8,02,FD,11,00,04,01,28,80,
-1761704677538300,1C00005A,true,Rx,0,8,01,CD,00,C7,B2,12,0A,00,
-1761704677538172,1C00005A,true,Rx,0,5,01,00,00,D1,03,00,00,00,
-1761704677537703,1C00003A,true,Rx,0,8,02,FD,10,00,0C,01,28,80,
-1761704677537575,1C00003A,true,Rx,0,8,01,CE,00,C8,60,00,11,00,
-1761704677537447,1C00003A,true,Rx,0,4,00,00,D5,03,00,00,00,00,
-1761704677537191,1C00034B,true,Rx,0,8,02,FD,12,00,09,01,28,80,
-1761704677537063,1C000342,true,Rx,0,8,02,FD,12,00,04,01,28,80,
-1761704677536935,1C00034B,true,Rx,0,8,01,66,01,C5,90,12,00,00,
-1761704677536764,1C000342,true,Rx,0,8,01,8A,01,C7,B2,12,0A,00,
-1761704677536636,1C00034B,true,Rx,0,6,00,01,00,01,0D,03,00,00,
-1761704677536508,1C000342,true,Rx,0,6,00,01,00,00,E3,03,00,00,
-1761704677536380,1C000341,true,Rx,0,8,02,FD,12,00,0C,01,28,80,
-1761704677536252,1C000341,true,Rx,0,8,01,B4,01,C8,60,00,11,00,
-1761704677536124,1C000341,true,Rx,0,6,00,01,00,12,E3,03,00,00,
-1761704677535911,1C000354,true,Rx,0,8,02,FD,12,00,08,01,28,80,
-1761704677535740,1C000354,true,Rx,0,8,01,AB,01,C4,90,12,01,00,
-1761704677535612,1C000354,true,Rx,0,6,00,01,00,01,9E,03,00,00,
-1761704677534631,1C00005A,true,Rx,0,8,02,FD,11,00,04,01,28,80,
-1761704677534503,1C00005A,true,Rx,0,8,01,CD,00,D1,B2,12,0B,00,
-1761704677534375,1C00005A,true,Rx,0,5,01,00,00,DB,03,00,00,00,
-1761704677534034,1C00003A,true,Rx,0,8,02,FD,11,00,0C,01,28,80,
-1761704677533863,1C00003A,true,Rx,0,8,01,F3,00,D2,F2,10,07,00,
-1761704677533735,1C00003A,true,Rx,0,5,01,00,00,96,03,00,00,00,
-1761704677533436,1C000342,true,Rx,0,8,02,FD,12,00,04,01,28,80,
-1761704677533308,1C000342,true,Rx,0,8,01,8A,01,D1,B2,12,0B,00,
-1761704677533138,1C00017A,true,Rx,0,8,02,FD,11,00,09,01,28,80,
-1761704677533010,1C000342,true,Rx,0,6,00,01,00,00,9D,03,00,00,
-1761704677532882,1C00017A,true,Rx,0,8,01,21,00,D3,90,12,01,00,
-1761704677532754,1C00017A,true,Rx,0,5,01,00,00,75,03,00,00,00,
-1761704677532626,1C000341,true,Rx,0,8,02,FD,11,00,00,00,00,00,
-1761704677532455,1C000341,true,Rx,0,8,00,9D,18,0C,01,28,80,F2,
-1761704677532370,1C000341,true,Rx,0,5,10,12,01,26,03,00,00,00,
-1761704677532199,1C000341,true,Rx,0,8,02,FD,11,00,0C,01,28,80,
-1761704677532028,1C00029A,true,Rx,0,8,02,FD,11,00,08,01,28,80,
-1761704677531943,1C000341,true,Rx,0,8,01,F3,01,D2,F2,10,07,00,
-1761704677531772,1C00029A,true,Rx,0,8,01,EC,00,D4,90,12,02,00,
-1761704677531644,1C000341,true,Rx,0,5,00,00,00,99,03,00,00,00,
-1761704677531559,1C00029A,true,Rx,0,5,01,00,00,EB,03,00,00,00,
-1761704677530962,1C00005A,true,Rx,0,8,02,FD,11,00,04,01,28,80,
-1761704677530834,1C00005A,true,Rx,0,8,01,CD,00,D5,B2,12,11,00,
-1761704677530706,1C00034B,true,Rx,0,8,02,FD,12,00,09,01,28,80,
-1761704677530578,1C00005A,true,Rx,0,5,01,00,00,0F,03,00,00,00,
-1761704677530450,1C00034B,true,Rx,0,8,01,66,01,D3,90,12,01,00,
-1761704677530279,1C00034B,true,Rx,0,6,00,01,00,01,73,03,00,00,
-1761704677529767,1C000342,true,Rx,0,8,02,FD,12,00,04,01,28,80,
-1761704677529596,1C00003A,true,Rx,0,8,02,FD,12,00,00,00,00,00,
-1761704677529468,1C000342,true,Rx,0,8,01,8A,01,D5,B2,12,11,00,
-1761704677529340,1C00003A,true,Rx,0,8,00,DA,19,0C,01,28,80,F2,
-1761704677529212,1C000342,true,Rx,0,6,00,01,00,00,AB,03,00,00,
-1761704677529084,1C00003A,true,Rx,0,6,10,12,01,01,6E,03,00,00,
-1761704677528914,1C000354,true,Rx,0,8,02,FD,12,00,08,01,28,80,
-1761704677528786,1C000354,true,Rx,0,8,01,AB,01,D4,90,12,02,00,
-1761704677528615,1C00003A,true,Rx,0,8,02,FD,11,00,0C,01,28,80,
-1761704677528487,1C000354,true,Rx,0,6,00,01,00,00,23,03,00,00,
-1761704677528402,1C00003A,true,Rx,0,8,01,F3,00,D6,F2,10,0C,00,
-1761704677528274,1C00003A,true,Rx,0,5,01,00,00,F3,03,00,00,00,
-1761704677527975,1C00017A,true,Rx,0,8,02,FD,11,00,09,01,28,80,
-1761704677527847,1C00017A,true,Rx,0,8,01,21,00,DB,90,12,02,00,
-1761704677527719,1C00017A,true,Rx,0,5,01,00,00,11,03,00,00,00,
-1761704677526695,1C00029A,true,Rx,0,8,02,FD,11,00,08,01,28,80,
-1761704677526525,1C00029A,true,Rx,0,8,01,EC,00,DC,90,12,07,00,
-1761704677526439,1C00029A,true,Rx,0,5,01,00,00,13,03,00,00,00,
-1761704677526055,1C00034B,true,Rx,0,8,02,FD,12,00,09,01,28,80,
-1761704677525927,04056411,true,Rx,0,8,08,00,88,FD,F3,FF,DF,03,
-1761704677525757,1C00034B,true,Rx,0,8,01,66,01,DB,90,12,02,00,
-1761704677525629,04056412,true,Rx,0,8,FB,FF,ED,01,FD,F8,DF,03,
-1761704677525501,1C00034B,true,Rx,0,6,00,01,00,00,29,03,00,00,
-1761704677524818,1C000341,true,Rx,0,8,02,FD,14,00,0C,01,28,80,
-1761704677524690,1C000341,true,Rx,0,8,01,3A,01,D6,F2,10,0C,00,
-1761704677524519,1C000341,true,Rx,0,8,00,03,00,00,73,02,27,03,
-1761704677524349,1C00017A,true,Rx,0,8,02,FD,11,00,09,01,28,80,
-1761704677524263,1C000354,true,Rx,0,8,02,FD,15,00,08,01,28,80,
-1761704677524093,1C00017A,true,Rx,0,8,01,21,00,DD,90,12,07,00,
-1761704677523965,1C000354,true,Rx,0,8,01,18,01,DC,90,12,07,00,
-1761704677523837,1C00017A,true,Rx,0,5,01,00,00,50,03,00,00,00,
-1761704677523709,1C000354,true,Rx,0,8,00,04,00,00,00,00,00,F6,
-1761704677523623,1C000354,true,Rx,0,1,03,00,00,00,00,00,00,00,
-1761704677523453,1C000354,true,Rx,0,8,02,FD,11,00,08,01,28,80,
-1761704677523325,0401E412,true,Rx,0,7,00,01,00,00,00,00,00,00,
-1761704677523197,0401E412,true,Rx,0,7,01,01,03,00,00,00,00,00,
-1761704677523026,0401E452,true,Rx,0,8,01,E2,00,00,00,00,00,00,
-1761704677522898,0401E452,true,Rx,0,8,00,E2,00,00,00,00,00,00,
-1761704677522770,1C00003A,true,Rx,0,8,02,FD,11,00,0C,01,28,80,
-1761704677522599,1C000354,true,Rx,0,8,01,EC,01,DC,90,12,07,00,
-1761704677522471,1C00003A,true,Rx,0,8,01,F3,00,E2,F2,10,0D,00,
-1761704677522343,1C000354,true,Rx,0,5,01,00,00,B7,03,00,00,00,
-1761704677522258,1C00003A,true,Rx,0,5,01,00,00,D7,03,00,00,00,
-1761704677521959,1C00029A,true,Rx,0,8,02,FD,11,00,08,01,28,80,
-1761704677521831,1C00029A,true,Rx,0,8,01,EC,00,E3,90,12,0A,00,
-1761704677521703,1C00029A,true,Rx,0,5,01,00,00,F9,03,00,00,00,
-1761704677521234,1C00034B,true,Rx,0,8,02,FD,15,00,09,01,28,80,
-1761704677521106,1C000341,true,Rx,0,8,02,FD,14,00,0C,01,28,80,
-1761704677520978,1C00034B,true,Rx,0,8,01,D5,01,DD,90,12,07,00,
-1761704677520850,1C000341,true,Rx,0,8,01,3A,01,E2,F2,10,0D,00,
-1761704677520679,1C00034B,true,Rx,0,8,00,04,00,00,00,00,00,9E,
-1761704677520551,1C000341,true,Rx,0,8,00,03,00,00,5D,01,D2,03,
-1761704677520466,1C00034B,true,Rx,0,1,03,00,00,00,00,00,00,00,
-1761704677520295,1C00034B,true,Rx,0,8,02,FD,11,00,09,01,28,80,
-1761704677520167,1C00034B,true,Rx,0,8,01,21,01,DD,90,12,07,00,
-1761704677520039,1C00034B,true,Rx,0,5,01,00,00,F4,03,00,00,00,
-1761704677519570,1C00003A,true,Rx,0,8,02,FD,11,00,0C,01,28,80,
-1761704677519442,1C00003A,true,Rx,0,8,01,F3,00,E4,F2,10,0E,00,
-1761704677519314,1C00003A,true,Rx,0,5,01,00,00,0A,03,00,00,00,
-1761704677518503,1C000354,true,Rx,0,8,02,FD,12,00,08,01,28,80,
-1761704677518375,1C000354,true,Rx,0,8,01,AB,01,E3,90,12,0A,00,
-1761704677518205,1C00017A,true,Rx,0,8,02,FD,11,00,09,01,28,80,
-1761704677518077,1C000341,true,Rx,0,8,02,FD,16,00,0C,01,28,80,
-1761704677517949,1C00017A,true,Rx,0,8,01,21,00,E5,90,12,0A,00,
-1761704677517778,1C000341,true,Rx,0,8,01,40,01,E4,F2,10,0E,00,
-1761704677517650,1C00017A,true,Rx,0,5,01,00,00,6A,03,00,00,00,
-1761704677517522,1C000341,true,Rx,0,8,00,05,00,00,00,00,00,00,
-1761704677517394,1C000354,true,Rx,0,6,00,01,00,00,02,03,00,00,
-1761704677517309,1C000341,true,Rx,0,2,1B,03,00,00,00,00,00,00,
-1761704677516114,1C00003A,true,Rx,0,8,02,FD,10,00,0C,01,28,80,
-1761704677515986,1C00003A,true,Rx,0,8,01,CE,00,E6,F2,10,11,00,
-1761704677515858,1C00003A,true,Rx,0,4,00,00,E6,03,00,00,00,00,
-1761704677515688,1C00034B,true,Rx,0,8,02,FD,12,00,09,01,28,80,
-1761704677515517,1C00034B,true,Rx,0,8,01,66,01,E5,90,12,0A,00,
-1761704677515389,1C00034B,true,Rx,0,6,00,01,00,00,F1,03,00,00,
-1761704677515261,1C00029A,true,Rx,0,8,02,FD,11,00,08,01,28,80,
-1761704677515090,1C00029A,true,Rx,0,8,01,EC,00,E7,90,12,0C,00,
-1761704677515005,1C00029A,true,Rx,0,5,01,00,00,70,03,00,00,00,
-1761704677514834,1C000341,true,Rx,0,8,02,FD,12,00,0C,01,28,80,
-1761704677514664,1C000341,true,Rx,0,8,01,B4,01,E6,F2,10,11,00,
-1761704677514536,1C000341,true,Rx,0,6,00,01,00,06,67,03,00,00,
-1761704677513768,1C00017A,true,Rx,0,8,02,FD,11,00,09,01,28,80,
-1761704677513640,1C00017A,true,Rx,0,8,01,21,00,E8,90,12,0C,00,
-1761704677513512,1C00017A,true,Rx,0,5,01,00,00,8A,03,00,00,00,
-1761704677512744,1C00003A,true,Rx,0,8,02,FD,11,00,0C,01,28,80,
-1761704677512616,1C00003A,true,Rx,0,8,01,F3,00,E9,F2,10,13,00,
-1761704677512488,1C00003A,true,Rx,0,5,01,00,00,E6,03,00,00,00,
-1761704677512317,1C000354,true,Rx,0,8,02,FD,12,00,08,01,28,80,
-1761704677512146,1C000354,true,Rx,0,8,01,AB,01,E7,90,12,0C,00,
-1761704677512018,1C000354,true,Rx,0,6,00,01,00,01,4C,03,00,00,
-1761704677511378,1C000341,true,Rx,0,8,02,FD,14,00,0C,01,28,80,
-1761704677511250,1C000341,true,Rx,0,8,01,3A,01,E9,F2,10,13,00,
-1761704677511122,1C000341,true,Rx,0,8,00,03,00,00,64,00,66,03,
-1761704677510568,1C00029A,true,Rx,0,8,02,FD,10,00,08,01,28,80,
-1761704677510440,1C00029A,true,Rx,0,8,01,D1,00,EA,60,00,11,00,
-1761704677510312,1C00029A,true,Rx,0,4,00,00,40,03,00,00,00,00,
-1761704677509587,1C00003A,true,Rx,0,8,02,FD,11,00,0C,01,28,80,
-1761704677509459,1C00003A,true,Rx,0,8,01,F3,00,EB,F2,10,00,00,
-1761704677509288,1C00034B,true,Rx,0,8,02,FD,12,00,09,01,28,80,
-1761704677509160,1C00003A,true,Rx,0,5,01,00,00,52,03,00,00,00,
-1761704677509032,1C00034B,true,Rx,0,8,01,66,01,E8,90,12,0C,00,
-1761704677508904,1C00034B,true,Rx,0,6,00,01,00,01,46,03,00,00,
-1761704677508264,1C000341,true,Rx,0,8,02,FD,11,00,0C,01,28,80,
-1761704677508093,1C000341,true,Rx,0,8,01,F3,01,EB,F2,10,00,00,
-1761704677507965,1C000341,true,Rx,0,5,00,00,00,5D,03,00,00,00,
-1761704677507411,1C00017A,true,Rx,0,8,02,FD,10,00,09,01,28,80,
-1761704677507240,1C00017A,true,Rx,0,8,01,1C,00,F0,60,00,11,00,
-1761704677507155,1C00017A,true,Rx,0,4,00,00,30,03,00,00,00,00,
-1761704677506259,1C000354,true,Rx,0,8,02,FD,12,00,08,01,28,80,
-1761704677506131,1C00003A,true,Rx,0,8,02,FD,10,00,0C,01,28,80,
-1761704677505960,04056411,true,Rx,0,8,08,00,8E,FD,F3,FF,F3,03,
-1761704677505832,1C00003A,true,Rx,0,8,01,CE,00,F1,60,00,11,00,
-1761704677505704,1C000354,true,Rx,0,8,01,AB,01,EA,60,00,11,00,
-1761704677505576,04056412,true,Rx,0,8,FB,FF,E5,01,FD,F8,F3,03,
-1761704677505448,1C00003A,true,Rx,0,4,00,00,0D,03,00,00,00,00,
-1761704677505320,1C000354,true,Rx,0,6,00,01,00,0B,DE,03,00,00,
-1761704677504381,1C000341,true,Rx,0,8,02,FD,12,00,0C,01,28,80,
-1761704677504253,1C000341,true,Rx,0,8,01,B4,01,F1,60,00,11,00,
-1761704677504125,1C000341,true,Rx,0,6,00,01,00,12,CD,03,00,00,
-1761704677503443,0401E412,true,Rx,0,7,00,01,01,00,00,00,00,00,
-1761704677503315,0401E412,true,Rx,0,7,01,01,03,00,00,00,00,00,
-1761704677503187,0401E452,true,Rx,0,8,01,F6,00,00,00,00,00,00,
-1761704677503016,0401E452,true,Rx,0,8,00,F6,00,00,00,00,00,00,
-1761704677502888,1C00034B,true,Rx,0,8,02,FD,12,00,09,01,28,80,
-1761704677502717,1C00034B,true,Rx,0,8,01,66,01,F0,60,00,11,00,
-1761704677502589,1C00034B,true,Rx,0,6,00,01,00,0C,EB,03,00,00,
-1761704677502461,1C00003A,true,Rx,0,8,02,FD,11,00,0C,01,28,80,
-1761704677502333,1C00003A,true,Rx,0,8,01,F3,00,F5,F2,10,07,00,
-1761704677502205,1C00003A,true,Rx,0,5,01,00,01,B0,03,00,00,00,
-1761704677501949,1C00029A,true,Rx,0,8,02,FD,10,00,08,01,28,80,
-1761704677501821,1C00029A,true,Rx,0,8,01,D1,00,F6,94,12,04,00,
-1761704677501693,1C00029A,true,Rx,0,4,00,00,56,03,00,00,00,00,
-1761704677501182,1C000341,true,Rx,0,8,02,FD,11,00,00,00,00,00,
-1761704677501011,1C000341,true,Rx,0,8,00,9D,18,0C,01,28,80,F2,
-1761704677500926,1C000341,true,Rx,0,5,10,12,01,26,03,00,00,00,
-1761704677500755,1C000341,true,Rx,0,8,02,FD,11,00,0C,01,28,80,
-1761704677500627,1C00017A,true,Rx,0,8,02,FD,10,00,09,01,28,80,
-1761704677500499,1C000341,true,Rx,0,8,01,F3,01,F5,F2,10,07,00,
-1761704677500328,1C00017A,true,Rx,0,8,01,1C,00,F7,94,12,04,00,
-1761704677500243,1C000341,true,Rx,0,5,00,00,00,E1,03,00,00,00,
-1761704677500115,1C00017A,true,Rx,0,4,00,00,6B,03,00,00,00,00,
-1761704677499518,1C000354,true,Rx,0,8,02,FD,11,00,00,00,00,00,
-1761704677499347,1C000354,true,Rx,0,8,00,9D,18,08,01,28,80,94,
-1761704677499219,1C000354,true,Rx,0,5,12,0B,01,BB,03,00,00,00,
-1761704677499048,1C000354,true,Rx,0,8,02,FD,11,00,08,01,28,80,
-1761704677498920,1C00003A,true,Rx,0,8,02,FD,12,00,00,00,00,00,
-1761704677498792,1C000354,true,Rx,0,8,01,EC,01,F6,94,12,04,00,
-1761704677498622,1C00003A,true,Rx,0,8,00,DA,19,0C,01,28,80,F2,
-1761704677498536,1C000354,true,Rx,0,5,00,00,00,A2,03,00,00,00,
-1761704677498408,1C00003A,true,Rx,0,6,10,12,01,01,6E,03,00,00,
-1761704677497555,1C00034B,true,Rx,0,8,02,FD,11,00,00,00,00,00,
-1761704677497427,1C00003A,true,Rx,0,8,02,FD,11,00,0C,01,28,80,
-1761704677497299,1C00034B,true,Rx,0,8,00,9D,18,09,01,28,80,94,
-1761704677497128,1C00003A,true,Rx,0,8,01,F3,00,F8,F2,10,0C,00,
-1761704677497043,1C00034B,true,Rx,0,5,12,0C,01,96,03,00,00,00,
-1761704677496915,1C00003A,true,Rx,0,5,01,00,01,BC,03,00,00,00,
-1761704677496787,1C00034B,true,Rx,0,8,02,FD,11,00,09,01,28,80,
-1761704677496616,1C00034B,true,Rx,0,8,01,21,01,F7,94,12,04,00,
-1761704677496488,1C00034B,true,Rx,0,5,00,00,00,E1,03,00,00,00,
-1761704677496190,1C00029A,true,Rx,0,8,02,FD,12,00,00,00,00,00,
-1761704677496019,1C00029A,true,Rx,0,8,00,DA,19,08,01,28,80,94,
-1761704677495891,1C000341,true,Rx,0,8,02,FD,14,00,0C,01,28,80,
-1761704677495763,1C00029A,true,Rx,0,6,12,0B,01,01,82,03,00,00,
-1761704677495635,04072001,true,Rx,0,4,00,00,00,00,00,00,00,00,
-1761704677495507,1C000341,true,Rx,0,8,01,3A,01,F8,F2,10,0C,00,
-1761704677495379,1C000341,true,Rx,0,8,00,03,00,01,73,02,6D,03,
-1761704677494611,1C00029A,true,Rx,0,8,02,FD,11,00,08,01,28,80,
-1761704677494440,1C00029A,true,Rx,0,8,01,EC,00,FC,94,12,06,00,
-1761704677494355,1C00029A,true,Rx,0,5,01,00,00,82,03,00,00,00,
-1761704677493416,1C00017A,true,Rx,0,8,02,FD,12,00,00,00,00,00,
-1761704677493246,1C00017A,true,Rx,0,8,00,DA,19,09,01,28,80,94,
-1761704677493160,1C00017A,true,Rx,0,6,12,0C,01,01,5C,03,00,00,
-1761704677491710,1C00003A,true,Rx,0,8,02,FD,11,00,0C,01,28,80,
-1761704677491582,1C00003A,true,Rx,0,8,01,F3,00,FD,F2,10,0D,00,
-1761704677491454,1C00003A,true,Rx,0,5,01,00,01,27,03,00,00,00,
-1761704677491283,1C000354,true,Rx,0,8,02,FD,12,00,08,01,28,80,
-1761704677491155,1C000354,true,Rx,0,8,01,AB,01,FC,94,12,06,00,
-1761704677491027,1C00017A,true,Rx,0,8,02,FD,11,00,09,01,28,80,
-1761704677490857,1C000354,true,Rx,0,6,00,01,00,01,84,03,00,00,
-1761704677490729,1C00017A,true,Rx,0,8,01,21,00,FE,94,12,06,00,
-1761704677490643,1C00017A,true,Rx,0,5,01,00,00,04,03,00,00,00,
-1761704677490387,1C000341,true,Rx,0,8,02,FD,14,00,0C,01,28,80,
-1761704677490217,1C000341,true,Rx,0,8,01,3A,01,FD,F2,10,0D,00,
-1761704677490089,1C000341,true,Rx,0,8,00,03,00,01,5D,01,7B,03,
-1761704677489065,1C00029A,true,Rx,0,8,02,FD,11,00,08,01,28,80,
-1761704677488894,1C00029A,true,Rx,0,8,01,EC,00,FF,94,12,00,00,
-1761704677488809,1C00029A,true,Rx,0,5,01,00,00,DB,03,00,00,00,
-1761704677488553,1C00034B,true,Rx,0,8,02,FD,12,00,09,01,28,80,
-1761704677488382,1C00034B,true,Rx,0,8,01,66,01,FE,94,12,06,00,
-1761704677488254,1C00034B,true,Rx,0,6,00,01,00,01,D5,03,00,00,
-1761704677487998,1C00003A,true,Rx,0,8,02,FD,11,00,0C,01,28,80,
-1761704677487827,1C00003A,true,Rx,0,8,01,F3,00,00,F2,10,0E,00,
-1761704677487699,1C00003A,true,Rx,0,5,01,00,01,32,03,00,00,00,
-1761704677486803,1C00017A,true,Rx,0,8,02,FD,11,00,09,01,28,80,
-1761704677486675,1C000354,true,Rx,0,8,02,FD,12,00,08,01,28,80,
-1761704677486505,1C00017A,true,Rx,0,8,01,21,00,01,94,12,00,00,
-1761704677486377,1C000354,true,Rx,0,8,01,AB,01,FF,94,12,00,00,
-1761704677486249,1C00017A,true,Rx,0,5,01,00,00,45,03,00,00,00,
-1761704677486121,1C000354,true,Rx,0,6,00,01,00,01,C3,03,00,00,
-1761704677486035,0405200B,true,Rx,0,2,00,01,00,00,00,00,00,00,
-1761704677485865,04056411,true,Rx,0,8,08,00,91,FD,F3,FF,07,04,
-1761704677485822,0405200C,true,Rx,0,2,00,01,00,00,00,00,00,00,
-1761704677485651,04056412,true,Rx,0,8,FB,FF,E1,01,FD,F8,07,04,
-1761704677484755,1C00029A,true,Rx,0,8,02,FD,11,00,08,01,28,80,
-1761704677484627,1C000341,true,Rx,0,8,02,FD,16,00,0C,01,28,80,
-1761704677484499,1C00029A,true,Rx,0,8,01,EC,00,02,94,12,02,00,
-1761704677484371,1C000341,true,Rx,0,8,01,40,01,00,F2,10,0E,00,
-1761704677484243,1C00029A,true,Rx,0,5,01,00,00,03,03,00,00,00,
-1761704677484073,1C000341,true,Rx,0,8,00,05,00,01,00,00,00,00,
-1761704677483988,1C000341,true,Rx,0,2,5B,03,00,00,00,00,00,00,
-1761704677483604,1C00034B,true,Rx,0,8,02,FD,12,00,09,01,28,80,
-1761704677483476,1C00034B,true,Rx,0,8,01,66,01,01,94,12,00,00,
-1761704677483348,1C00034B,true,Rx,0,6,00,01,00,01,CD,03,00,00,
-1761704677482452,1C00003A,true,Rx,0,8,02,FD,10,00,0C,01,28,80,
-1761704677482324,0401E412,true,Rx,0,7,00,01,03,00,00,00,00,00,
-1761704677482196,0401E412,true,Rx,0,7,01,01,02,00,00,00,00,00,
-1761704677482025,0401E452,true,Rx,0,8,01,0B,00,00,00,00,00,00,
-1761704677481897,0401E452,true,Rx,0,8,00,0B,00,00,00,00,00,00,
-1761704677481769,1C00003A,true,Rx,0,8,01,CE,00,03,F2,10,11,00,
-1761704677481598,1C000354,true,Rx,0,8,02,FD,12,00,08,01,28,80,
-1761704677481513,1C00003A,true,Rx,0,4,00,00,90,03,00,00,00,00,
-1761704677481342,1C000354,true,Rx,0,8,01,AB,01,02,94,12,02,00,
-1761704677481214,1C000354,true,Rx,0,6,00,01,00,01,56,03,00,00,
-1761704677480446,1C000341,true,Rx,0,8,02,FD,12,00,0C,01,28,80,
-1761704677480276,1C000341,true,Rx,0,8,01,B4,01,03,F2,10,11,00,
-1761704677480148,1C000341,true,Rx,0,6,00,01,00,06,7B,03,00,00,
-1761704677479678,1C00017A,true,Rx,0,8,02,FD,11,00,09,01,28,80,
-1761704677479550,1C00017A,true,Rx,0,8,01,21,00,04,94,12,02,00,
-1761704677479422,1C00017A,true,Rx,0,5,01,00,00,90,03,00,00,00,
-1761704677478441,1C00003A,true,Rx,0,8,02,FD,11,00,0C,01,28,80,
-1761704677478313,1C00003A,true,Rx,0,8,01,F3,00,05,F2,10,13,00,
-1761704677478185,1C00003A,true,Rx,0,5,01,00,01,F4,03,00,00,00,
-1761704677477716,1C00029A,true,Rx,0,8,02,FD,11,00,08,01,28,80,
-1761704677477588,1C00029A,true,Rx,0,8,01,EC,00,06,94,12,03,00,
-1761704677477460,1C00029A,true,Rx,0,5,01,00,00,DB,03,00,00,00,
-1761704677477332,1C00034B,true,Rx,0,8,02,FD,12,00,09,01,28,80,
-1761704677477204,1C00034B,true,Rx,0,8,01,66,01,04,94,12,02,00,
-1761704677477033,1C000341,true,Rx,0,8,02,FD,14,00,0C,01,28,80,
-1761704677476905,1C00034B,true,Rx,0,6,00,01,00,01,A5,03,00,00,
-1761704677476777,1C000341,true,Rx,0,8,01,3A,01,05,F2,10,13,00,
-1761704677476649,1C000341,true,Rx,0,8,00,03,00,01,64,00,47,03,
-1761704677475412,1C00003A,true,Rx,0,8,02,FD,11,00,0C,01,28,80,
-1761704677475284,1C000354,true,Rx,0,8,02,FD,12,00,08,01,28,80,
-1761704677475156,1C00003A,true,Rx,0,8,01,F3,00,07,F2,10,00,00,
-1761704677474985,1C000354,true,Rx,0,8,01,AB,01,06,94,12,03,00,
-1761704677474900,1C00003A,true,Rx,0,5,01,00,00,1E,03,00,00,00,
-1761704677474772,1C000354,true,Rx,0,6,00,01,00,00,9D,03,00,00,
-1761704677474601,1C00017A,true,Rx,0,8,02,FD,11,00,09,01,28,80,
-1761704677474473,1C00017A,true,Rx,0,8,01,21,00,0B,94,12,03,00,
-1761704677474345,1C00017A,true,Rx,0,5,01,00,00,A7,03,00,00,00,
-1761704677473791,1C000341,true,Rx,0,8,02,FD,11,00,0C,01,28,80,
-1761704677473663,1C000341,true,Rx,0,8,01,F3,01,07,F2,10,00,00,
-1761704677473535,1C000341,true,Rx,0,5,00,00,00,11,03,00,00,00,
-1761704677473364,1C00029A,true,Rx,0,8,02,FD,11,00,08,01,28,80,
-1761704677473236,1C00029A,true,Rx,0,8,01,EC,00,0C,94,12,07,00,
-1761704677473108,1C00029A,true,Rx,0,5,01,00,00,68,03,00,00,00,
-1761704677472425,1C00034B,true,Rx,0,8,02,FD,12,00,09,01,28,80,
-1761704677472255,1C00034B,true,Rx,0,8,01,66,01,0B,94,12,03,00,
-1761704677472127,1C00034B,true,Rx,0,6,00,01,00,00,C6,03,00,00,
-1761704677471188,1C00003A,true,Rx,0,8,02,FD,10,00,0C,01,28,80,
-1761704677471060,1C00003A,true,Rx,0,8,01,CE,00,0D,60,00,11,00,
-1761704677470932,1C00003A,true,Rx,0,4,00,00,4C,03,00,00,00,00,
-1761704677470463,1C000354,true,Rx,0,8,02,FD,18,00,08,01,28,80,
-1761704677470335,1C00017A,true,Rx,0,8,02,FD,11,00,09,01,28,80,
-1761704677470207,1C000354,true,Rx,0,8,01,20,01,0C,94,12,07,00,
-1761704677470036,1C00017A,true,Rx,0,8,01,21,00,10,94,12,07,00,
-1761704677469908,1C000341,true,Rx,0,8,02,FD,12,00,0C,01,28,80,
-1761704677469823,1C00017A,true,Rx,0,5,01,00,00,03,03,00,00,00,
-1761704677469652,1C000341,true,Rx,0,8,01,B4,01,0D,60,00,11,00,
-1761704677469524,1C000354,true,Rx,0,8,00,07,00,00,00,00,00,00,
-1761704677469396,1C000341,true,Rx,0,6,00,01,00,12,92,03,00,00,
-1761704677469268,1C000354,true,Rx,0,4,00,00,CC,03,00,00,00,00,
-1761704677468287,1C00003A,true,Rx,0,8,02,FD,11,00,0C,01,28,80,
-1761704677468159,1C00003A,true,Rx,0,8,01,F3,00,11,10,15,04,00,
-1761704677468031,1C00003A,true,Rx,0,5,01,00,01,B6,03,00,00,00,
-1761704677467647,1C00034B,true,Rx,0,8,02,FD,18,00,09,01,28,80,
-1761704677467476,1C00034B,true,Rx,0,8,01,ED,01,10,94,12,07,00,
-1761704677467348,1C00034B,true,Rx,0,8,00,07,00,00,00,00,00,00,
-1761704677467220,1C00034B,true,Rx,0,4,00,00,52,03,00,00,00,00,
-1761704677467050,1C000341,true,Rx,0,8,02,FD,11,00,00,00,00,00,
-1761704677466922,1C000341,true,Rx,0,8,00,9D,18,0C,01,28,80,10,
-1761704677466794,1C000341,true,Rx,0,5,15,12,01,5D,03,00,00,00,
-1761704677466666,1C000341,true,Rx,0,8,02,FD,11,00,0C,01,28,80,
-1761704677466495,1C000341,true,Rx,0,8,01,F3,01,11,10,15,04,00,
-1761704677466410,1C000341,true,Rx,0,5,00,00,00,E7,03,00,00,00,
-1761704677466068,04056411,true,Rx,0,8,08,00,93,FD,F3,FF,1B,04,
-1761704677465215,1C00003A,true,Rx,0,8,02,FD,12,00,00,00,00,00,
-1761704677465087,1C00003A,true,Rx,0,8,00,DA,19,0C,01,28,80,10,
-1761704677464959,040A2012,true,Rx,0,8,F4,FD,FC,FF,4C,03,1C,04,
-1761704677464788,04056412,true,Rx,0,8,FB,FF,DE,01,FD,F8,1C,04,
-1761704677464703,1C00003A,true,Rx,0,6,15,12,01,01,B6,03,00,00,
-1761704677463167,1C00003A,true,Rx,0,8,02,FD,10,00,0C,01,28,80,
-1761704677463039,1C00003A,true,Rx,0,8,01,CE,00,12,10,15,01,00,
-1761704677462911,1C00003A,true,Rx,0,4,00,00,FB,03,00,00,00,00,
-1761704677461930,1C000341,true,Rx,0,8,02,FD,12,00,0C,01,28,80,
-1761704677461759,1C000341,true,Rx,0,8,01,B4,01,12,10,15,01,00,
-1761704677461631,1C000341,true,Rx,0,6,00,01,00,01,81,03,00,00,
-1761704677461247,0401E412,true,Rx,0,7,00,01,02,00,00,00,00,00,
-1761704677461119,0401E412,true,Rx,0,7,01,01,01,00,00,00,00,00,
-1761704677460991,0401E452,true,Rx,0,8,01,20,00,00,00,00,00,00,
-1761704677460820,0401E432,true,Rx,0,6,00,00,00,00,00,00,00,00,
-1761704677460735,0401E432,true,Rx,0,6,01,00,00,00,00,00,00,00,
-1761704677460564,0401E452,true,Rx,0,8,00,20,00,00,00,00,00,00,
-1761704677460436,1C00003A,true,Rx,0,8,02,FD,10,00,0C,01,28,80,
-1761704677460308,1C00003A,true,Rx,0,8,01,CE,00,13,10,15,0A,00,
-1761704677460180,1C00003A,true,Rx,0,4,00,00,52,03,00,00,00,00,
-1761704677459242,1C000341,true,Rx,0,8,02,FD,19,00,0C,01,28,80,
-1761704677459114,1C000341,true,Rx,0,8,01,02,01,13,10,15,0A,00,
-1761704677458943,1C000341,true,Rx,0,8,00,08,00,F4,FD,FC,FF,4C,
-1761704677458815,1C000341,true,Rx,0,5,03,1C,04,66,03,00,00,00,
-1761704677457791,1C00003A,true,Rx,0,8,02,FD,10,00,0C,01,28,80,
-1761704677457621,1C00003A,true,Rx,0,8,01,CE,00,16,10,15,07,00,
-1761704677457535,1C00003A,true,Rx,0,4,00,00,06,03,00,00,00,00,
-1761704677456511,1C000341,true,Rx,0,8,02,FD,13,00,0C,01,28,80,
-1761704677456383,1C000341,true,Rx,0,8,01,89,01,16,10,15,07,00,
-1761704677456255,1C000341,true,Rx,0,7,00,02,00,F4,FD,28,03,00,
-1761704677455359,1C00003A,true,Rx,0,8,02,FD,10,00,0C,01,28,80,
-1761704677455231,1C00003A,true,Rx,0,8,01,CE,00,17,10,15,08,00,
-1761704677455103,1C00003A,true,Rx,0,4,00,00,A1,03,00,00,00,00,
-1761704677454207,1C000341,true,Rx,0,8,02,FD,13,00,0C,01,28,80,
-1761704677454037,1C000341,true,Rx,0,8,01,89,01,17,10,15,08,00,
-1761704677453909,1C000341,true,Rx,0,7,00,02,00,FC,FF,6E,03,00,
-1761704677452799,1C00003A,true,Rx,0,8,02,FD,10,00,0C,01,28,80,
-1761704677452629,1C00003A,true,Rx,0,8,01,CE,00,18,10,15,09,00,
-1761704677452543,1C00003A,true,Rx,0,4,00,00,6C,03,00,00,00,00,
-1761704677451562,1C000341,true,Rx,0,8,02,FD,13,00,0C,01,28,80,
-1761704677451434,1C000341,true,Rx,0,8,01,89,01,18,10,15,09,00,
-1761704677451263,1C000341,true,Rx,0,7,00,02,00,4C,03,F8,03,00,
-1761704677450495,04030C82,true,Rx,0,4,00,01,00,00,00,00,00,00,
-1761704677450367,04030CE2,true,Rx,0,8,8D,00,00,00,C2,64,1E,67,
-1761704677450197,1C00003A,true,Rx,0,8,02,FD,10,00,0C,01,28,80,
-1761704677450069,1C00003A,true,Rx,0,8,01,CE,00,19,10,15,0B,00,
-1761704677449941,1C00003A,true,Rx,0,4,00,00,56,03,00,00,00,00,
-1761704677449002,1C000341,true,Rx,0,8,02,FD,13,00,0C,01,28,80,
-1761704677448874,1C000341,true,Rx,0,8,01,89,01,19,10,15,0B,00,
-1761704677448746,1C000341,true,Rx,0,7,00,02,00,00,01,26,03,00,
-1761704677447594,1C00003A,true,Rx,0,8,02,FD,10,00,0C,01,28,80,
-1761704677447466,1C00003A,true,Rx,0,8,01,CE,00,1A,60,00,11,00,
-1761704677447338,1C00003A,true,Rx,0,4,00,00,04,03,00,00,00,00,
-1761704677446058,04056411,true,Rx,0,8,08,00,98,FD,F3,FF,2F,04,
-1761704677445760,04072001,true,Rx,0,4,00,00,00,00,00,00,00,00,
-1761704677445632,040A2012,true,Rx,0,8,F2,FD,00,00,48,03,2F,04,
-1761704677445504,04056412,true,Rx,0,8,FB,FF,D6,01,FD,F8,2F,04,
-1761704677444736,1C000341,true,Rx,0,8,02,FD,12,00,0C,01,28,80,
-1761704677444608,1C000341,true,Rx,0,8,01,B4,01,1A,60,00,11,00,
-1761704677444480,1C000341,true,Rx,0,6,00,01,00,12,7F,03,00,00,
-1761704677443584,1C00003A,true,Rx,0,8,02,FD,10,00,0C,01,28,80,
-1761704677443456,1C00003A,true,Rx,0,8,01,CE,00,1E,B0,10,01,00,
-1761704677443328,1C00003A,true,Rx,0,4,00,00,70,03,00,00,00,00,
-1761704677442304,1C000341,true,Rx,0,8,02,FD,11,00,0C,01,28,80,
-1761704677442133,1C000341,true,Rx,0,8,01,F3,01,1E,B0,10,01,00,
-1761704677442048,1C000341,true,Rx,0,5,07,00,00,26,03,00,00,00,
-1761704677440427,0401E412,true,Rx,0,7,00,01,04,00,00,00,00,00,
-1761704677440299,0401E412,true,Rx,0,7,01,01,02,00,00,00,00,00,
-1761704677440128,0401E452,true,Rx,0,8,01,35,00,00,00,00,00,00,
-1761704677440000,0401E452,true,Rx,0,8,00,35,00,00,00,00,00,00,
-1761704677439829,0405280B,true,Rx,0,2,00,01,00,00,00,00,00,00,
-1761704677439573,1C00003A,true,Rx,0,8,02,FD,10,00,0C,01,28,80,
-1761704677439403,1C00003A,true,Rx,0,8,01,CE,00,1F,60,00,11,00,
-1761704677439317,1C00003A,true,Rx,0,4,00,00,CD,03,00,00,00,00,
-1761704677438891,0405280C,true,Rx,0,2,00,01,00,00,00,00,00,00,
-1761704677438336,1C000341,true,Rx,0,8,02,FD,12,00,0C,01,28,80,
-1761704677438165,1C000341,true,Rx,0,8,01,B4,01,1F,60,00,11,00,
-1761704677438037,1C000341,true,Rx,0,6,00,01,00,12,79,03,00,00,
-1761704677436288,1C00003A,true,Rx,0,8,02,FD,10,00,0C,01,28,80,
-1761704677436160,1C00003A,true,Rx,0,8,01,CE,00,20,74,1B,04,00,
-1761704677436032,1C00003A,true,Rx,0,4,00,00,A9,03,00,00,00,00,
-1761704677435008,1C000341,true,Rx,0,8,02,FD,11,00,00,00,00,00,
-1761704677434880,1C000341,true,Rx,0,8,00,9D,18,0C,01,28,80,74,
-1761704677434752,1C000341,true,Rx,0,5,1B,12,01,37,03,00,00,00,
-1761704677434624,1C000341,true,Rx,0,8,02,FD,11,00,0C,01,28,80,
-1761704677434453,1C000341,true,Rx,0,8,01,F3,01,20,74,1B,04,00,
-1761704677434368,1C000341,true,Rx,0,5,00,00,00,97,03,00,00,00,
-1761704677433173,1C00003A,true,Rx,0,8,02,FD,12,00,00,00,00,00,
-1761704677433045,1C00003A,true,Rx,0,8,00,DA,19,0C,01,28,80,74,
-1761704677432918,1C00003A,true,Rx,0,6,1B,12,01,01,AD,03,00,00,
-1761704677432107,1C00003A,true,Rx,0,8,02,FD,10,00,0C,01,28,80,
-1761704677431936,1C00003A,true,Rx,0,8,01,CE,00,21,74,1B,02,00,
-1761704677431851,1C00003A,true,Rx,0,4,00,00,9D,03,00,00,00,00,
-1761704677430656,1C000341,true,Rx,0,8,02,FD,12,00,0C,01,28,80,
-1761704677430486,1C000341,true,Rx,0,8,01,B4,01,21,74,1B,02,00,
-1761704677430358,1C000341,true,Rx,0,6,00,01,00,01,71,03,00,00,
-1761704677429291,1C00003A,true,Rx,0,8,02,FD,10,00,0C,01,28,80,
-1761704677429163,1C00003A,true,Rx,0,8,01,CE,00,22,74,1B,00,00,
-1761704677429035,1C00003A,true,Rx,0,4,00,00,DD,03,00,00,00,00,
-1761704677428054,1C000341,true,Rx,0,8,02,FD,12,00,0C,01,28,80,
-1761704677427883,1C000341,true,Rx,0,8,01,B4,01,22,74,1B,00,00,
-1761704677427755,1C000341,true,Rx,0,6,00,01,00,01,EA,03,00,00,
-1761704677426646,1C00003A,true,Rx,0,8,02,FD,10,00,0C,01,28,80,
-1761704677426518,1C00003A,true,Rx,0,8,01,CE,00,23,74,1B,03,00,
-1761704677426390,1C00003A,true,Rx,0,4,00,00,68,03,00,00,00,00,
-1761704677426048,04056411,true,Rx,0,8,08,00,9B,FD,F3,FF,43,04,
-1761704677425664,040A2012,true,Rx,0,8,F2,FD,FD,FF,4A,03,43,04,
-1761704677425536,04056412,true,Rx,0,8,FB,FF,D3,01,FD,F8,43,04,
-1761704677424683,1C000341,true,Rx,0,8,02,FD,12,00,0C,01,28,80,
-1761704677424555,1C000341,true,Rx,0,8,01,B4,01,23,74,1B,03,00,
-1761704677424427,1C000341,true,Rx,0,6,00,01,00,00,49,03,00,00,
-1761704677423361,1C00003A,true,Rx,0,8,02,FD,11,00,0C,01,28,80,
-1761704677423233,1C00003A,true,Rx,0,8,01,F3,00,24,74,1B,01,00,
-1761704677423105,1C00003A,true,Rx,0,5,01,00,01,01,03,00,00,00,
-1761704677422123,1C000341,true,Rx,0,8,02,FD,12,00,0C,01,28,80,
-1761704677421995,1C000341,true,Rx,0,8,01,B4,01,24,74,1B,01,00,
-1761704677421867,1C000341,true,Rx,0,6,00,01,00,01,2E,03,00,00,
-1761704677419435,0401E412,true,Rx,0,7,00,01,01,00,00,00,00,00,
-1761704677419307,0401E412,true,Rx,0,7,01,01,03,00,00,00,00,00,
-1761704677419137,0401E452,true,Rx,0,8,01,4A,00,00,00,00,00,00,
-1761704677418966,0401E452,true,Rx,0,8,00,4A,00,00,00,00,00,00,
-1761704677408982,0405200B,true,Rx,0,2,00,01,00,00,00,00,00,00,
-1761704677408854,0405200C,true,Rx,0,2,00,01,00,00,00,00,00,00,
-1761704677406081,04056411,true,Rx,0,8,08,00,9E,FD,F3,FF,57,04,
-1761704677405697,040A2012,true,Rx,0,8,F4,FD,FA,FF,49,03,57,04,
-1761704677405569,04056412,true,Rx,0,8,FB,FF,CF,01,FD,F8,57,04,
-1761704677399425,0401E412,true,Rx,0,7,00,01,01,00,00,00,00,00,
-1761704677399297,0401E412,true,Rx,0,7,01,01,03,00,00,00,00,00,
-1761704677399169,0401E452,true,Rx,0,8,01,5E,00,00,00,00,00,00,
-1761704677398999,0401E452,true,Rx,0,8,00,5E,00,00,00,00,00,00,
-1761704677395799,04072001,true,Rx,0,4,00,00,00,00,00,00,00,00,
-1761704677386071,04056411,true,Rx,0,8,08,00,A2,FD,F3,FF,6B,04,
-1761704677385730,040A2012,true,Rx,0,8,F7,FD,FC,FF,49,03,6B,04,
-1761704677385602,04056412,true,Rx,0,8,FB,FF,C9,01,FD,F8,6B,04,
-1761704677379458,0401E412,true,Rx,0,7,00,01,04,00,00,00,00,00,
-1761704677379330,0401E412,true,Rx,0,7,01,01,04,00,00,00,00,00,
-1761704677379160,0401E452,true,Rx,0,8,01,72,00,00,00,00,00,00,
-1761704677378989,0401E452,true,Rx,0,8,00,72,00,00,00,00,00,00,
-1761704677366061,04056411,true,Rx,0,8,08,00,A5,FD,F4,FF,7F,04,
-1761704677365720,040A2012,true,Rx,0,8,F2,FD,FD,FF,47,03,7F,04,
-1761704677365592,04056412,true,Rx,0,8,FB,FF,C5,01,FD,F8,7F,04,
-1761704677361539,04030C82,true,Rx,0,4,00,01,00,00,00,00,00,00,
-1761704677361368,04030CE2,true,Rx,0,8,8D,00,00,00,C2,64,1E,67,
-1761704677359448,0401E412,true,Rx,0,7,00,01,05,00,00,00,00,00,
-1761704677359320,0401E412,true,Rx,0,7,01,01,0A,00,00,00,00,00,
-1761704677359150,0401E452,true,Rx,0,8,01,86,00,00,00,00,00,00,
-1761704677359022,0401E432,true,Rx,0,6,00,00,00,00,00,00,00,00,
-1761704677358894,0401E432,true,Rx,0,6,01,00,00,00,00,00,00,00,
-1761704677358766,0401E452,true,Rx,0,8,00,86,00,00,00,00,00,00,
-1761704677349593,04057002,true,Rx,0,4,36,90,0C,69,00,00,00,00,
-1761704677346094,04056411,true,Rx,0,8,08,00,A8,FD,F4,FF,93,04,
-1761704677345796,04072001,true,Rx,0,4,00,00,00,00,00,00,00,00,
-1761704677345625,040A2012,true,Rx,0,8,F6,FD,FB,FF,4A,03,93,04,
-1761704677345497,04056412,true,Rx,0,8,FB,FF,C2,01,FD,F8,93,04,
-1761704677342894,0405280C,true,Rx,0,2,00,01,00,00,00,00,00,00,
-1761704677342809,0405280B,true,Rx,0,2,00,01,00,00,00,00,00,00,
-1761704677339438,0401E412,true,Rx,0,7,00,01,01,00,00,00,00,00,
-1761704677339310,0401E412,true,Rx,0,7,01,01,03,00,00,00,00,00,
-1761704677339140,0401E452,true,Rx,0,8,01,9A,00,00,00,00,00,00,
-1761704677339012,0401E452,true,Rx,0,8,00,9A,00,00,00,00,00,00,
-1761704677330138,0405200C,true,Rx,0,2,00,01,00,00,00,00,00,00,
-1761704677327919,0405200B,true,Rx,0,2,00,01,00,00,00,00,00,00,
-1761704677326042,04056411,true,Rx,0,8,08,00,AB,FD,F4,FF,A7,04,
-1761704677325743,040A2012,true,Rx,0,8,ED,FD,FB,FF,49,03,A7,04,
-1761704677325572,04056412,true,Rx,0,8,FB,FF,BC,01,FD,F8,A7,04,
-1761704677319429,0401E412,true,Rx,0,7,00,01,03,00,00,00,00,00,
-1761704677319301,0401E412,true,Rx,0,7,01,01,03,00,00,00,00,00,
-1761704677319173,0401E452,true,Rx,0,8,01,AE,00,00,00,00,00,00,
-1761704677319002,0401E452,true,Rx,0,8,00,AE,00,00,00,00,00,00,
-1761704677306074,04056411,true,Rx,0,8,08,00,AE,FD,F3,FF,BB,04,
-1761704677305690,040A2012,true,Rx,0,8,F2,FD,FB,FF,4C,03,BB,04,
-1761704677305562,04056412,true,Rx,0,8,FB,FF,B9,01,FD,F8,BB,04,
-1761704677299461,0401E412,true,Rx,0,7,00,01,01,00,00,00,00,00,
-1761704677299333,0401E412,true,Rx,0,7,01,01,05,00,00,00,00,00,
-1761704677299163,0401E452,true,Rx,0,8,01,C2,00,00,00,00,00,00,
-1761704677299035,0401E452,true,Rx,0,8,00,C2,00,00,00,00,00,00,
-1761704677295792,04072001,true,Rx,0,4,00,00,00,00,00,00,00,00,
-1761704677286065,04056411,true,Rx,0,8,08,00,B0,FD,F4,FF,CF,04,
-1761704677285723,040A2012,true,Rx,0,8,F5,FD,FE,FF,49,03,CF,04,
-1761704677285595,04056412,true,Rx,0,8,FB,FF,B6,01,FD,F8,CF,04,
-1761704677279451,0401E412,true,Rx,0,7,00,01,03,00,00,00,00,00,
-1761704677279324,0401E412,true,Rx,0,7,01,01,02,00,00,00,00,00,
-1761704677279153,0401E452,true,Rx,0,8,01,D6,00,00,00,00,00,00,
-1761704677279025,0401E452,true,Rx,0,8,00,D6,00,00,00,00,00,00,
-1761704677272540,04030C82,true,Rx,0,4,00,01,00,00,00,00,00,00,
-1761704677272369,04030CE2,true,Rx,0,8,8D,00,00,00,C2,64,1E,67,
-1761704677265841,04056411,true,Rx,0,8,08,00,B4,FD,F4,FF,E3,04,
-1761704677265713,040A2012,true,Rx,0,8,F4,FD,FD,FF,49,03,E3,04,
-1761704677265543,04056412,true,Rx,0,8,FB,FF,B1,01,FD,F8,E3,04,
-1761704677259399,0401E412,true,Rx,0,7,00,01,02,00,00,00,00,00,
-1761704677259271,0401E412,true,Rx,0,7,01,01,04,00,00,00,00,00,
-1761704677259143,0401E452,true,Rx,0,8,01,EA,00,00,00,00,00,00,
-1761704677258972,0401E432,true,Rx,0,6,00,00,00,00,00,00,00,00,
-1761704677258887,0401E432,true,Rx,0,6,01,00,00,00,00,00,00,00,
-1761704677258716,0401E452,true,Rx,0,8,00,EA,00,00,00,00,00,00,
-1761704677251165,0405200C,true,Rx,0,2,00,01,00,00,00,00,00,00,
-1761704677249842,0405200B,true,Rx,0,2,00,01,00,00,00,00,00,00,
-1761704677246002,0405280C,true,Rx,0,2,00,01,00,00,00,00,00,00,
-1761704677245874,04056411,true,Rx,0,8,08,00,B6,FD,F4,FF,F7,04,
-1761704677245746,04072001,true,Rx,0,4,00,00,00,00,00,00,00,00,
-1761704677245618,04056412,true,Rx,0,8,FB,FF,AE,01,FD,F8,F7,04,
-1761704677245490,040A2012,true,Rx,0,8,F1,FD,FD,FF,49,03,F7,04,
-1761704677243613,0405280B,true,Rx,0,2,00,01,00,00,00,00,00,00,
-1761704677239432,0401E412,true,Rx,0,7,00,01,06,00,00,00,00,00,
-1761704677239304,0401E412,true,Rx,0,7,01,01,02,00,00,00,00,00,
-1761704677239176,0401E452,true,Rx,0,8,01,FE,00,00,00,00,00,00,
-1761704677239005,0401E452,true,Rx,0,8,00,FE,00,00,00,00,00,00,
-1761704677226078,04056411,true,Rx,0,8,08,00,B9,FD,F4,FF,0B,05,
-1761704677225736,040A2012,true,Rx,0,8,F7,FD,FD,FF,48,03,0B,05,
-1761704677225608,04056412,true,Rx,0,8,FB,FF,AB,01,FD,F8,0B,05,
-1761704677219465,0401E412,true,Rx,0,7,00,01,05,00,00,00,00,00,
-1761704677219294,0401E412,true,Rx,0,7,01,01,03,00,00,00,00,00,
-1761704677219166,0401E452,true,Rx,0,8,01,12,00,00,00,00,00,00,
-1761704677219038,0401E452,true,Rx,0,8,00,12,00,00,00,00,00,00,
-1761704677206068,04056411,true,Rx,0,8,08,00,BB,FD,F4,FF,1F,05,
-1761704677205726,040A2012,true,Rx,0,8,F5,FD,FC,FF,48,03,1F,05,
-1761704677205598,04056412,true,Rx,0,8,FB,FF,A6,01,FD,F8,1F,05,
-1761704677199455,0401E412,true,Rx,0,7,00,01,02,00,00,00,00,00,
-1761704677199327,0401E412,true,Rx,0,7,01,01,03,00,00,00,00,00,
-1761704677199156,0401E452,true,Rx,0,8,01,26,00,00,00,00,00,00,
-1761704677198985,0401E452,true,Rx,0,8,00,26,00,00,00,00,00,00,
-1761704677195828,04072001,true,Rx,0,4,00,00,00,00,00,00,00,00,
-1761704677186058,04056411,true,Rx,0,8,08,00,BD,FD,F4,FF,33,05,
-1761704677185716,040A2012,true,Rx,0,8,F5,FD,FD,FF,48,03,33,05,
-1761704677185588,04056412,true,Rx,0,8,FB,FF,A4,01,FD,F8,33,05,
-1761704677183498,04030C82,true,Rx,0,4,00,01,00,00,00,00,00,00,
-1761704677183370,04030CE2,true,Rx,0,8,8D,00,00,00,C2,64,1E,67,
-1761704677179445,0401E412,true,Rx,0,7,00,01,05,00,00,00,00,00,
-1761704677179317,0401E412,true,Rx,0,7,01,01,06,00,00,00,00,00,
-1761704677179146,0401E452,true,Rx,0,8,01,3A,00,00,00,00,00,00,
-1761704677179018,0401E452,true,Rx,0,8,00,3A,00,00,00,00,00,00,
-1761704677172149,0405200C,true,Rx,0,2,00,01,00,00,00,00,00,00,
-1761704677171680,0405200B,true,Rx,0,2,00,01,00,00,00,00,00,00,
-1761704677166048,04056411,true,Rx,0,8,08,00,C0,FD,F4,FF,47,05,
-1761704677165749,040A2012,true,Rx,0,8,F1,FD,FB,FF,4C,03,47,05,
-1761704677165579,04056412,true,Rx,0,8,FB,FF,A1,01,FD,F8,47,05,
-1761704677159435,0401E412,true,Rx,0,7,00,01,05,00,00,00,00,00,
-1761704677159307,0401E412,true,Rx,0,7,01,01,04,00,00,00,00,00,
-1761704677159136,0401E452,true,Rx,0,8,01,4E,00,00,00,00,00,00,
-1761704677159008,0401E432,true,Rx,0,6,00,00,00,00,00,00,00,00,
-1761704677158880,0401E432,true,Rx,0,6,01,00,00,00,00,00,00,00,
-1761704677158752,0401E452,true,Rx,0,8,00,4E,00,00,00,00,00,00,
-1761704677149025,0405280C,true,Rx,0,2,00,01,00,00,00,00,00,00,
-1761704677147745,0405280B,true,Rx,0,2,00,01,00,00,00,00,00,00,
-1761704677146081,04056411,true,Rx,0,8,08,00,C2,FD,F4,FF,5B,05,
-1761704677145782,04072001,true,Rx,0,4,00,00,00,00,00,00,00,00,
-1761704677145654,040A2012,true,Rx,0,8,F3,FD,FA,FF,48,03,5B,05,
-1761704677145526,04056412,true,Rx,0,8,FB,FF,9D,01,FD,F8,5B,05,
-1761704677139425,0401E412,true,Rx,0,7,00,01,03,00,00,00,00,00,
-1761704677139297,0401E412,true,Rx,0,7,01,01,02,00,00,00,00,00,
-1761704677139169,0401E452,true,Rx,0,8,01,62,00,00,00,00,00,00,
-1761704677138998,0401E452,true,Rx,0,8,00,62,00,00,00,00,00,00,
-1761704677137590,04098C31,true,Rx,0,3,00,00,00,00,00,00,00,00,
-1761704677137505,04098C51,true,Rx,0,3,00,F3,FF,00,00,00,00,00,
-1761704677135457,04098CB1,true,Rx,0,2,00,00,00,00,00,00,00,00,
-1761704677126071,04056411,true,Rx,0,8,08,00,C4,FD,F4,FF,6F,05,
-1761704677125730,040A2012,true,Rx,0,8,F0,FD,FC,FF,4A,03,6F,05,
-1761704677125602,04056412,true,Rx,0,8,FB,FF,9B,01,FE,F8,6F,05,
-1761704677119458,0401E412,true,Rx,0,7,00,01,FF,FF,00,00,00,00,
-1761704677119330,0401E412,true,Rx,0,7,01,01,01,00,00,00,00,00,
-1761704677119159,0401E452,true,Rx,0,8,01,76,00,00,00,00,00,00,
-1761704677118988,0401E452,true,Rx,0,8,00,76,00,00,00,00,00,00,
-1761704677106061,04056411,true,Rx,0,8,08,00,C7,FD,F4,FF,83,05,
-1761704677105720,040A2012,true,Rx,0,8,F1,FD,F8,FF,44,03,83,05,
-1761704677105592,04056412,true,Rx,0,8,FB,FF,98,01,FE,F8,83,05,
-1761704677100770,1C0003FA,true,Rx,0,8,02,FD,1F,00,00,00,00,00,
-1761704677100642,1C0003FA,true,Rx,0,8,00,E2,14,02,01,28,80,33,
-1761704677100472,1C0003FA,true,Rx,0,8,00,00,00,57,69,66,69,42,
-1761704677100344,1C0003FA,true,Rx,0,8,6C,65,44,6F,6E,67,6C,65,
-1761704677100258,1C0003FA,true,Rx,0,3,00,3C,03,00,00,00,00,00,
-1761704677099747,1C0003FA,true,Rx,0,8,02,FD,20,00,00,00,00,00,
-1761704677099619,1C0003FA,true,Rx,0,8,00,B4,14,06,01,28,80,2B,
-1761704677099491,1C0003FA,true,Rx,0,8,00,00,00,4C,6F,6F,70,52,
-1761704677099363,1C0003FA,true,Rx,0,8,65,63,65,69,76,65,72,5F,
-1761704677099235,1C0003FA,true,Rx,0,4,46,00,7C,03,00,00,00,00,
-1761704677099064,1C0003FA,true,Rx,0,8,02,FD,20,00,00,00,00,00,
-1761704677098936,1C0003FA,true,Rx,0,8,00,B4,14,07,01,28,80,2B,
-1761704677098808,0401E412,true,Rx,0,7,00,01,03,00,00,00,00,00,
-1761704677098680,0401E412,true,Rx,0,7,01,01,03,00,00,00,00,00,
-1761704677098552,0401E452,true,Rx,0,8,01,8A,00,00,00,00,00,00,
-1761704677098381,0401E452,true,Rx,0,8,00,8A,00,00,00,00,00,00,
-1761704677098253,1C0003FA,true,Rx,0,8,00,00,00,4C,6F,6F,70,52,
-1761704677098083,1C0003FA,true,Rx,0,8,65,63,65,69,76,65,72,5F,
-1761704677097997,1C0003FA,true,Rx,0,4,52,00,39,03,00,00,00,00,
-1761704677097869,1C0003FA,true,Rx,0,8,02,FD,25,00,00,00,00,00,
-1761704677097699,1C0003FA,true,Rx,0,8,00,7D,14,0A,01,28,80,29,
-1761704677097571,1C0003FA,true,Rx,0,8,00,00,00,4D,61,67,6E,65,
-1761704677097443,1C0003FA,true,Rx,0,8,74,69,63,33,44,53,65,6E,
-1761704677097272,1C0003FA,true,Rx,0,8,73,6F,72,5F,52,4C,00,55,
-1761704677097229,1C0003FA,true,Rx,0,1,03,00,00,00,00,00,00,00,
-1761704677097059,1C0003FA,true,Rx,0,8,02,FD,25,00,00,00,00,00,
-1761704677096931,1C0003FA,true,Rx,0,8,00,7D,14,0B,01,28,80,29,
-1761704677096803,1C0003FA,true,Rx,0,8,00,00,00,4D,61,67,6E,65,
-1761704677096675,1C0003FA,true,Rx,0,8,74,69,63,33,44,53,65,6E,
-1761704677096504,1C0003FA,true,Rx,0,8,73,6F,72,5F,52,52,00,51,
-1761704677096419,1C0003FA,true,Rx,0,1,03,00,00,00,00,00,00,00,
-1761704677096291,1C0003FA,true,Rx,0,8,02,FD,24,00,00,00,00,00,
-1761704677096163,1C0003FA,true,Rx,0,8,00,40,14,0D,01,28,80,29,
-1761704677095992,1C0003FA,true,Rx,0,8,00,00,00,4D,61,67,6E,65,
-1761704677095864,1C0003FA,true,Rx,0,8,74,69,63,33,44,53,65,6E,
-1761704677095779,04072001,true,Rx,0,4,00,00,00,00,00,00,00,00,
-1761704677095608,1C0003FA,true,Rx,0,8,73,6F,72,5F,57,00,78,03,
-1761704677095480,1C0003FA,true,Rx,0,8,02,FD,1C,00,00,00,00,00,
-1761704677095352,1C0003FA,true,Rx,0,8,00,A5,14,0E,01,28,80,00,
-1761704677095181,1C0003FA,true,Rx,0,8,00,00,00,55,6C,74,72,61,
-1761704677095053,1C0003FA,true,Rx,0,8,73,6F,6E,69,63,00,5C,03,
-1761704677087843,04030C82,true,Rx,0,4,00,01,00,00,00,00,00,00,
-1761704677087672,04030CE2,true,Rx,0,8,8D,00,00,00,C2,64,1E,67,
-1761704677086051,04056411,true,Rx,0,8,08,00,C8,FD,F4,FF,97,05,
-1761704677085710,040A2012,true,Rx,0,8,F1,FD,FC,FF,4D,03,97,05,
-1761704677085582,04056412,true,Rx,0,8,FB,FF,94,01,FE,F8,97,05,
-1761704677084899,0405200B,true,Rx,0,2,00,01,00,00,00,00,00,00,
-1761704677084728,0405200C,true,Rx,0,2,00,01,00,00,00,00,00,00,
-1761704677077817,1C0000DA,true,Rx,0,8,02,FD,09,00,00,01,28,80,
-1761704677077731,1C0000DA,true,Rx,0,5,00,86,16,40,03,00,00,00,
-1761704677077433,0401E412,true,Rx,0,7,00,01,02,00,00,00,00,00,
-1761704677077305,0401E412,true,Rx,0,7,01,01,01,00,00,00,00,00,
-1761704677077177,0401E452,true,Rx,0,8,01,A0,00,00,00,00,00,00,
-1761704677077006,0401E452,true,Rx,0,8,00,A0,00,00,00,00,00,00,
-1761704677075769,1C000346,true,Rx,0,8,02,FD,09,00,00,01,28,80,
-1761704677075641,1C000346,true,Rx,0,5,00,86,17,1E,03,00,00,00,
-1761704677066084,04056411,true,Rx,0,8,08,00,CA,FD,F4,FF,AB,05,
-1761704677065700,040A2012,true,Rx,0,8,F3,FD,FF,FF,46,03,AB,05,
-1761704677065572,04056412,true,Rx,0,8,FB,FF,92,01,FE,F8,AB,05,
-1761704677057423,0401E412,true,Rx,0,7,00,01,04,00,00,00,00,00,
-1761704677057295,0401E412,true,Rx,0,7,01,01,02,00,00,00,00,00,
-1761704677057124,0401E452,true,Rx,0,8,01,B4,00,00,00,00,00,00,
-1761704677056996,0401E432,true,Rx,0,6,00,00,00,00,00,00,00,00,
-1761704677056868,0401E432,true,Rx,0,6,01,00,00,00,00,00,00,00,
-1761704677056740,0401E452,true,Rx,0,8,00,B4,00,00,00,00,00,00,
-1761704677052004,0405280C,true,Rx,0,2,00,01,00,00,00,00,00,00,
-1761704677051834,0405280B,true,Rx,0,2,00,01,00,00,00,00,00,00,
-1761704677046074,04056411,true,Rx,0,8,08,00,CD,FD,F4,FF,BF,05,
-1761704677045818,04072001,true,Rx,0,4,00,00,00,00,00,00,00,00,
-1761704677045690,040A2012,true,Rx,0,8,F1,FD,FC,FF,4B,03,BF,05,
-1761704677045562,04056412,true,Rx,0,8,FB,FF,90,01,FE,F8,BF,05,
-1761704677037626,04098C31,true,Rx,0,3,00,00,00,00,00,00,00,00,
-1761704677037498,04098C51,true,Rx,0,3,00,F3,FF,00,00,00,00,00,
-1761704677037370,0401E412,true,Rx,0,7,00,01,07,00,00,00,00,00,
-1761704677037242,0401E412,true,Rx,0,7,01,01,02,00,00,00,00,00,
-1761704677037114,0401E452,true,Rx,0,8,01,C8,00,00,00,00,00,00,
-1761704677036944,0401E452,true,Rx,0,8,00,C8,00,00,00,00,00,00,
-1761704677026064,04056411,true,Rx,0,8,08,00,CE,FD,F4,FF,D3,05,
-1761704677025723,040A2012,true,Rx,0,8,F3,FD,00,00,4C,03,D3,05,
-1761704677025595,04056412,true,Rx,0,8,FB,FF,8C,01,FE,F8,D3,05,
-1761704677017446,0401E412,true,Rx,0,7,00,01,05,00,00,00,00,00,
-1761704677017318,0401E412,true,Rx,0,7,01,01,02,00,00,00,00,00,
-1761704677017147,0401E452,true,Rx,0,8,01,DC,00,00,00,00,00,00,
-1761704677017019,0401E452,true,Rx,0,8,00,DC,00,00,00,00,00,00,
-1761704677007035,0405200C,true,Rx,0,2,00,01,00,00,00,00,00,00,
-1761704677006865,0405200B,true,Rx,0,2,00,01,00,00,00,00,00,00,
-1761704677006054,04056411,true,Rx,0,8,08,00,CF,FD,F4,FF,E7,05,
-1761704677005713,040A2012,true,Rx,0,8,F7,FD,FD,FF,46,03,E7,05,
-1761704677005585,04056412,true,Rx,0,8,FB,FF,8A,01,FE,F8,E7,05,
-1761704677005457,04030C82,true,Rx,0,4,00,01,00,00,00,00,00,00,
-1761704677005329,04030CE2,true,Rx,0,8,8D,00,00,00,C2,64,1E,67,
-1761704676997436,0401E412,true,Rx,0,7,00,01,03,00,00,00,00,00,
-1761704676997308,0401E412,true,Rx,0,7,01,01,00,00,00,00,00,00,
-1761704676997137,0401E452,true,Rx,0,8,01,F0,00,00,00,00,00,00,
-1761704676996967,0401E452,true,Rx,0,8,00,F0,00,00,00,00,00,00,
-1761704676995857,04072001,true,Rx,0,4,00,00,00,00,00,00,00,00,
-1761704676986087,04056411,true,Rx,0,8,08,00,D2,FD,F4,FF,FB,05,
-1761704676985703,040A2012,true,Rx,0,8,F0,FD,00,00,48,03,FB,05,
-1761704676985575,04056412,true,Rx,0,8,FB,FF,88,01,FE,F8,FB,05,
-1761704676977469,0401E412,true,Rx,0,7,00,01,00,00,00,00,00,00,
-1761704676977298,0401E412,true,Rx,0,7,01,01,0A,00,00,00,00,00,
-1761704676977170,0401E452,true,Rx,0,8,01,04,00,00,00,00,00,00,
-1761704676977042,0401E452,true,Rx,0,8,00,04,00,00,00,00,00,00,
-1761704676966077,04056411,true,Rx,0,8,08,00,D3,FD,F4,FF,0F,06,
-1761704676965736,040A2012,true,Rx,0,8,F4,FD,FA,FF,48,03,0F,06,
-1761704676965608,04056412,true,Rx,0,8,FB,FF,85,01,FE,F8,0F,06,
-1761704676957416,0401E412,true,Rx,0,7,00,01,04,00,00,00,00,00,
-1761704676957288,0401E412,true,Rx,0,7,01,01,07,00,00,00,00,00,
-1761704676957117,0401E452,true,Rx,0,8,01,18,00,00,00,00,00,00,
-1761704676956989,0401E432,true,Rx,0,6,00,00,00,00,00,00,00,00,
-1761704676956861,0401E432,true,Rx,0,6,01,00,00,00,00,00,00,00,
-1761704676956733,0401E452,true,Rx,0,8,00,18,00,00,00,00,00,00,
-1761704676952808,0405280C,true,Rx,0,2,00,01,00,00,00,00,00,00,
-1761704676952638,0405280B,true,Rx,0,2,00,01,00,00,00,00,00,00,
-1761704676946067,04056411,true,Rx,0,8,08,00,D4,FD,F4,FF,23,06,
-1761704676945854,04072001,true,Rx,0,4,00,00,00,00,00,00,00,00,
-1761704676945683,040A2012,true,Rx,0,8,F3,FD,FE,FF,46,03,23,06,
-1761704676945555,04056412,true,Rx,0,8,FB,FF,83,01,FE,F8,23,06,
-1761704676939411,0416E812,true,Rx,0,1,00,00,00,00,00,00,00,00,
-1761704676937577,04098C31,true,Rx,0,3,00,00,00,00,00,00,00,00,
-1761704676937492,04098C51,true,Rx,0,3,00,ED,FF,00,00,00,00,00,
-1761704676937364,0401E412,true,Rx,0,7,00,01,01,00,00,00,00,00,
-1761704676937193,0401E412,true,Rx,0,7,01,01,03,00,00,00,00,00,
-1761704676937065,0401E452,true,Rx,0,8,01,2C,00,00,00,00,00,00,
-1761704676936937,0401E452,true,Rx,0,8,00,2C,00,00,00,00,00,00,
-1761704676928873,0405200C,true,Rx,0,2,00,01,00,00,00,00,00,00,
-1761704676928788,0405200B,true,Rx,0,2,00,01,00,00,00,00,00,00,
-1761704676926057,04056411,true,Rx,0,8,08,00,D7,FD,F4,FF,37,06,
-1761704676925716,040A2012,true,Rx,0,8,F6,FD,FC,FF,48,03,37,06,
-1761704676925588,04056412,true,Rx,0,8,FB,FF,82,01,FE,F8,37,06,
-1761704676917439,0401E412,true,Rx,0,7,00,01,03,00,00,00,00,00,
-1761704676917311,0401E412,true,Rx,0,7,01,01,03,00,00,00,00,00,
-1761704676917140,0401E452,true,Rx,0,8,01,40,00,00,00,00,00,00,
-1761704676916970,0401E452,true,Rx,0,8,00,40,00,00,00,00,00,00,
-1761704676916500,04030C82,true,Rx,0,4,00,01,00,00,00,00,00,00,
-1761704676916372,04030CE2,true,Rx,0,8,8D,00,00,00,C2,64,1E,67,
-1761704676906047,04056411,true,Rx,0,8,08,00,D8,FD,F4,FF,4B,06,
-1761704676905706,040A2012,true,Rx,0,8,F4,FD,FC,FF,4B,03,4B,06,
-1761704676905578,04056412,true,Rx,0,8,FB,FF,7E,01,FE,F8,4B,06,
-1761704676897429,0401E412,true,Rx,0,7,00,01,04,00,00,00,00,00,
-1761704676897301,0401E412,true,Rx,0,7,01,01,FF,FF,00,00,00,00,
